!
! Integrated Device Technology
! Corporate Headquarters
! 6024 Silver Creek Valley Road
! San Jose, CA 95138  USA
! Phone:      1-408-284-8200
! Toll Free:  1-800-223-1366
! Webpage:   http://www.idt.com/
! 
! Timing and RF Division
! 515 Groton Road, Suite 102
! Westford, MA 01886-6024
! 
! Device:      F2972
! Description: High Linearity Broadband SP2T
! Frequency:   0.005 - 10.000 GHz
! Package:     2x2 mm LQFN Plastic Package: 12 pin
! Ports:       3 RF, 3 DC
!              Pin  1  = GND
!              Pin  2  = RFC      = Port 3
!              Pin  3  = GND
!              Pin  4  = GND
!              Pin  5  = RF1      = Port 1
!              Pin  6  = GND
!              Pin  7  = VCTL
!              Pin  8  = EN
!              Pin  9  = VCC
!              Pin 10  = GND
!              Pin 11  = RF2      = Port 2
!              Pin 12  = GND
!              EP      = GND
!
! State:        RF2 Path Selected
! Voltage:      VCC    = +3.3 V
!               EN     = +3.3 V (Logic HIGH)
!               VCTL   = +3.3 V (Logic HIGH)
!
! Data:    The device was measured on the F2972 50 ohm EVKit
!          using a calibrated network analyzer.  
!          The Thru reference parh (J4 to J5) was removed from
! 		the data to produce the de-embedded results.
!          The reference plane is the edge of the RF pins.
!
! Misc:
!
! Date Measured:  2017-01-28
! Date:           2017-05-10 SJ
! Note: 
!   	Integrated Device Technology supplies this data as a sample
!	of measured data. 
!   	Data was taken at 25 degrees C.
!   	Integrated Device Technology reserves the right to change
! 	this data at anytime.
!
! 3 Port Network Data
! freq  dbS11  angS11  dbS12  angS12  dbS13  angS13  
!       dbS21  angS21  dbS22  angS22  dbS23  angS23  
!       dbS31  angS31  dbS32  angS32  dbS33  angS33  
!     
# HZ S DB R 50
           1000000       -2.53558746         179.344746        -75.3207805        -9.22782514        -79.9483429         14.2785135
                      -74.3072064         42.7494712        -29.1570112         15.5559737       -0.254140956        -0.41298382
                      -74.8869039        -15.6206903       -0.241848404       -0.418207471        -30.4008413         17.5624336

          25997500       -2.56697617         179.447374        -74.6790242         43.1366953        -75.9549659         31.8916057
                      -74.3348913         46.0490226        -31.2633641       -0.798045348       -0.268095109       -0.351386844
                      -75.6593175         31.4156881       -0.255902274       -0.334509477        -30.3615093         4.16102831

          50995000       -2.57874831         179.016569        -70.4282225         66.2902636        -73.1912667         51.2130042
                      -70.5244256         65.8993676        -30.1903149         9.95124892       -0.268486482       -0.590894966
                      -73.3994201         50.5674583       -0.264408701       -0.637099358        -30.3001613         5.85750585

          75992500       -2.59002751         178.622225        -67.3533773         73.9209784        -71.1287976           61.25633
                      -67.4355253         73.8759444        -30.1086126         2.67082862       -0.274494249        -0.89002895
                      -71.1635273         61.3121632       -0.265498811       -0.852979304        -29.8791915         8.82570171

         100990000       -2.60099511         178.212309        -65.1003658         78.2185466        -69.0201352         68.2706032
                      -65.0799482          77.548813          -30.15141         10.2236768       -0.280596163        -1.09374838
                      -68.9929688         67.4977183       -0.267450351        -1.14498905        -29.6423683         7.68781797

         125987500       -2.60794054         177.838209        -63.1961876         80.7909008        -67.3932647         73.3401856
                       -63.198632          80.698667        -29.0889852         9.62415679       -0.277579197        -1.37291622
                      -67.4360181          72.968838       -0.276048027        -1.34851882        -29.8395757         13.3732496

         150985000       -2.61332555          177.48382        -61.5888194         82.5675443        -65.9286843          76.506766
                      -61.5876135         82.1557589        -30.3770175         8.03462618       -0.287253855        -1.61071168
                      -65.9231909         75.8494048       -0.268281853        -1.59021414        -29.2502525           13.64713

         175982500       -2.61898126         177.150071          -60.29064         83.6507289        -64.7298927         78.5803007
                      -60.3144047         83.7116885        -29.1810311         16.3220628       -0.279972894        -1.81754979
                      -64.7464905         77.8671386       -0.279599302        -1.85424853        -29.2410135         11.7111325

         200980000       -2.62822648         176.792532        -59.0888711         84.4367624        -63.6011394          80.924277
                      -59.1307649         83.9419178           -29.4869          13.944441       -0.286241292        -2.08630683
                      -63.6278624         80.8534474       -0.277620189        -2.10048541        -28.7469662         15.0822103

         225977500       -2.63395536         176.431498        -58.0878149         84.8086042        -62.6259653         82.3183044
                       -58.101896         85.0834532        -29.2392471          12.153818        -0.29190079         -2.3213981
                      -62.5619842         82.3805972       -0.279368057        -2.32542275        -28.6194937         18.7125641

         250975000       -2.63935537          176.07838         -57.142307         85.3090377         -61.704048         83.5917131
                      -57.1777935         85.4498412         -28.570498         15.3748161       -0.283998353        -2.56148489
                      -61.6633661         83.2878731       -0.281492222         -2.5541919         -28.923229          17.757775

         275972500       -2.64419257         175.717614         -56.356849         85.7341532        -60.8842527         84.7341225
                      -56.3008094         85.8807459        -28.8203129         17.4621049       -0.289008458        -2.79133601
                      -60.8685356         84.3729398       -0.286807169        -2.82739163        -28.9260025         16.9784192

         300970000       -2.64751743         175.382075        -55.5907079         86.2498515        -60.0916334         85.9963166
                      -55.5915077         86.1953323        -29.1202556          17.487852       -0.292719292        -3.04860547
                      -60.1716865         85.4484716       -0.287186871         -3.0703383        -28.5631502         16.9430829

         325967500        -2.6582622         175.011958         -54.916304         86.4344382        -59.4379502         86.7415991
                      -54.9011207         86.6524001        -29.1037671         15.4464292       -0.298469089        -3.27803774
                      -59.4205525         86.5420778       -0.288980791        -3.32495871        -28.3855826         17.9430907

         350965000       -2.66320036          174.66107        -54.2473152         86.7364541        -58.7756765         87.7067512
                      -54.2650922          86.723615        -28.7081903         13.7925685       -0.296328951        -3.50226366
                      -58.7904533         87.0562627       -0.284705489        -3.54714148        -28.3780183         20.0566102

         375962500       -2.66648459         174.340623        -53.6133267         86.6965478        -58.1777053         88.4171142
                      -53.6447479         86.6657937        -28.1390835         12.7838246       -0.296094735        -3.76404279
                       -58.185836         88.3029731       -0.284726213        -3.76857065        -28.6552363         21.6208056

         400960000       -2.67078372         174.011522        -53.0577773          86.844672         -57.631722          88.999548
                       -53.024737         86.9277603        -27.6055227         12.4555641       -0.295717277        -4.01737189
                      -57.6197344          88.970753       -0.287429241        -4.01581916          -28.81621         21.1725969

         425957500       -2.68130285         173.639591        -52.5337243         87.0306711        -57.0768381         89.7311324
                      -52.5371994          87.104479        -27.3708633         13.9406147       -0.296548784        -4.26117514
                      -57.1183934         89.3226025       -0.292948647        -4.26824687        -28.8117249          19.539431

         450955000       -2.68510429          173.29134        -52.0648831         87.2483363        -56.5733583         90.2874099
                      -52.0326952         87.1446139        -27.2849043         16.4473787       -0.296137235        -4.50417177
                      -56.5881099         90.1776749       -0.296878166        -4.48406023        -28.5445045         19.1453831

         475952500         -2.686972         172.931566        -51.5789017         87.2305137        -56.0694377         90.8531503
                      -51.5490105         87.3728415        -27.2375348         18.0152849       -0.296445742        -4.71919655
                      -56.0739547         90.9714192       -0.295779141        -4.73142664         -28.339648         19.7038312

         500950000       -2.68638411         172.600959        -51.1444191         87.6823528        -55.5885058         91.3815001
                      -51.1410336          87.317852        -27.3430108         18.5015783       -0.296129102        -4.94599528
                       -55.615108         91.4474435       -0.294471028        -4.96566385        -28.3316664         20.5505043

         525947500       -2.68885813         172.289043        -50.6959037         87.4342165        -55.1763671         92.0229197
                      -50.7020489         87.3947491        -27.5096637         17.0763431       -0.299218733         -5.1933875
                      -55.1625801         91.8931906       -0.296678412        -5.22546975        -28.4500961          21.184525

         550945000       -2.69334879         171.938354        -50.3044762         87.3950369         -54.757242         92.5373016
                      -50.3034134         87.4638306        -27.4830802         15.4211493       -0.302404255        -5.44868611
                      -54.6945893         92.4151018       -0.299252788        -5.46374441        -28.4563736         21.4668585

         575942500       -2.69871939         171.585866        -49.9000206         87.5018711        -54.3153181         93.0389014
                      -49.9280874         87.3228212        -27.2813432         13.7650703       -0.305081493        -5.69728205
                      -54.3095017         92.9646668       -0.299951826        -5.69007857        -28.4794954         20.6219079

         600940000       -2.69996539         171.233689        -49.5274299         87.5183851         -53.935595         93.5066578
                      -49.5471636          87.429287        -27.0229294         13.4724796       -0.304320269         -5.9361939
                      -53.9067688         93.3589727       -0.298708826         -5.9097451        -28.5473134         19.7510631

         625937500       -2.69996047         170.919298        -49.1736438         87.6316255        -53.5198257         93.6371557
                      -49.1631818         87.4067778        -26.6571137         13.9951881       -0.303063324         -6.1804743
                      -53.5545339         93.8393185       -0.299314049        -6.15028509         -28.496269         18.6855333

         650935000       -2.70510369         170.570157        -48.8332316         87.6539514        -53.1789214         94.1431572
                      -48.8387826         87.5728699         -26.394729           15.11001       -0.302018869        -6.41328267
                      -53.1694587         94.0381615       -0.301347228        -6.40577044        -28.4233971          17.733215

         675932500       -2.70801911         170.239785        -48.5095118         87.6945658        -52.8060087            94.5256
                      -48.5086852         87.6901415         -26.397647         16.2409015       -0.304092369        -6.65282347
                      -52.7768308         94.5041423       -0.306971463        -6.65197853        -28.1871281         16.8688133

         700930000       -2.71051378         169.892701        -48.2149762         87.6868966        -52.4532812         94.9558046
                      -48.2097955         87.6692606        -26.4922227         17.5839013        -0.30588812        -6.88050637
                      -52.4192514         94.8850938       -0.308327872        -6.88311231        -27.8617846         17.3525022

         725927500       -2.70721413         169.573762         -47.918972          87.801246        -52.0935581         95.3574744
                      -47.9135736         87.6991851        -26.6752073         17.0643738       -0.307079497        -7.10935776
                      -52.0722031         95.2080637       -0.306528431        -7.12133884         -27.728594         17.1437203

         750925000       -2.71015615         169.255861        -47.6163546         87.7697835         -51.782679         95.6526359
                      -47.6061634         87.7014211        -26.7984618         15.9934578       -0.307490872        -7.33736438
                      -51.7671359         95.4576758       -0.306118362        -7.36443026        -27.7459876         16.8720272

         775922500       -2.70913181         168.951214        -47.3420582         87.8524785        -51.4730559         95.8418158
                      -47.3275913         87.7789468        -26.7379793         14.5960432       -0.309610738        -7.58359352
                      -51.4497259         95.8317779       -0.309963677        -7.59965457        -27.8810113         16.3592369

         800920000       -2.71039729         168.626717        -47.0513044         87.8906907        -51.1425356         95.9832089
                      -47.0504064         87.7465835        -26.5060476         14.0747576        -0.31138199        -7.82735072
                      -51.1277612         96.0590089       -0.311953586        -7.83441917        -27.8992238         15.8486358

         825917500       -2.70529325         168.301961        -46.7773059         87.9910714        -50.8518101         96.1634975
                      -46.7786673         87.7724385        -26.3575578         13.7936389       -0.311427752        -8.06495268
                      -50.8218382         96.2991813       -0.311408737        -8.06476424        -27.8261258         14.1245074

         850915000       -2.70514049         168.042488        -46.5160875         87.9631926        -50.5277243         96.5567028
                      -46.5139644         87.8734384        -26.2729858         14.5773267         -0.3112127        -8.28675759
                      -50.5109452         96.5858488       -0.311699681        -8.30323825        -27.5819464          13.140915

         875912500       -2.70844142         167.725567        -46.2740421         88.0213547        -50.2506881         96.7049028
                      -46.2662933         87.9568558        -26.3147013         15.7440366       -0.313450423        -8.51872197
                      -50.2239303         96.8648709       -0.313412322        -8.55721782        -27.3174793         12.9338704

         900910000       -2.70631806         167.403658        -46.0336255         88.1445866        -49.9540454         96.8681319
                      -46.0303333         88.0368052        -26.4484002         16.7762792        -0.31632772        -8.74350815
                      -49.9324299         96.8993947       -0.315980908          -8.792373         -27.191975         13.1967942

         925907500       -2.70675732          167.10987        -45.7979172         88.1946804        -49.6917667         97.2003883
                      -45.7933652         88.0154983        -26.6501585         16.4606092       -0.317759848        -8.98651755
                      -49.6944134         97.1372834       -0.318084981        -9.02635524         -27.245616         13.1883463

         950905000       -2.70613131         166.849433        -45.5713536         88.1977171        -49.4304591         97.3850317
                      -45.5562977         88.0183658        -26.7502795         15.2023007       -0.318404251        -9.21919514
                      -49.4330377         97.4012417       -0.317873188        -9.24887139        -27.2706114         13.0984862

         975902500       -2.71140251          166.55551        -45.3385675         88.1758082        -49.1780007         97.6032465
                      -45.3303239         88.0429653        -26.6836859         12.8152292       -0.319426708        -9.46591504
                      -49.1920903         97.5097683       -0.317900136        -9.49450352        -27.2558184         11.8183133

        1.0009e+09       -2.70929756         166.239283         -45.097436         88.1230259        -48.9253072         97.6843953
                      -45.0903856         88.0955693        -26.4986323         11.5507741       -0.320083357        -9.69944779
                      -48.9180178          97.706159       -0.319191076        -9.73132154        -27.1431335         11.0124829

     1.0258975e+09       -2.70488167         165.943545        -44.8941026         88.1787322        -48.6532747          97.881129
                      -44.8754882         88.1331042        -26.3502801         11.3268293        -0.32145557        -9.93389171
                      -48.6720862         97.8032778       -0.321763436         -9.9660466         -26.953696         10.9924655

      1.050895e+09       -2.70126253         165.670915        -44.6713066         88.3367341        -48.4116416         98.1240079
                      -44.6591897         88.1946368        -26.2674435         11.2989547       -0.321846182        -10.1538242
                      -48.4200838         98.0226571       -0.322690399        -10.1896059        -26.8129308         10.7143861

     1.0758925e+09       -2.69777418         165.428332        -44.4641985         88.3442214        -48.1797352         98.2215967
                      -44.4533168         88.3237657        -26.3716018         11.3059326       -0.322807211        -10.3908063
                      -48.1824261         98.2237898       -0.323303317        -10.4276076         -26.892162         10.0402609

       1.10089e+09       -2.69794466          165.18313        -44.2628478         88.3150533         -47.951945         98.5017056
                      -44.2460791         88.3411014        -26.4143232         11.8052951       -0.323808711        -10.6222509
                      -47.9607672         98.3577105       -0.324409942        -10.6633168        -26.9375001         10.3049809

     1.1258875e+09        -2.6980849          164.87487        -44.0610133         88.4341507        -47.7123801         98.6940718
                      -44.0532201         88.3673187        -26.4509761         11.6018814       -0.326333288        -10.8596584
                      -47.7239907         98.6431836       -0.325912318        -10.9043265        -26.9878282         10.6353724

      1.150885e+09       -2.69372278         164.587319        -43.8696424         88.4637401        -47.5017413         98.7409687
