! Mini-Circuits								
! S2P DATA File Format								
! Type: LOW PASS FILTER								
! Model: LFCG-490+								
! All S Parameters are in dB deg format								
! TEST CONDITIONS: INPUT POWER = 0 dBm @ Temperature = +25 deg C
# MHz S dB R 50
!Frequency        S11 dB  S11 DEG   S21 dB  S21 DEG   S12 dB  S12 DEG   S22 dB  S22 DEG
  10.0000     -3.350679E+001  2.221299E+001 -2.160727E-001 -3.830542E+000 -2.132763E-001 -3.736488E+000 -3.304522E+001  2.776536E+001
  13.0000     -3.306628E+001  2.629443E+001 -2.201176E-001 -4.966349E+000 -2.165156E-001 -4.917914E+000 -3.230465E+001  2.818093E+001
  16.0000     -3.246535E+001  3.111144E+001 -2.248973E-001 -6.115876E+000 -2.207323E-001 -6.073002E+000 -3.174352E+001  2.969569E+001
  19.0000     -3.175306E+001  3.436144E+001 -2.292437E-001 -7.250366E+000 -2.266854E-001 -7.219776E+000 -3.121225E+001  3.258931E+001
  20.0000     -3.152750E+001  3.524699E+001 -2.318498E-001 -7.628986E+000 -2.288823E-001 -7.595912E+000 -3.092064E+001  3.351436E+001
  40.0000     -2.763570E+001  4.082812E+001 -2.750983E-001 -1.504655E+001 -2.698539E-001 -1.502826E+001 -2.668351E+001  3.483866E+001
  60.0000     -2.574149E+001  4.239415E+001 -3.145513E-001 -2.239073E+001 -3.098199E-001 -2.238337E+001 -2.413980E+001  2.718902E+001
  80.0000     -2.424191E+001  4.373112E+001 -3.513200E-001 -2.967587E+001 -3.469182E-001 -2.967398E+001 -2.226552E+001  1.855656E+001
 100.0000     -2.307832E+001  4.457045E+001 -3.841505E-001 -3.700066E+001 -3.800611E-001 -3.698679E+001 -2.089152E+001  9.022782E+000
 120.0000     -2.226671E+001  4.496756E+001 -4.171522E-001 -4.435283E+001 -4.128160E-001 -4.435115E+001 -1.972478E+001 -2.015244E-001
 140.0000     -2.152619E+001  4.555981E+001 -4.493118E-001 -5.178976E+001 -4.463890E-001 -5.179100E+001 -1.881374E+001 -9.385348E+000
 160.0000     -2.084582E+001  4.554975E+001 -4.845967E-001 -5.931896E+001 -4.805961E-001 -5.931769E+001 -1.801653E+001 -1.869550E+001
 180.0000     -2.030690E+001  4.446882E+001 -5.181420E-001 -6.694398E+001 -5.140709E-001 -6.694262E+001 -1.735171E+001 -2.822236E+001
 200.0000     -1.976294E+001  4.336071E+001 -5.534384E-001 -7.470180E+001 -5.510083E-001 -7.469967E+001 -1.678416E+001 -3.810355E+001
 220.0000     -1.923126E+001  4.185725E+001 -5.928787E-001 -8.260386E+001 -5.889573E-001 -8.260665E+001 -1.635254E+001 -4.825788E+001
 240.0000     -1.874297E+001  4.008574E+001 -6.303486E-001 -9.067457E+001 -6.269252E-001 -9.068121E+001 -1.606086E+001 -5.854867E+001
 260.0000     -1.836465E+001  3.773206E+001 -6.712168E-001 -9.894021E+001 -6.658789E-001 -9.894676E+001 -1.595771E+001 -6.904285E+001
 280.0000     -1.812146E+001  3.500784E+001 -7.100782E-001 -1.074220E+002 -7.051232E-001 -1.074292E+002 -1.604765E+001 -7.951618E+001
 300.0000     -1.803707E+001  3.243970E+001 -7.497248E-001 -1.161798E+002 -7.442523E-001 -1.161886E+002 -1.636912E+001 -9.029735E+001
 320.0000     -1.811212E+001  2.960909E+001 -7.888073E-001 -1.252458E+002 -7.856253E-001 -1.252535E+002 -1.694138E+001 -1.014819E+002
 340.0000     -1.842278E+001  2.685692E+001 -8.311243E-001 -1.346701E+002 -8.269795E-001 -1.346756E+002 -1.784074E+001 -1.130770E+002
 360.0000     -1.897960E+001  2.465956E+001 -8.754911E-001 -1.445114E+002 -8.728777E-001 -1.445127E+002 -1.915459E+001 -1.252775E+002
 380.0000     -1.984982E+001  2.328010E+001 -9.270128E-001 -1.548241E+002 -9.232219E-001 -1.548220E+002 -2.109147E+001 -1.383680E+002
 400.0000     -2.112923E+001  2.370196E+001 -9.885181E-001 -1.656667E+002 -9.821101E-001 -1.656812E+002 -2.415137E+001 -1.535207E+002
 420.0000     -2.278539E+001  2.745267E+001 -1.058289E+000 -1.771543E+002 -1.052268E+000 -1.771614E+002 -2.965742E+001 -1.759982E+002
 440.0000     -2.432355E+001  3.726389E+001 -1.144946E+000  1.706424E+002 -1.138590E+000  1.706344E+002 -3.802383E+001  8.945670E+001
 460.0000     -2.471152E+001  5.224288E+001 -1.252325E+000  1.576082E+002 -1.246174E+000  1.576020E+002 -2.794115E+001  1.724702E+001
 480.0000     -2.358240E+001  6.446889E+001 -1.385085E+000  1.436106E+002 -1.379405E+000  1.436048E+002 -2.259387E+001 -6.248324E+000
 490.0000     -2.270522E+001  6.758309E+001 -1.462084E+000  1.361937E+002 -1.457645E+000  1.361912E+002 -2.086340E+001 -1.580052E+001
 500.0000     -2.183237E+001  6.824690E+001 -1.549163E+000  1.284650E+002 -1.543755E+000  1.284622E+002 -1.951358E+001 -2.464030E+001
 510.0000     -2.104363E+001  6.670586E+001 -1.644976E+000  1.203853E+002 -1.640778E+000  1.203807E+002 -1.845971E+001 -3.289216E+001
 520.0000     -2.046198E+001  6.303105E+001 -1.749419E+000  1.119156E+002 -1.746322E+000  1.119136E+002 -1.768952E+001 -4.058828E+001
 530.0000     -2.013140E+001  5.734178E+001 -1.867153E+000  1.029978E+002 -1.863510E+000  1.029913E+002 -1.712119E+001 -4.764332E+001
 540.0000     -2.013173E+001  4.916063E+001 -1.999770E+000  9.354708E+001 -1.995152E+000  9.354132E+001 -1.669698E+001 -5.396350E+001
 550.0000     -2.049946E+001  3.750578E+001 -2.152133E+000  8.348774E+001 -2.148577E+000  8.348427E+001 -1.635219E+001 -5.936374E+001
 560.0000     -2.121641E+001  2.003126E+001 -2.333536E+000  7.270386E+001 -2.329921E+000  7.269701E+001 -1.595158E+001 -6.357454E+001
 570.0000     -2.190791E+001 -7.538377E+000 -2.560903E+000  6.106329E+001 -2.557512E+000  6.105801E+001 -1.532658E+001 -6.688622E+001
 580.0000     -2.110308E+001 -4.573038E+001 -2.856533E+000  4.841995E+001 -2.853749E+000  4.842109E+001 -1.433954E+001 -7.019630E+001
 590.0000     -1.808734E+001 -8.174383E+001 -3.259813E+000  3.465343E+001 -3.257458E+000  3.464964E+001 -1.295464E+001 -7.509525E+001
 600.0000     -1.443075E+001 -1.085471E+002 -3.826674E+000  1.968125E+001 -3.822571E+000  1.967852E+001 -1.131275E+001 -8.308569E+001
 605.0000     -1.272594E+001 -1.195476E+002 -4.192193E+000  1.175336E+001 -4.189595E+000  1.175595E+001 -1.046619E+001 -8.845293E+001
 610.0000     -1.116380E+001 -1.295713E+002 -4.626368E+000  3.572497E+000 -4.623536E+000  3.572557E+000 -9.637694E+000 -9.468944E+001
 615.0000     -9.753048E+000 -1.389664E+002 -5.136776E+000 -4.825798E+000 -5.134042E+000 -4.828924E+000 -8.849335E+000 -1.017668E+002
 620.0000     -8.498366E+000 -1.478750E+002 -5.732917E+000 -1.337500E+001 -5.729806E+000 -1.337325E+001 -8.118208E+000 -1.095405E+002
 625.0000     -7.394491E+000 -1.564193E+002 -6.420144E+000 -2.199962E+001 -6.417068E+000 -2.199623E+001 -7.453832E+000 -1.178955E+002
 630.0000     -6.435729E+000 -1.646191E+002 -7.200479E+000 -3.060739E+001 -7.196814E+000 -3.060684E+001 -6.864852E+000 -1.266916E+002
 635.0000     -5.612657E+000 -1.724780E+002 -8.074034E+000 -3.911007E+001 -8.071613E+000 -3.911738E+001 -6.350223E+000 -1.357718E+002
 640.0000     -4.911893E+000 -1.799913E+002 -9.036970E+000 -4.744591E+001 -9.035045E+000 -4.744739E+001 -5.909209E+000 -1.449955E+002
 645.0000     -4.321315E+000  1.728732E+002 -1.008306E+001 -5.552380E+001 -1.008129E+001 -5.552742E+001 -5.533805E+000 -1.542431E+002
 650.0000     -3.826757E+000  1.661402E+002 -1.120373E+001 -6.329179E+001 -1.120252E+001 -6.329103E+001 -5.215625E+000 -1.634101E+002
 655.0000     -3.414479E+000  1.598003E+002 -1.239200E+001 -7.071932E+001 -1.239110E+001 -7.072272E+001 -4.949044E+000 -1.724243E+002
 660.0000     -3.072944E+000  1.538648E+002 -1.363911E+001 -7.778359E+001 -1.363737E+001 -7.778473E+001 -4.721978E+000  1.787672E+002
 665.0000     -2.787913E+000  1.483132E+002 -1.493337E+001 -8.447349E+001 -1.493333E+001 -8.447263E+001 -4.527892E+000  1.702121E+002
 670.0000     -2.548344E+000  1.431279E+002 -1.626908E+001 -9.079352E+001 -1.626783E+001 -9.079713E+001 -4.358324E+000  1.619251E+002
 675.0000     -2.347089E+000  1.382880E+002 -1.764224E+001 -9.676317E+001 -1.764227E+001 -9.677158E+001 -4.207585E+000  1.539168E+002
 680.0000     -2.175957E+000  1.337686E+002 -1.904593E+001 -1.023951E+002 -1.904666E+001 -1.024044E+002 -4.070469E+000  1.461837E+002
 685.0000     -2.028138E+000  1.295495E+002 -2.048054E+001 -1.076986E+002 -2.048037E+001 -1.077035E+002 -3.943993E+000  1.387305E+002
 690.0000     -1.900617E+000  1.255957E+002 -2.193987E+001 -1.127063E+002 -2.194064E+001 -1.127135E+002 -3.822820E+000  1.315538E+002
 695.0000     -1.788492E+000  1.218864E+002 -2.342760E+001 -1.174377E+002 -2.342755E+001 -1.174289E+002 -3.707101E+000  1.246458E+002
 700.0000     -1.689885E+000  1.184066E+002 -2.494284E+001 -1.218740E+002 -2.494071E+001 -1.218586E+002 -3.594660E+000  1.180107E+002
 705.0000     -1.601208E+000  1.151347E+002 -2.648175E+001 -1.260118E+002 -2.648351E+001 -1.260172E+002 -3.483258E+000  1.116512E+002
 710.0000     -1.522434E+000  1.120409E+002 -2.805314E+001 -1.299280E+002 -2.805662E+001 -1.299161E+002 -3.374288E+000  1.055429E+002
 715.0000     -1.449561E+000  1.091128E+002 -2.965696E+001 -1.335554E+002 -2.965542E+001 -1.335607E+002 -3.266188E+000  9.968771E+001
 720.0000     -1.383356E+000  1.063376E+002 -3.129468E+001 -1.369536E+002 -3.129412E+001 -1.369342E+002 -3.160930E+000  9.407670E+001
 725.0000     -1.322703E+000  1.036984E+002 -3.296388E+001 -1.400667E+002 -3.296933E+001 -1.401058E+002 -3.056795E+000  8.869891E+001
 730.0000     -1.266341E+000  1.011896E+002 -3.468130E+001 -1.429192E+002 -3.468391E+001 -1.429552E+002 -2.954884E+000  8.354581E+001
 735.0000     -1.213720E+000  9.878957E+001 -3.645354E+001 -1.455693E+002 -3.645709E+001 -1.455451E+002 -2.855418E+000  7.859818E+001
 740.0000     -1.166602E+000  9.650191E+001 -3.828934E+001 -1.477522E+002 -3.829018E+001 -1.477360E+002 -2.759905E+000  7.384978E+001
 745.0000     -1.121568E+000  9.431109E+001 -4.019881E+001 -1.495566E+002 -4.019019E+001 -1.495639E+002 -2.666806E+000  6.928604E+001
 750.0000     -1.080230E+000  9.219600E+001 -4.217773E+001 -1.510508E+002 -4.217660E+001 -1.510486E+002 -2.576890E+000  6.489766E+001
 755.0000     -1.042066E+000  9.016417E+001 -4.427412E+001 -1.518393E+002 -4.427620E+001 -1.518719E+002 -2.488979E+000  6.067186E+001
 760.0000     -1.007338E+000  8.820708E+001 -4.650681E+001 -1.518400E+002 -4.652237E+001 -1.520332E+002 -2.405285E+000  5.660487E+001
 765.0000     -9.737874E-001  8.632327E+001 -4.888421E+001 -1.506528E+002 -4.893185E+001 -1.505413E+002 -2.323629E+000  5.268414E+001
 770.0000     -9.440292E-001  8.450622E+001 -5.147344E+001 -1.475575E+002 -5.152406E+001 -1.478581E+002 -2.245236E+000  4.890469E+001
 775.0000     -9.156457E-001  8.274456E+001 -5.425497E+001 -1.421077E+002 -5.424401E+001 -1.423129E+002 -2.169035E+000  4.525669E+001
 780.0000     -8.891817E-001  8.103595E+001 -5.716689E+001 -1.315793E+002 -5.708658E+001 -1.319174E+002 -2.095696E+000  4.174702E+001
 785.0000     -8.645656E-001  7.937466E+001 -5.969810E+001 -1.146205E+002 -5.953070E+001 -1.148926E+002 -2.024947E+000  3.835530E+001
 790.0000     -8.432320E-001  7.776363E+001 -6.091990E+001 -9.301405E+001 -6.084091E+001 -9.230207E+001 -1.955655E+000  3.508084E+001
 795.0000     -8.221135E-001  7.620196E+001 -6.054511E+001 -7.306142E+001 -6.057457E+001 -7.269490E+001 -1.889128E+000  3.193019E+001
 800.0000     -8.024598E-001  7.467733E+001 -5.970721E+001 -5.927478E+001 -5.967414E+001 -5.939958E+001 -1.825360E+000  2.888899E+001
 805.0000     -7.853059E-001  7.319632E+001 -5.874445E+001 -5.219168E+001 -5.877608E+001 -5.158163E+001 -1.763782E+000  2.595603E+001
 810.0000     -7.677925E-001  7.176109E+001 -5.801307E+001 -4.759042E+001 -5.800563E+001 -4.721727E+001 -1.705269E+000  2.311843E+001
 815.0000     -7.509428E-001  7.036310E+001 -5.742347E+001 -4.453709E+001 -5.741859E+001 -4.517056E+001 -1.649581E+000  2.038330E+001
 820.0000     -7.360902E-001  6.900105E+001 -5.700067E+001 -4.413246E+001 -5.689020E+001 -4.392354E+001 -1.595850E+000  1.772924E+001
 825.0000     -7.222323E-001  6.767876E+001 -5.668591E+001 -4.391648E+001 -5.665144E+001 -4.368464E+001 -1.544734E+000  1.515420E+001
 830.0000     -7.073358E-001  6.638150E+001 -5.651149E+001 -4.369634E+001 -5.647565E+001 -4.420879E+001 -1.495894E+000  1.266314E+001
 835.0000     -6.935925E-001  6.511795E+001 -5.631835E+001 -4.462913E+001 -5.642855E+001 -4.462703E+001 -1.449373E+000  1.023938E+001
 840.0000     -6.806176E-001  6.388731E+001 -5.627570E+001 -4.510235E+001 -5.627826E+001 -4.542198E+001 -1.404630E+000  7.881904E+000
 845.0000     -6.670839E-001  6.268407E+001 -5.632625E+001 -4.626543E+001 -5.626315E+001 -4.647847E+001 -1.363150E+000  5.592469E+000
 850.0000     -6.537580E-001  6.150410E+001 -5.633342E+001 -4.750579E+001 -5.639113E+001 -4.788368E+001 -1.322693E+000  3.359473E+000
 855.0000     -6.399322E-001  6.034790E+001 -5.639170E+001 -4.874836E+001 -5.638141E+001 -4.875237E+001 -1.284206E+000  1.192471E+000
 860.0000     -6.261344E-001  5.921277E+001 -5.645374E+001 -5.059197E+001 -5.642344E+001 -5.012325E+001 -1.245981E+000 -9.220341E-001
 865.0000     -6.145736E-001  5.810137E+001 -5.658631E+001 -5.211198E+001 -5.658481E+001 -5.112744E+001 -1.209503E+000 -2.987342E+000
 870.0000     -6.043011E-001  5.701432E+001 -5.673520E+001 -5.325965E+001 -5.673730E+001 -5.298025E+001 -1.176410E+000 -4.991557E+000
 875.0000     -5.949789E-001  5.594329E+001 -5.681998E+001 -5.499823E+001 -5.679320E+001 -5.470269E+001 -1.143092E+000 -6.954031E+000
 880.0000     -5.847344E-001  5.489148E+001 -5.696166E+001 -5.625671E+001 -5.694053E+001 -5.625153E+001 -1.110326E+000 -8.859544E+000
 885.0000     -5.766798E-001  5.386017E+001 -5.716475E+001 -5.788372E+001 -5.720271E+001 -5.809150E+001 -1.079490E+000 -1.070902E+001
 890.0000     -5.673047E-001  5.284668E+001 -5.729296E+001 -5.963028E+001 -5.719892E+001 -5.956844E+001 -1.049614E+000 -1.250751E+001
 895.0000     -5.583447E-001  5.185083E+001 -5.740009E+001 -6.098842E+001 -5.738311E+001 -6.114773E+001 -1.022443E+000 -1.426016E+001
 900.0000     -5.505686E-001  5.086737E+001 -5.752132E+001 -6.278650E+001 -5.758152E+001 -6.273092E+001 -9.958788E-001 -1.597156E+001
 920.0000     -5.155947E-001  4.711634E+001 -5.808357E+001 -6.925989E+001 -5.802068E+001 -6.978688E+001 -8.960781E-001 -2.242373E+001
 940.0000     -4.785680E-001  4.360831E+001 -5.838354E+001 -7.482147E+001 -5.834319E+001 -7.536391E+001 -8.127404E-001 -2.833780E+001
 960.0000     -4.399218E-001  4.034561E+001 -5.861565E+001 -8.011458E+001 -5.856673E+001 -7.989173E+001 -7.412978E-001 -3.376458E+001
 980.0000     -4.019806E-001  3.727216E+001 -5.879492E+001 -8.491391E+001 -5.882259E+001 -8.479557E+001 -6.789660E-001 -3.876197E+001
1000.0000     -3.744304E-001  3.438766E+001 -5.906945E+001 -8.827325E+001 -5.908979E+001 -8.780786E+001 -6.260641E-001 -4.337186E+001
1020.0000     -3.545404E-001  3.162049E+001 -5.934164E+001 -9.200268E+001 -5.947190E+001 -9.223111E+001 -5.775362E-001 -4.765921E+001
1040.0000     -3.463531E-001  2.893184E+001 -5.981468E+001 -9.494961E+001 -5.988882E+001 -9.532504E+001 -5.365396E-001 -5.167793E+001
1060.0000     -3.497306E-001  2.630126E+001 -6.041103E+001 -9.710047E+001 -6.038583E+001 -9.758954E+001 -4.991549E-001 -5.538905E+001
1080.0000     -3.520283E-001  2.374268E+001 -6.108149E+001 -9.792930E+001 -6.108472E+001 -9.880512E+001 -4.648068E-001 -5.883567E+001
1100.0000     -3.433398E-001  2.131075E+001 -6.202087E+001 -9.953682E+001 -6.207248E+001 -1.002475E+002 -4.405014E-001 -6.207247E+001
1120.0000     -3.208150E-001  1.903184E+001 -6.324465E+001 -9.975237E+001 -6.318621E+001 -1.003617E+002 -4.202403E-001 -6.515442E+001
1140.0000     -2.931037E-001  1.688013E+001 -6.470344E+001 -9.954073E+001 -6.480901E+001 -9.889877E+001 -3.975663E-001 -6.806841E+001
1160.0000     -2.676724E-001  1.481085E+001 -6.690434E+001 -9.716482E+001 -6.693488E+001 -9.617699E+001 -3.780090E-001 -7.082494E+001
1180.0000     -2.471135E-001  1.280276E+001 -6.994736E+001 -8.595039E+001 -6.935818E+001 -8.750021E+001 -3.611869E-001 -7.341432E+001
1200.0000     -2.398149E-001  1.080191E+001 -7.309515E+001 -6.915350E+001 -7.295673E+001 -6.642565E+001 -3.442193E-001 -7.590498E+001
1220.0000     -2.425761E-001  8.809294E+000 -7.345634E+001 -2.343225E+001 -7.395556E+001 -2.653335E+001 -3.307103E-001 -7.827454E+001
1240.0000     -2.506266E-001  6.847824E+000 -7.076323E+001  1.142069E+001 -7.034765E+001  4.658379E+000 -3.161759E-001 -8.050719E+001
1260.0000     -2.541372E-001  4.973859E+000 -6.724584E+001  2.205969E+001 -6.722585E+001  2.324082E+001 -3.042096E-001 -8.260828E+001
1280.0000     -2.440394E-001  3.186417E+000 -6.428922E+001  2.859954E+001 -6.442051E+001  2.949211E+001 -2.934498E-001 -8.463782E+001
1300.0000     -2.300640E-001  1.467494E+000 -6.216519E+001  3.157469E+001 -6.213126E+001  3.106522E+001 -2.853984E-001 -8.657574E+001
1320.0000     -2.157248E-001 -2.118865E-001 -6.034622E+001  3.226793E+001 -6.028451E+001  3.246664E+001 -2.765390E-001 -8.842561E+001
1340.0000     -2.022563E-001 -1.861442E+000 -5.886171E+001  3.245766E+001 -5.882558E+001  3.330951E+001 -2.715548E-001 -9.023371E+001
1360.0000     -1.899869E-001 -3.469762E+000 -5.748979E+001  3.284169E+001 -5.750098E+001  3.303851E+001 -2.671666E-001 -9.197070E+001
1380.0000     -1.795822E-001 -5.056626E+000 -5.631556E+001  3.264213E+001 -5.632658E+001  3.268603E+001 -2.592146E-001 -9.367252E+001
1400.0000     -1.764174E-001 -6.609953E+000 -5.530539E+001  3.174779E+001 -5.531532E+001  3.186802E+001 -2.523061E-001 -9.531860E+001
1420.0000     -1.748540E-001 -8.129975E+000 -5.442953E+001  3.101394E+001 -5.441233E+001  3.062304E+001 -2.475291E-001 -9.685623E+001
1440.0000     -1.736633E-001 -9.643324E+000 -5.364017E+001  3.034181E+001 -5.360088E+001  2.976273E+001 -2.421695E-001 -9.833777E+001
1460.0000     -1.725666E-001 -1.112903E+001 -5.291206E+001  2.901600E+001 -5.295742E+001  2.898115E+001 -2.391428E-001 -9.974635E+001
1480.0000     -1.715190E-001 -1.258578E+001 -5.223800E+001  2.851361E+001 -5.227329E+001  2.833127E+001 -2.337265E-001 -1.011071E+002
1500.0000     -1.701722E-001 -1.402541E+001 -5.163915E+001  2.707568E+001 -5.163959E+001  2.679212E+001 -2.300420E-001 -1.024090E+002
1520.0000     -1.684433E-001 -1.541691E+001 -5.108993E+001  2.595644E+001 -5.107623E+001  2.609423E+001 -2.275450E-001 -1.037000E+002
1540.0000     -1.644160E-001 -1.677240E+001 -5.059052E+001  2.523552E+001 -5.061375E+001  2.491931E+001 -2.255908E-001 -1.049674E+002
1560.0000     -1.563178E-001 -1.810854E+001 -5.008536E+001  2.400874E+001 -5.008457E+001  2.413965E+001 -2.201392E-001 -1.061960E+002
1580.0000     -1.472182E-001 -1.938977E+001 -4.968042E+001  2.307636E+001 -4.968412E+001  2.296452E+001 -2.169070E-001 -1.073656E+002
1600.0000     -1.419557E-001 -2.064528E+001 -4.925452E+001  2.215897E+001 -4.926820E+001  2.226682E+001 -2.131078E-001 -1.084631E+002
1620.0000     -1.391007E-001 -2.188727E+001 -4.886238E+001  2.135367E+001 -4.891840E+001  2.102853E+001 -2.102904E-001 -1.095394E+002
1640.0000     -1.412089E-001 -2.317406E+001 -4.853560E+001  2.014792E+001 -4.855007E+001  2.014620E+001 -2.113903E-001 -1.106106E+002
1660.0000     -1.513562E-001 -2.443819E+001 -4.825809E+001  1.910533E+001 -4.821484E+001  1.911129E+001 -2.111168E-001 -1.116260E+002
1680.0000     -1.600420E-001 -2.567286E+001 -4.794127E+001  1.823249E+001 -4.796867E+001  1.804779E+001 -2.071000E-001 -1.126324E+002
1700.0000     -1.684247E-001 -2.691030E+001 -4.768578E+001  1.731128E+001 -4.765010E+001  1.731937E+001 -2.059845E-001 -1.136190E+002
1720.0000     -1.677295E-001 -2.812016E+001 -4.740907E+001  1.628927E+001 -4.740329E+001  1.638588E+001 -2.055861E-001 -1.145928E+002
1740.0000     -1.626713E-001 -2.927903E+001 -4.716296E+001  1.534512E+001 -4.714876E+001  1.542477E+001 -2.036901E-001 -1.155326E+002
1760.0000     -1.553661E-001 -3.037785E+001 -4.694134E+001  1.470942E+001 -4.695074E+001  1.464591E+001 -2.012107E-001 -1.164296E+002
1780.0000     -1.444898E-001 -3.146431E+001 -4.671408E+001  1.374634E+001 -4.672895E+001  1.348151E+001 -1.987750E-001 -1.172885E+002
1800.0000     -1.379580E-001 -3.256015E+001 -4.650554E+001  1.284975E+001 -4.649729E+001  1.273472E+001 -1.997349E-001 -1.181491E+002
