! Mini-Circuits								
! S2P DATA File Format								
! Type: LOW PASS FILTER								
! Model: LFCG-1400+								
! All S Parameters are in dB deg format								
! TEST CONDITIONS: INPUT POWER = 0 dBm @ Temperature = +25deg C	
# MHz S dB R 50
!Frequency        S11 dB  S11 DEG   S21 dB  S21 DEG   S12 dB  S12 DEG   S22 dB  S22 DEG
  10.0000     -4.044293E+001  3.300200E+001 -1.111094E-001 -1.395763E+000 -1.133063E-001 -1.393521E+000 -3.964510E+001  2.658771E+001
  13.0000     -3.970454E+001  2.144459E+001 -1.170331E-001 -1.754716E+000 -1.158878E-001 -1.756387E+000 -3.936281E+001  1.989468E+001
  16.0000     -3.991570E+001  1.870570E+001 -1.190233E-001 -2.136477E+000 -1.189434E-001 -2.133887E+000 -3.942973E+001  1.597183E+001
  19.0000     -4.000833E+001  1.918993E+001 -1.193685E-001 -2.518175E+000 -1.205395E-001 -2.525364E+000 -3.971209E+001  1.744783E+001
  20.0000     -3.999054E+001  2.060580E+001 -1.201807E-001 -2.646533E+000 -1.208234E-001 -2.655371E+000 -3.971918E+001  1.839684E+001
  30.0000     -3.903956E+001  2.981077E+001 -1.236662E-001 -3.929283E+000 -1.231895E-001 -3.933405E+000 -3.921051E+001  2.887427E+001
  40.0000     -3.772838E+001  3.163167E+001 -1.286386E-001 -5.193608E+000 -1.273255E-001 -5.195021E+000 -3.765213E+001  3.074495E+001
  50.0000     -3.748017E+001  3.046741E+001 -1.302913E-001 -6.461590E+000 -1.333631E-001 -6.474620E+000 -3.672507E+001  2.870468E+001
  60.0000     -3.684243E+001  3.218843E+001 -1.391379E-001 -7.714352E+000 -1.387881E-001 -7.718743E+000 -3.625193E+001  2.909978E+001
  70.0000     -3.622381E+001  3.360314E+001 -1.455303E-001 -8.962150E+000 -1.442632E-001 -8.959532E+000 -3.568336E+001  3.000904E+001
  80.0000     -3.571317E+001  3.337968E+001 -1.489225E-001 -1.020223E+001 -1.476408E-001 -1.020372E+001 -3.495731E+001  2.936479E+001
  90.0000     -3.540133E+001  3.311164E+001 -1.522390E-001 -1.144001E+001 -1.523427E-001 -1.144584E+001 -3.440509E+001  2.759150E+001
 100.0000     -3.498473E+001  3.357709E+001 -1.572633E-001 -1.267770E+001 -1.578116E-001 -1.268415E+001 -3.398589E+001  2.661039E+001
 110.0000     -3.451464E+001  3.289725E+001 -1.633362E-001 -1.391713E+001 -1.622254E-001 -1.391937E+001 -3.349556E+001  2.557768E+001
 120.0000     -3.423914E+001  3.195117E+001 -1.664801E-001 -1.515840E+001 -1.671860E-001 -1.515602E+001 -3.306181E+001  2.470288E+001
 130.0000     -3.406165E+001  3.186768E+001 -1.710530E-001 -1.639849E+001 -1.712235E-001 -1.639803E+001 -3.270127E+001  2.309580E+001
 140.0000     -3.382894E+001  3.176419E+001 -1.757575E-001 -1.763481E+001 -1.758670E-001 -1.763290E+001 -3.242496E+001  2.174863E+001
 150.0000     -3.358656E+001  3.088053E+001 -1.813829E-001 -1.886563E+001 -1.799923E-001 -1.886192E+001 -3.217086E+001  2.065567E+001
 160.0000     -3.349084E+001  3.048448E+001 -1.842643E-001 -2.010205E+001 -1.846599E-001 -2.010048E+001 -3.185930E+001  1.930854E+001
 170.0000     -3.347926E+001  3.043236E+001 -1.880842E-001 -2.133861E+001 -1.884111E-001 -2.133160E+001 -3.152615E+001  1.758239E+001
 180.0000     -3.335614E+001  3.009218E+001 -1.913610E-001 -2.256873E+001 -1.919161E-001 -2.256660E+001 -3.128787E+001  1.604177E+001
 190.0000     -3.321655E+001  2.934102E+001 -1.953643E-001 -2.380422E+001 -1.958327E-001 -2.379964E+001 -3.102298E+001  1.469685E+001
 200.0000     -3.312201E+001  2.900809E+001 -1.994223E-001 -2.504635E+001 -1.998325E-001 -2.503698E+001 -3.074016E+001  1.318046E+001
 210.0000     -3.300584E+001  2.871975E+001 -2.036978E-001 -2.627352E+001 -2.036904E-001 -2.627232E+001 -3.050989E+001  1.173338E+001
 220.0000     -3.288978E+001  2.826873E+001 -2.077531E-001 -2.751355E+001 -2.075573E-001 -2.751009E+001 -3.033632E+001  1.017035E+001
 230.0000     -3.286176E+001  2.763479E+001 -2.103942E-001 -2.875054E+001 -2.110540E-001 -2.875084E+001 -3.014437E+001  8.647730E+000
 240.0000     -3.287597E+001  2.717296E+001 -2.139920E-001 -2.998866E+001 -2.144427E-001 -2.998977E+001 -2.992935E+001  7.077599E+000
 250.0000     -3.293276E+001  2.730477E+001 -2.175508E-001 -3.122771E+001 -2.184537E-001 -3.122814E+001 -2.971519E+001  5.094022E+000
 260.0000     -3.285432E+001  2.701322E+001 -2.236251E-001 -3.247037E+001 -2.226306E-001 -3.247423E+001 -2.954234E+001  3.703866E+000
 270.0000     -3.288599E+001  2.711806E+001 -2.261141E-001 -3.371774E+001 -2.260593E-001 -3.371801E+001 -2.932782E+001  1.846340E+000
 280.0000     -3.296931E+001  2.743183E+001 -2.307657E-001 -3.496732E+001 -2.294278E-001 -3.496503E+001 -2.913559E+001  1.832544E-001
 290.0000     -3.295095E+001  2.746043E+001 -2.337374E-001 -3.620826E+001 -2.323824E-001 -3.620775E+001 -2.897717E+001 -1.454993E+000
 300.0000     -3.293465E+001  2.746211E+001 -2.371831E-001 -3.745633E+001 -2.363607E-001 -3.745844E+001 -2.882266E+001 -3.140089E+000
 310.0000     -3.302258E+001  2.773591E+001 -2.407010E-001 -3.870425E+001 -2.394189E-001 -3.870728E+001 -2.869046E+001 -4.898512E+000
 320.0000     -3.305212E+001  2.791700E+001 -2.430674E-001 -3.996238E+001 -2.429278E-001 -3.996008E+001 -2.856441E+001 -6.558568E+000
 330.0000     -3.305733E+001  2.841623E+001 -2.467760E-001 -4.121441E+001 -2.464761E-001 -4.121503E+001 -2.839307E+001 -8.348953E+000
 340.0000     -3.316144E+001  2.843613E+001 -2.491906E-001 -4.247377E+001 -2.496096E-001 -4.246792E+001 -2.824558E+001 -1.014282E+001
 350.0000     -3.324724E+001  2.884418E+001 -2.528123E-001 -4.372878E+001 -2.528208E-001 -4.372840E+001 -2.810800E+001 -1.200345E+001
 360.0000     -3.336356E+001  2.938485E+001 -2.566507E-001 -4.499190E+001 -2.561647E-001 -4.499347E+001 -2.796555E+001 -1.388762E+001
 370.0000     -3.347620E+001  3.015622E+001 -2.605698E-001 -4.625718E+001 -2.601992E-001 -4.625814E+001 -2.783912E+001 -1.561346E+001
 380.0000     -3.362763E+001  3.097095E+001 -2.631123E-001 -4.752635E+001 -2.627262E-001 -4.752856E+001 -2.773257E+001 -1.755012E+001
 390.0000     -3.373222E+001  3.164420E+001 -2.658519E-001 -4.880039E+001 -2.662022E-001 -4.879892E+001 -2.762858E+001 -1.933106E+001
 400.0000     -3.379301E+001  3.199720E+001 -2.710055E-001 -5.007249E+001 -2.699686E-001 -5.007336E+001 -2.754703E+001 -2.109214E+001
 410.0000     -3.388948E+001  3.296259E+001 -2.740681E-001 -5.134778E+001 -2.733316E-001 -5.135062E+001 -2.743312E+001 -2.293887E+001
 420.0000     -3.401806E+001  3.399775E+001 -2.770527E-001 -5.262591E+001 -2.770492E-001 -5.262537E+001 -2.730517E+001 -2.498071E+001
 430.0000     -3.413918E+001  3.497336E+001 -2.808544E-001 -5.390893E+001 -2.800789E-001 -5.390800E+001 -2.719494E+001 -2.681390E+001
 440.0000     -3.417395E+001  3.622615E+001 -2.841883E-001 -5.520134E+001 -2.839247E-001 -5.519185E+001 -2.705809E+001 -2.891223E+001
 450.0000     -3.430945E+001  3.721627E+001 -2.883575E-001 -5.648362E+001 -2.871164E-001 -5.648452E+001 -2.693565E+001 -3.078664E+001
 460.0000     -3.442898E+001  3.885977E+001 -2.911139E-001 -5.778368E+001 -2.908519E-001 -5.778087E+001 -2.684574E+001 -3.282522E+001
 470.0000     -3.451557E+001  3.995902E+001 -2.944915E-001 -5.907840E+001 -2.940056E-001 -5.907770E+001 -2.677656E+001 -3.484177E+001
 480.0000     -3.461206E+001  4.160160E+001 -2.975597E-001 -6.038567E+001 -2.974106E-001 -6.038179E+001 -2.670340E+001 -3.663129E+001
 490.0000     -3.465229E+001  4.311802E+001 -3.007214E-001 -6.168933E+001 -2.999865E-001 -6.168925E+001 -2.665836E+001 -3.859004E+001
 500.0000     -3.470496E+001  4.480572E+001 -3.044930E-001 -6.300056E+001 -3.044779E-001 -6.300000E+001 -2.659094E+001 -4.061662E+001
 510.0000     -3.474381E+001  4.707338E+001 -3.076564E-001 -6.431364E+001 -3.079982E-001 -6.431528E+001 -2.654226E+001 -4.256058E+001
 520.0000     -3.481278E+001  4.874654E+001 -3.105716E-001 -6.562963E+001 -3.103465E-001 -6.563459E+001 -2.648455E+001 -4.457354E+001
 530.0000     -3.482941E+001  5.049742E+001 -3.145659E-001 -6.694727E+001 -3.143763E-001 -6.695539E+001 -2.642465E+001 -4.681241E+001
 540.0000     -3.483935E+001  5.263025E+001 -3.183843E-001 -6.828103E+001 -3.189048E-001 -6.827823E+001 -2.637323E+001 -4.878790E+001
 550.0000     -3.489680E+001  5.469291E+001 -3.220761E-001 -6.961181E+001 -3.220887E-001 -6.961305E+001 -2.634899E+001 -5.089035E+001
 560.0000     -3.487346E+001  5.657300E+001 -3.250047E-001 -7.094988E+001 -3.255571E-001 -7.094876E+001 -2.631431E+001 -5.292914E+001
 570.0000     -3.490187E+001  5.810624E+001 -3.289835E-001 -7.228796E+001 -3.290836E-001 -7.228751E+001 -2.626356E+001 -5.496563E+001
 580.0000     -3.487894E+001  5.936943E+001 -3.324095E-001 -7.363621E+001 -3.335013E-001 -7.363874E+001 -2.624877E+001 -5.683453E+001
 590.0000     -3.485222E+001  6.124309E+001 -3.362345E-001 -7.498597E+001 -3.370299E-001 -7.498847E+001 -2.620321E+001 -5.906499E+001
 600.0000     -3.477531E+001  6.350923E+001 -3.394875E-001 -7.634595E+001 -3.404511E-001 -7.634655E+001 -2.617971E+001 -6.116535E+001
 610.0000     -3.470183E+001  6.554140E+001 -3.443380E-001 -7.770802E+001 -3.449958E-001 -7.771239E+001 -2.618005E+001 -6.347660E+001
 620.0000     -3.453116E+001  6.767850E+001 -3.483366E-001 -7.907745E+001 -3.489267E-001 -7.907784E+001 -2.617216E+001 -6.564812E+001
 630.0000     -3.441934E+001  6.940878E+001 -3.535407E-001 -8.044994E+001 -3.528482E-001 -8.044839E+001 -2.616452E+001 -6.794644E+001
 640.0000     -3.425541E+001  7.163544E+001 -3.565836E-001 -8.183186E+001 -3.573932E-001 -8.183184E+001 -2.616603E+001 -6.996688E+001
 650.0000     -3.412890E+001  7.321426E+001 -3.613158E-001 -8.322118E+001 -3.616796E-001 -8.322444E+001 -2.617843E+001 -7.221014E+001
 660.0000     -3.402046E+001  7.433577E+001 -3.652250E-001 -8.461308E+001 -3.654515E-001 -8.461572E+001 -2.619333E+001 -7.469135E+001
 670.0000     -3.394272E+001  7.566859E+001 -3.686118E-001 -8.601625E+001 -3.693985E-001 -8.601537E+001 -2.620829E+001 -7.669998E+001
 680.0000     -3.380827E+001  7.707024E+001 -3.729567E-001 -8.742218E+001 -3.736948E-001 -8.743173E+001 -2.623227E+001 -7.876804E+001
 690.0000     -3.365467E+001  7.838214E+001 -3.772745E-001 -8.883923E+001 -3.779727E-001 -8.884010E+001 -2.623740E+001 -8.107487E+001
 700.0000     -3.350809E+001  7.976438E+001 -3.815845E-001 -9.025698E+001 -3.822345E-001 -9.025976E+001 -2.626606E+001 -8.333101E+001
 710.0000     -3.330847E+001  8.117321E+001 -3.858619E-001 -9.168234E+001 -3.861729E-001 -9.168558E+001 -2.630945E+001 -8.582529E+001
 720.0000     -3.313065E+001  8.275431E+001 -3.901462E-001 -9.311478E+001 -3.907696E-001 -9.311548E+001 -2.635192E+001 -8.837416E+001
 730.0000     -3.293291E+001  8.383028E+001 -3.948643E-001 -9.455154E+001 -3.954254E-001 -9.455414E+001 -2.643650E+001 -9.089222E+001
 740.0000     -3.279214E+001  8.501289E+001 -3.992775E-001 -9.600077E+001 -3.996471E-001 -9.600138E+001 -2.652419E+001 -9.328635E+001
 750.0000     -3.262093E+001  8.593008E+001 -4.040508E-001 -9.745722E+001 -4.046858E-001 -9.745916E+001 -2.659397E+001 -9.574971E+001
 760.0000     -3.247585E+001  8.689220E+001 -4.086885E-001 -9.891924E+001 -4.094688E-001 -9.892260E+001 -2.668587E+001 -9.821134E+001
 770.0000     -3.236171E+001  8.754116E+001 -4.126990E-001 -1.003983E+002 -4.147034E-001 -1.003982E+002 -2.674371E+001 -1.006981E+002
 780.0000     -3.219704E+001  8.854852E+001 -4.176463E-001 -1.018822E+002 -4.191979E-001 -1.018852E+002 -2.681068E+001 -1.033856E+002
 790.0000     -3.200947E+001  8.977023E+001 -4.220288E-001 -1.033744E+002 -4.241030E-001 -1.033751E+002 -2.688341E+001 -1.062078E+002
 800.0000     -3.184903E+001  9.064048E+001 -4.276555E-001 -1.048741E+002 -4.288234E-001 -1.048744E+002 -2.698731E+001 -1.090279E+002
 810.0000     -3.172133E+001  9.183304E+001 -4.330484E-001 -1.063831E+002 -4.338578E-001 -1.063821E+002 -2.711736E+001 -1.119290E+002
 820.0000     -3.158266E+001  9.267522E+001 -4.372690E-001 -1.078983E+002 -4.393386E-001 -1.079005E+002 -2.724123E+001 -1.147981E+002
 830.0000     -3.143828E+001  9.360530E+001 -4.421101E-001 -1.094246E+002 -4.449078E-001 -1.094257E+002 -2.738762E+001 -1.178306E+002
 840.0000     -3.133367E+001  9.446436E+001 -4.483421E-001 -1.109553E+002 -4.490993E-001 -1.109542E+002 -2.754595E+001 -1.208139E+002
 850.0000     -3.121722E+001  9.528628E+001 -4.538521E-001 -1.124975E+002 -4.543697E-001 -1.124995E+002 -2.771557E+001 -1.239586E+002
 860.0000     -3.108541E+001  9.588699E+001 -4.582023E-001 -1.140597E+002 -4.598873E-001 -1.140571E+002 -2.790032E+001 -1.272801E+002
 870.0000     -3.088267E+001  9.672157E+001 -4.638270E-001 -1.156210E+002 -4.649552E-001 -1.156195E+002 -2.807037E+001 -1.306974E+002
 880.0000     -3.075489E+001  9.749385E+001 -4.695519E-001 -1.171989E+002 -4.709858E-001 -1.171974E+002 -2.827407E+001 -1.342265E+002
 890.0000     -3.062502E+001  9.829945E+001 -4.753435E-001 -1.187893E+002 -4.763798E-001 -1.187865E+002 -2.847611E+001 -1.379427E+002
 900.0000     -3.047590E+001  9.937774E+001 -4.806601E-001 -1.203895E+002 -4.818330E-001 -1.203882E+002 -2.867745E+001 -1.416942E+002
 910.0000     -3.039965E+001  1.006377E+002 -4.870237E-001 -1.220025E+002 -4.878060E-001 -1.220021E+002 -2.887762E+001 -1.455757E+002
 920.0000     -3.026367E+001  1.014325E+002 -4.927466E-001 -1.236250E+002 -4.938642E-001 -1.236246E+002 -2.911266E+001 -1.496825E+002
 930.0000     -3.013724E+001  1.022361E+002 -4.995159E-001 -1.252623E+002 -5.000206E-001 -1.252569E+002 -2.932421E+001 -1.539609E+002
 940.0000     -2.999652E+001  1.028751E+002 -5.049975E-001 -1.269095E+002 -5.067183E-001 -1.269083E+002 -2.951204E+001 -1.582458E+002
 950.0000     -2.985155E+001  1.037303E+002 -5.115787E-001 -1.285746E+002 -5.128313E-001 -1.285731E+002 -2.971496E+001 -1.629491E+002
 960.0000     -2.967381E+001  1.044043E+002 -5.188979E-001 -1.302496E+002 -5.194212E-001 -1.302472E+002 -2.991388E+001 -1.680204E+002
 970.0000     -2.947286E+001  1.053542E+002 -5.255482E-001 -1.319344E+002 -5.261253E-001 -1.319309E+002 -3.010057E+001 -1.731384E+002
 980.0000     -2.932560E+001  1.060975E+002 -5.323453E-001 -1.336342E+002 -5.328568E-001 -1.336344E+002 -3.029115E+001 -1.784095E+002
 990.0000     -2.919972E+001  1.071432E+002 -5.388213E-001 -1.353459E+002 -5.398505E-001 -1.353489E+002 -3.047042E+001  1.757330E+002
1000.0000     -2.907520E+001  1.078415E+002 -5.465837E-001 -1.370794E+002 -5.473203E-001 -1.370757E+002 -3.065205E+001  1.695912E+002
1010.0000     -2.892966E+001  1.088771E+002 -5.540082E-001 -1.388222E+002 -5.547778E-001 -1.388202E+002 -3.080194E+001  1.635331E+002
1020.0000     -2.879885E+001  1.097992E+002 -5.616741E-001 -1.405861E+002 -5.622042E-001 -1.405835E+002 -3.091366E+001  1.573133E+002
1030.0000     -2.864460E+001  1.106269E+002 -5.697595E-001 -1.423607E+002 -5.704878E-001 -1.423566E+002 -3.093032E+001  1.509144E+002
1040.0000     -2.851753E+001  1.111458E+002 -5.771391E-001 -1.441572E+002 -5.782996E-001 -1.441536E+002 -3.088587E+001  1.444373E+002
1050.0000     -2.835765E+001  1.117240E+002 -5.857852E-001 -1.459621E+002 -5.864967E-001 -1.459632E+002 -3.082721E+001  1.379833E+002
1060.0000     -2.817611E+001  1.127056E+002 -5.938153E-001 -1.477884E+002 -5.948288E-001 -1.477870E+002 -3.075054E+001  1.311248E+002
1070.0000     -2.801109E+001  1.135569E+002 -6.030120E-001 -1.496326E+002 -6.032897E-001 -1.496326E+002 -3.066178E+001  1.242509E+002
1080.0000     -2.784213E+001  1.143881E+002 -6.107302E-001 -1.514953E+002 -6.123035E-001 -1.514959E+002 -3.048703E+001  1.174957E+002
1090.0000     -2.770401E+001  1.150883E+002 -6.193417E-001 -1.533774E+002 -6.200509E-001 -1.533775E+002 -3.029555E+001  1.108732E+002
1100.0000     -2.757704E+001  1.157706E+002 -6.279141E-001 -1.552776E+002 -6.297407E-001 -1.552759E+002 -3.007861E+001  1.045406E+002
1110.0000     -2.743356E+001  1.164106E+002 -6.382134E-001 -1.571974E+002 -6.389732E-001 -1.571960E+002 -2.976934E+001  9.830373E+001
1120.0000     -2.725632E+001  1.169689E+002 -6.478161E-001 -1.591378E+002 -6.489564E-001 -1.591364E+002 -2.945214E+001  9.236076E+001
1130.0000     -2.709811E+001  1.175393E+002 -6.577855E-001 -1.610987E+002 -6.585602E-001 -1.610953E+002 -2.912718E+001  8.642391E+001
1140.0000     -2.693279E+001  1.180458E+002 -6.688523E-001 -1.630778E+002 -6.694450E-001 -1.630781E+002 -2.880099E+001  8.100737E+001
1150.0000     -2.675305E+001  1.186999E+002 -6.792674E-001 -1.650804E+002 -6.801971E-001 -1.650804E+002 -2.843876E+001  7.549921E+001
1160.0000     -2.659604E+001  1.191931E+002 -6.896480E-001 -1.671104E+002 -6.904078E-001 -1.671079E+002 -2.807477E+001  7.011999E+001
1170.0000     -2.640322E+001  1.198291E+002 -7.006949E-001 -1.691614E+002 -7.014673E-001 -1.691598E+002 -2.772931E+001  6.473777E+001
1180.0000     -2.623474E+001  1.203097E+002 -7.116092E-001 -1.712335E+002 -7.124037E-001 -1.712361E+002 -2.738543E+001  5.968549E+001
1190.0000     -2.608913E+001  1.205400E+002 -7.232164E-001 -1.733368E+002 -7.238445E-001 -1.733358E+002 -2.701415E+001  5.498528E+001
1200.0000     -2.591735E+001  1.207226E+002 -7.357519E-001 -1.754639E+002 -7.364854E-001 -1.754623E+002 -2.663594E+001  5.016854E+001
1210.0000     -2.576510E+001  1.208808E+002 -7.486677E-001 -1.776162E+002 -7.487108E-001 -1.776146E+002 -2.629397E+001  4.548835E+001
1220.0000     -2.562798E+001  1.211307E+002 -7.613313E-001 -1.797940E+002 -7.621698E-001 -1.797938E+002 -2.598744E+001  4.104475E+001
1230.0000     -2.548693E+001  1.214222E+002 -7.743762E-001  1.779918E+002 -7.754105E-001  1.779998E+002 -2.565542E+001  3.657108E+001
1240.0000     -2.533658E+001  1.216421E+002 -7.889923E-001  1.757548E+002 -7.894332E-001  1.757561E+002 -2.537250E+001  3.218951E+001
1250.0000     -2.519638E+001  1.218064E+002 -8.023584E-001  1.734809E+002 -8.032957E-001  1.734840E+002 -2.509624E+001  2.791927E+001
1260.0000     -2.506960E+001  1.219100E+002 -8.171270E-001  1.711804E+002 -8.175598E-001  1.711828E+002 -2.482633E+001  2.370807E+001
1270.0000     -2.495970E+001  1.220509E+002 -8.320633E-001  1.688441E+002 -8.320787E-001  1.688501E+002 -2.456728E+001  1.957199E+001
1280.0000     -2.486961E+001  1.218991E+002 -8.468606E-001  1.664775E+002 -8.474680E-001  1.664758E+002 -2.432608E+001  1.555609E+001
1290.0000     -2.476064E+001  1.217779E+002 -8.637689E-001  1.640677E+002 -8.635080E-001  1.640714E+002 -2.413799E+001  1.167294E+001
1300.0000     -2.463477E+001  1.215401E+002 -8.805070E-001  1.616246E+002 -8.800803E-001  1.616268E+002 -2.393765E+001  7.588717E+000
1305.0000     -2.459174E+001  1.213797E+002 -8.890578E-001  1.603892E+002 -8.890701E-001  1.603935E+002 -2.384399E+001  5.655881E+000
1310.0000     -2.454415E+001  1.212808E+002 -8.977568E-001  1.591449E+002 -8.984107E-001  1.591463E+002 -2.374929E+001  3.661155E+000
1315.0000     -2.449516E+001  1.212206E+002 -9.069715E-001  1.578886E+002 -9.073045E-001  1.578892E+002 -2.366117E+001  1.596043E+000
1320.0000     -2.444077E+001  1.211930E+002 -9.153626E-001  1.566208E+002 -9.159439E-001  1.566199E+002 -2.358576E+001 -3.487043E-001
1325.0000     -2.440168E+001  1.211256E+002 -9.252515E-001  1.553399E+002 -9.254022E-001  1.553454E+002 -2.351073E+001 -2.352332E+000
1330.0000     -2.437054E+001  1.209722E+002 -9.339786E-001  1.540526E+002 -9.350737E-001  1.540551E+002 -2.344221E+001 -4.375238E+000
1335.0000     -2.435111E+001  1.207910E+002 -9.436370E-001  1.527546E+002 -9.445308E-001  1.527583E+002 -2.337428E+001 -6.401641E+000
1340.0000     -2.433072E+001  1.207459E+002 -9.537093E-001  1.514444E+002 -9.543483E-001  1.514451E+002 -2.332190E+001 -8.331749E+000
1345.0000     -2.432012E+001  1.206231E+002 -9.636205E-001  1.501212E+002 -9.638632E-001  1.501254E+002 -2.324944E+001 -1.035729E+001
1350.0000     -2.431781E+001  1.205276E+002 -9.737751E-001  1.487888E+002 -9.738193E-001  1.487925E+002 -2.320037E+001 -1.235602E+001
1355.0000     -2.431614E+001  1.203421E+002 -9.834166E-001  1.474485E+002 -9.845311E-001  1.474467E+002 -2.314892E+001 -1.434512E+001
1360.0000     -2.432018E+001  1.201239E+002 -9.944011E-001  1.460915E+002 -9.941936E-001  1.460915E+002 -2.310479E+001 -1.633968E+001
