!Created: 10-18-2013 at 09:06:06
!Mini-Circuits
!S2P DATA File Format
!Type: LOW PASS FILTER
!MODEL: LFCN-530D+
!S/N: Unit 1
!PIN OUT: PORT 1 - PIN 1, PORT 2 - PIN 3, GROUND - PIN 2,4
!TEST CONDITIONS: Z:50 OHM SYSTEM, INPUT POWER = -10dBm
!PROD RUN: MDC2360 DATE CODE: 1323
!REMARK: UNITS MOUNTED ON TB-270 RUN#MN43610 D/C 1336. PORT EXTENSION HAS BEEN DONE.
!TESTED ON: NETWORK ANALYZER MODEL AG N5242A S/N 71932 CAL DUE DATE 3/15/14
# MHZ S DB R 50
!Frequency        S11 dB  S11 DEG   S21 dB  S21 DEG   S12 dB  S12 DEG   S22 dB  S22 DEG
  10.0000     -3.877717E+001 -2.343464E+001 -1.508636E-001 -1.711381E+000 -7.256851E-002 -1.983069E+000 -3.843785E+001 -6.955457E+001
  11.0000     -3.285749E+001 -5.781390E+001 -1.561505E-001 -1.442717E+000 -1.539618E-001 -1.436427E+000 -3.334053E+001 -6.086873E+001
  12.0000     -3.146915E+001 -6.220542E+001 -1.578289E-001 -1.442194E+000 -1.579529E-001 -1.393259E+000 -3.220343E+001 -6.606754E+001
  13.0000     -3.130711E+001 -6.424447E+001 -1.562414E-001 -1.601450E+000 -1.534277E-001 -1.586796E+000 -3.241382E+001 -6.734146E+001
  14.0000     -3.189465E+001 -6.359660E+001 -1.512497E-001 -1.897085E+000 -1.473373E-001 -1.927707E+000 -3.312010E+001 -6.697186E+001
  15.0000     -3.317787E+001 -5.828004E+001 -1.521051E-001 -2.305367E+000 -1.504227E-001 -2.385090E+000 -3.469921E+001 -6.481998E+001
  16.0000     -3.481382E+001 -5.250613E+001 -1.455874E-001 -2.796216E+000 -1.437204E-001 -2.823646E+000 -3.665026E+001 -5.853796E+001
  17.0000     -3.695134E+001 -4.276118E+001 -1.414187E-001 -3.280361E+000 -1.440830E-001 -3.313499E+000 -3.861615E+001 -4.704510E+001
  18.0000     -3.839666E+001 -2.496132E+001 -1.484604E-001 -3.772018E+000 -1.456190E-001 -3.821496E+000 -4.023404E+001 -2.660441E+001
  19.0000     -3.899563E+001 -4.117104E+000 -1.545523E-001 -4.244900E+000 -1.531880E-001 -4.293591E+000 -3.970190E+001 -2.246907E+000
  20.0000     -3.836424E+001  5.760418E+000 -1.618584E-001 -4.666114E+000 -1.676086E-001 -4.697763E+000 -3.823735E+001  1.706158E+001
  21.0000     -3.732463E+001  2.039521E+001 -1.684080E-001 -5.037313E+000 -1.668027E-001 -5.092821E+000 -3.736801E+001  1.934200E+001
  22.0000     -3.651541E+001  2.471912E+001 -1.746120E-001 -5.367988E+000 -1.732548E-001 -5.431561E+000 -3.636063E+001  2.375273E+001
  23.0000     -3.594578E+001  2.706738E+001 -1.805901E-001 -5.660502E+000 -1.775532E-001 -5.736403E+000 -3.584185E+001  2.600387E+001
  24.0000     -3.572928E+001  2.728947E+001 -1.836756E-001 -5.915761E+000 -1.801323E-001 -5.988338E+000 -3.541684E+001  2.732950E+001
  25.0000     -3.559838E+001  2.722380E+001 -1.830706E-001 -6.169399E+000 -1.851903E-001 -6.226943E+000 -3.525509E+001  2.689579E+001
  26.0000     -3.561109E+001  2.590987E+001 -1.858872E-001 -6.382183E+000 -1.815462E-001 -6.432351E+000 -3.522820E+001  2.735821E+001
  27.0000     -3.558052E+001  2.429946E+001 -1.838921E-001 -6.582032E+000 -1.825287E-001 -6.635986E+000 -3.543080E+001  2.749647E+001
  28.0000     -3.583333E+001  2.263674E+001 -1.817961E-001 -6.788224E+000 -1.813149E-001 -6.814281E+000 -3.553646E+001  2.689616E+001
  29.0000     -3.589729E+001  2.150802E+001 -1.806184E-001 -6.975490E+000 -1.794327E-001 -7.008363E+000 -3.577153E+001  2.663017E+001
  30.0000     -3.598270E+001  2.184325E+001 -1.796017E-001 -7.183085E+000 -1.733462E-001 -7.213861E+000 -3.588505E+001  2.679435E+001
  31.0000     -3.603340E+001  2.098309E+001 -1.781452E-001 -7.403537E+000 -1.760951E-001 -7.411794E+000 -3.594469E+001  2.633275E+001
  32.0000     -3.590598E+001  2.093355E+001 -1.774492E-001 -7.637863E+000 -1.775295E-001 -7.641600E+000 -3.593669E+001  2.609352E+001
  33.0000     -3.585202E+001  2.158355E+001 -1.775215E-001 -7.870334E+000 -1.771432E-001 -7.869881E+000 -3.590830E+001  2.681977E+001
  34.0000     -3.567674E+001  2.235647E+001 -1.780903E-001 -8.114212E+000 -1.781490E-001 -8.107987E+000 -3.569548E+001  2.714401E+001
  35.0000     -3.555167E+001  2.177513E+001 -1.808508E-001 -8.344601E+000 -1.848987E-001 -8.391355E+000 -3.520801E+001  2.733614E+001
  36.0000     -3.522789E+001  2.275746E+001 -1.827203E-001 -8.620346E+000 -1.825420E-001 -8.605315E+000 -3.508100E+001  2.787195E+001
  37.0000     -3.488258E+001  2.297000E+001 -1.851303E-001 -8.879406E+000 -1.846979E-001 -8.848405E+000 -3.500695E+001  2.845902E+001
  38.0000     -3.470546E+001  2.361546E+001 -1.872609E-001 -9.136950E+000 -1.864942E-001 -9.101088E+000 -3.481137E+001  2.887867E+001
  39.0000     -3.444878E+001  2.425855E+001 -1.889854E-001 -9.396260E+000 -1.896930E-001 -9.361530E+000 -3.457568E+001  2.906446E+001
  40.0000     -3.418982E+001  2.425072E+001 -1.910963E-001 -9.640923E+000 -1.941189E-001 -9.618279E+000 -3.442342E+001  2.882395E+001
  41.0000     -3.407195E+001  2.490987E+001 -1.944406E-001 -9.895782E+000 -1.931612E-001 -9.878451E+000 -3.420193E+001  2.938700E+001
  42.0000     -3.385264E+001  2.546176E+001 -1.944637E-001 -1.015411E+001 -1.956040E-001 -1.011984E+001 -3.412838E+001  2.940866E+001
  43.0000     -3.372063E+001  2.494173E+001 -1.975604E-001 -1.039287E+001 -1.967775E-001 -1.036604E+001 -3.399958E+001  2.935714E+001
  44.0000     -3.350432E+001  2.491765E+001 -1.983791E-001 -1.063134E+001 -1.964823E-001 -1.061682E+001 -3.392150E+001  2.999342E+001
  45.0000     -3.348183E+001  2.491306E+001 -1.994036E-001 -1.087698E+001 -1.984617E-001 -1.084829E+001 -3.369297E+001  2.960561E+001
  46.0000     -3.340279E+001  2.507605E+001 -1.998500E-001 -1.111962E+001 -1.990336E-001 -1.108688E+001 -3.365662E+001  2.945961E+001
  47.0000     -3.327018E+001  2.499223E+001 -1.998644E-001 -1.135519E+001 -1.994705E-001 -1.132014E+001 -3.372169E+001  2.962641E+001
  48.0000     -3.317461E+001  2.462654E+001 -2.003177E-001 -1.158795E+001 -2.004724E-001 -1.156292E+001 -3.355954E+001  2.985378E+001
  49.0000     -3.311730E+001  2.455904E+001 -2.009588E-001 -1.182393E+001 -2.022043E-001 -1.179129E+001 -3.347856E+001  3.004089E+001
  50.0000     -3.194739E+001  1.264557E+001 -2.024706E-001 -1.220818E+001 -2.143781E-001 -1.163827E+001 -3.459096E+001  3.121016E+001
  51.0000     -3.293279E+001  2.460328E+001 -2.026913E-001 -1.228961E+001 -2.026645E-001 -1.226782E+001 -3.346194E+001  2.976143E+001
  52.0000     -3.286215E+001  2.449904E+001 -2.040193E-001 -1.252240E+001 -2.038930E-001 -1.250177E+001 -3.334867E+001  2.980926E+001
  53.0000     -3.275233E+001  2.426019E+001 -2.053316E-001 -1.276114E+001 -2.052487E-001 -1.273542E+001 -3.328234E+001  2.983696E+001
  54.0000     -3.277695E+001  2.177442E+001 -2.096843E-001 -1.289298E+001 -2.075854E-001 -1.292688E+001 -3.385817E+001  2.566567E+001
  55.0000     -3.275933E+001  2.168241E+001 -2.116343E-001 -1.313138E+001 -2.082704E-001 -1.316488E+001 -3.371680E+001  2.548733E+001
  56.0000     -3.258656E+001  2.107023E+001 -2.115013E-001 -1.336624E+001 -2.111314E-001 -1.339792E+001 -3.370024E+001  2.605726E+001
  57.0000     -3.248614E+001  2.116072E+001 -2.126934E-001 -1.361185E+001 -2.108174E-001 -1.363675E+001 -3.358694E+001  2.626499E+001
  58.0000     -3.238104E+001  2.130436E+001 -2.143282E-001 -1.384622E+001 -2.123511E-001 -1.387601E+001 -3.354727E+001  2.564722E+001
  59.0000     -3.234192E+001  2.086707E+001 -2.156814E-001 -1.408593E+001 -2.147142E-001 -1.411732E+001 -3.339579E+001  2.574318E+001
  60.0000     -3.345174E+001  1.983975E+001 -2.035849E-001 -1.437353E+001 -2.366446E-001 -1.441270E+001 -3.219693E+001  2.505014E+001
  61.0000     -3.208073E+001  2.046522E+001 -2.179824E-001 -1.456268E+001 -2.160623E-001 -1.458600E+001 -3.325119E+001  2.593377E+001
  62.0000     -3.203764E+001  2.033953E+001 -2.187819E-001 -1.479880E+001 -2.172782E-001 -1.482138E+001 -3.321242E+001  2.603691E+001
  63.0000     -3.188676E+001  2.026450E+001 -2.201789E-001 -1.503825E+001 -2.182978E-001 -1.506137E+001 -3.320736E+001  2.595916E+001
  64.0000     -3.181607E+001  1.995662E+001 -2.202181E-001 -1.528264E+001 -2.203798E-001 -1.529612E+001 -3.304277E+001  2.593914E+001
  65.0000     -3.162226E+001  1.922717E+001 -2.230070E-001 -1.550909E+001 -2.197924E-001 -1.553850E+001 -3.292119E+001  2.690119E+001
  66.0000     -3.169322E+001  1.966254E+001 -2.228594E-001 -1.575118E+001 -2.222026E-001 -1.577104E+001 -3.288779E+001  2.571510E+001
  67.0000     -3.158045E+001  1.967586E+001 -2.241985E-001 -1.599467E+001 -2.238741E-001 -1.600407E+001 -3.284837E+001  2.603979E+001
  68.0000     -3.152121E+001  1.928805E+001 -2.252459E-001 -1.622193E+001 -2.243702E-001 -1.625067E+001 -3.283874E+001  2.612538E+001
  69.0000     -3.147934E+001  1.905870E+001 -2.256136E-001 -1.646443E+001 -2.252281E-001 -1.648363E+001 -3.276249E+001  2.601202E+001
  70.0000     -3.132188E+001  1.894480E+001 -2.264075E-001 -1.669812E+001 -2.256939E-001 -1.672576E+001 -3.272517E+001  2.561428E+001
  71.0000     -3.132264E+001  1.872759E+001 -2.272832E-001 -1.693758E+001 -2.272901E-001 -1.695055E+001 -3.265334E+001  2.583092E+001
  72.0000     -3.126928E+001  1.834799E+001 -2.296054E-001 -1.716988E+001 -2.280613E-001 -1.718789E+001 -3.253231E+001  2.561209E+001
  73.0000     -3.117614E+001  1.828510E+001 -2.287801E-001 -1.740779E+001 -2.299946E-001 -1.742292E+001 -3.253193E+001  2.563965E+001
  74.0000     -3.109848E+001  1.804859E+001 -2.303965E-001 -1.764436E+001 -2.320656E-001 -1.765991E+001 -3.242444E+001  2.559614E+001
  75.0000     -3.108357E+001  1.755331E+001 -2.358288E-001 -1.787790E+001 -2.303299E-001 -1.788980E+001 -3.237788E+001  2.589369E+001
  76.0000     -3.095926E+001  1.764533E+001 -2.330827E-001 -1.811416E+001 -2.338503E-001 -1.812511E+001 -3.230873E+001  2.545833E+001
  77.0000     -3.092122E+001  1.746806E+001 -2.339326E-001 -1.834698E+001 -2.342677E-001 -1.835896E+001 -3.224932E+001  2.531146E+001
  78.0000     -3.085395E+001  1.741504E+001 -2.339254E-001 -1.858521E+001 -2.358931E-001 -1.859419E+001 -3.219423E+001  2.540619E+001
  79.0000     -3.078317E+001  1.715282E+001 -2.363974E-001 -1.882302E+001 -2.363486E-001 -1.883327E+001 -3.209933E+001  2.553022E+001
  80.0000     -3.069673E+001  1.727050E+001 -2.372220E-001 -1.905951E+001 -2.394878E-001 -1.907252E+001 -3.206936E+001  2.492431E+001
  81.0000     -3.062423E+001  1.700379E+001 -2.378944E-001 -1.929671E+001 -2.385597E-001 -1.930574E+001 -3.197455E+001  2.552720E+001
  82.0000     -3.058276E+001  1.686449E+001 -2.377605E-001 -1.953160E+001 -2.393284E-001 -1.954569E+001 -3.191323E+001  2.539433E+001
  83.0000     -3.049732E+001  1.665427E+001 -2.391628E-001 -1.976718E+001 -2.398501E-001 -1.977856E+001 -3.190314E+001  2.538948E+001
  84.0000     -3.043865E+001  1.665941E+001 -2.408705E-001 -2.000095E+001 -2.408371E-001 -2.001888E+001 -3.178022E+001  2.549110E+001
  85.0000     -3.035435E+001  1.646979E+001 -2.413847E-001 -2.024713E+001 -2.410827E-001 -2.025771E+001 -3.171369E+001  2.550934E+001
  86.0000     -3.030521E+001  1.636938E+001 -2.425292E-001 -2.047563E+001 -2.429038E-001 -2.049629E+001 -3.167013E+001  2.541140E+001
  87.0000     -3.024591E+001  1.653291E+001 -2.437286E-001 -2.071378E+001 -2.432667E-001 -2.073141E+001 -3.162831E+001  2.549537E+001
  88.0000     -3.020645E+001  1.649400E+001 -2.444282E-001 -2.095034E+001 -2.443925E-001 -2.096950E+001 -3.156407E+001  2.538691E+001
  89.0000     -3.012148E+001  1.642474E+001 -2.449183E-001 -2.118342E+001 -2.441270E-001 -2.120206E+001 -3.154593E+001  2.543416E+001
  90.0000     -3.013072E+001  1.637963E+001 -2.464720E-001 -2.141247E+001 -2.429985E-001 -2.145317E+001 -3.146972E+001  2.528747E+001
  91.0000     -2.999024E+001  1.604955E+001 -2.468770E-001 -2.166089E+001 -2.454233E-001 -2.168049E+001 -3.144489E+001  2.530675E+001
  92.0000     -2.995127E+001  1.586722E+001 -2.478037E-001 -2.189578E+001 -2.465705E-001 -2.191551E+001 -3.139454E+001  2.514666E+001
  93.0000     -2.990568E+001  1.589472E+001 -2.485821E-001 -2.213084E+001 -2.472481E-001 -2.215234E+001 -3.134446E+001  2.490364E+001
  94.0000     -2.985739E+001  1.536019E+001 -2.492418E-001 -2.236650E+001 -2.482053E-001 -2.239142E+001 -3.131875E+001  2.488602E+001
  95.0000     -2.980377E+001  1.514949E+001 -2.504721E-001 -2.260690E+001 -2.488579E-001 -2.262971E+001 -3.126934E+001  2.499318E+001
  96.0000     -2.977404E+001  1.498354E+001 -2.513377E-001 -2.283934E+001 -2.497530E-001 -2.286369E+001 -3.124652E+001  2.482694E+001
  97.0000     -2.971469E+001  1.452011E+001 -2.527919E-001 -2.307228E+001 -2.506901E-001 -2.309743E+001 -3.123679E+001  2.468777E+001
  98.0000     -2.966591E+001  1.436119E+001 -2.528047E-001 -2.331071E+001 -2.522084E-001 -2.333197E+001 -3.120744E+001  2.466384E+001
  99.0000     -2.962774E+001  1.405113E+001 -2.542723E-001 -2.354469E+001 -2.522320E-001 -2.356789E+001 -3.121447E+001  2.463768E+001
 100.0000     -2.962583E+001  1.389273E+001 -2.548672E-001 -2.379013E+001 -2.553920E-001 -2.379869E+001 -3.107053E+001  2.405324E+001
 101.0000     -2.952964E+001  1.354216E+001 -2.557388E-001 -2.401772E+001 -2.545560E-001 -2.404031E+001 -3.117213E+001  2.438441E+001
 102.0000     -2.948455E+001  1.306226E+001 -2.569551E-001 -2.425361E+001 -2.553694E-001 -2.427730E+001 -3.113418E+001  2.440413E+001
 103.0000     -2.942729E+001  1.281130E+001 -2.578614E-001 -2.448794E+001 -2.572862E-001 -2.451529E+001 -3.112138E+001  2.403670E+001
 104.0000     -2.938004E+001  1.269523E+001 -2.585713E-001 -2.472538E+001 -2.571560E-001 -2.474958E+001 -3.109191E+001  2.400154E+001
 105.0000     -2.934978E+001  1.226510E+001 -2.594824E-001 -2.496061E+001 -2.587194E-001 -2.498609E+001 -3.105548E+001  2.399450E+001
 106.0000     -2.932909E+001  1.230495E+001 -2.609395E-001 -2.519317E+001 -2.600403E-001 -2.521383E+001 -3.109360E+001  2.338098E+001
 107.0000     -2.926804E+001  1.214913E+001 -2.613297E-001 -2.543450E+001 -2.616420E-001 -2.544917E+001 -3.104625E+001  2.322746E+001
 108.0000     -2.922501E+001  1.162247E+001 -2.634717E-001 -2.566729E+001 -2.613885E-001 -2.568832E+001 -3.106873E+001  2.329906E+001
 109.0000     -2.919501E+001  1.161125E+001 -2.634400E-001 -2.590322E+001 -2.624857E-001 -2.592281E+001 -3.100420E+001  2.314704E+001
 110.0000     -2.912292E+001  1.107909E+001 -2.638046E-001 -2.614885E+001 -2.652279E-001 -2.615771E+001 -3.095624E+001  2.310921E+001
 111.0000     -2.910271E+001  1.097490E+001 -2.650428E-001 -2.637725E+001 -2.649495E-001 -2.639188E+001 -3.095317E+001  2.296956E+001
 112.0000     -2.903223E+001  1.074964E+001 -2.658855E-001 -2.661165E+001 -2.652563E-001 -2.663338E+001 -3.093278E+001  2.296328E+001
 113.0000     -2.899748E+001  1.065792E+001 -2.673371E-001 -2.685153E+001 -2.660592E-001 -2.686874E+001 -3.096361E+001  2.287584E+001
 114.0000     -2.896512E+001  1.016858E+001 -2.677679E-001 -2.708696E+001 -2.672314E-001 -2.710542E+001 -3.089211E+001  2.283455E+001
 115.0000     -2.889940E+001  9.996031E+000 -2.692899E-001 -2.732576E+001 -2.673746E-001 -2.734546E+001 -3.093187E+001  2.284182E+001
 116.0000     -2.888489E+001  9.720397E+000 -2.694488E-001 -2.755946E+001 -2.697339E-001 -2.757688E+001 -3.086235E+001  2.278493E+001
 117.0000     -2.884789E+001  9.542704E+000 -2.707672E-001 -2.779339E+001 -2.703263E-001 -2.781705E+001 -3.085857E+001  2.258354E+001
 118.0000     -2.879990E+001  9.379292E+000 -2.715902E-001 -2.803160E+001 -2.707467E-001 -2.805345E+001 -3.083011E+001  2.233275E+001
 119.0000     -2.875945E+001  9.060803E+000 -2.715811E-001 -2.827240E+001 -2.718971E-001 -2.828889E+001 -3.082605E+001  2.242644E+001
 120.0000     -2.869068E+001  9.031157E+000 -2.743642E-001 -2.850325E+001 -2.732836E-001 -2.852792E+001 -3.079245E+001  2.214797E+001
 121.0000     -2.868052E+001  8.398547E+000 -2.743035E-001 -2.873977E+001 -2.732223E-001 -2.876048E+001 -3.078192E+001  2.219642E+001
 122.0000     -2.862144E+001  8.361229E+000 -2.746368E-001 -2.897795E+001 -2.741678E-001 -2.899698E+001 -3.076873E+001  2.216504E+001
 123.0000     -2.860655E+001  8.017900E+000 -2.763280E-001 -2.921431E+001 -2.744494E-001 -2.923525E+001 -3.073742E+001  2.213842E+001
 124.0000     -2.854667E+001  7.781782E+000 -2.772895E-001 -2.945125E+001 -2.753730E-001 -2.947242E+001 -3.075035E+001  2.193031E+001
 125.0000     -2.849040E+001  7.662195E+000 -2.791031E-001 -2.968649E+001 -2.764928E-001 -2.970276E+001 -3.075492E+001  2.197057E+001
 126.0000     -2.849723E+001  7.252773E+000 -2.788136E-001 -2.992319E+001 -2.773962E-001 -2.994559E+001 -3.067284E+001  2.179095E+001
 127.0000     -2.843427E+001  6.967182E+000 -2.787878E-001 -3.016128E+001 -2.784971E-001 -3.018342E+001 -3.065895E+001  2.160944E+001
 128.0000     -2.839510E+001  6.788802E+000 -2.813406E-001 -3.039347E+001 -2.795259E-001 -3.041800E+001 -3.065078E+001  2.166862E+001
 129.0000     -2.835299E+001  6.376985E+000 -2.811199E-001 -3.063297E+001 -2.799663E-001 -3.065636E+001 -3.060804E+001  2.156869E+001
 130.0000     -2.830649E+001  6.283658E+000 -2.819142E-001 -3.087082E+001 -2.805308E-001 -3.088771E+001 -3.059721E+001  2.163853E+001
 131.0000     -2.828339E+001  6.023283E+000 -2.821531E-001 -3.110950E+001 -2.810393E-001 -3.113102E+001 -3.059767E+001  2.139239E+001
 132.0000     -2.825017E+001  5.746854E+000 -2.837845E-001 -3.134058E+001 -2.821658E-001 -3.137005E+001 -3.056902E+001  2.155282E+001
 133.0000     -2.818171E+001  5.264058E+000 -2.844637E-001 -3.157849E+001 -2.827289E-001 -3.160082E+001 -3.055551E+001  2.141097E+001
 134.0000     -2.814275E+001  5.125894E+000 -2.845119E-001 -3.181577E+001 -2.836430E-001 -3.183882E+001 -3.054927E+001  2.129226E+001
 135.0000     -2.808726E+001  5.059179E+000 -2.853421E-001 -3.205454E+001 -2.844624E-001 -3.207614E+001 -3.053146E+001  2.096252E+001
 136.0000     -2.806518E+001  4.456156E+000 -2.864307E-001 -3.228717E+001 -2.848395E-001 -3.231736E+001 -3.049872E+001  2.114793E+001
 137.0000     -2.802877E+001  4.337600E+000 -2.874119E-001 -3.252967E+001 -2.856833E-001 -3.255452E+001 -3.048600E+001  2.094151E+001
 138.0000     -2.798343E+001  3.919040E+000 -2.876877E-001 -3.276399E+001 -2.868661E-001 -3.279218E+001 -3.046639E+001  2.107326E+001
 139.0000     -2.793889E+001  3.760313E+000 -2.887518E-001 -3.300307E+001 -2.868989E-001 -3.302504E+001 -3.046650E+001  2.087440E+001
 140.0000     -2.794025E+001  3.422753E+000 -2.895522E-001 -3.323796E+001 -2.878534E-001 -3.326098E+001 -3.045354E+001  2.095062E+001
 141.0000     -2.786680E+001  3.158376E+000 -2.903448E-001 -3.347601E+001 -2.882388E-001 -3.350117E+001 -3.044767E+001  2.072169E+001
 142.0000     -2.779952E+001  2.899103E+000 -2.914675E-001 -3.371408E+001 -2.890240E-001 -3.373996E+001 -3.043324E+001  2.077180E+001
 143.0000     -2.778667E+001  2.586912E+000 -2.918765E-001 -3.395080E+001 -2.898828E-001 -3.397889E+001 -3.039286E+001  2.065876E+001
 144.0000     -2.773066E+001  2.339622E+000 -2.927476E-001 -3.418517E+001 -2.911259E-001 -3.421204E+001 -3.040676E+001  2.068324E+001
 145.0000     -2.769906E+001  2.101691E+000 -2.935441E-001 -3.442753E+001 -2.909101E-001 -3.444680E+001 -3.042227E+001  2.056922E+001
 146.0000     -2.766493E+001  1.745683E+000 -2.946012E-001 -3.466714E+001 -2.918915E-001 -3.468834E+001 -3.035307E+001  2.047950E+001
 147.0000     -2.763450E+001  1.796426E+000 -2.946660E-001 -3.490469E+001 -2.933572E-001 -3.491408E+001 -3.040740E+001  2.029509E+001
 148.0000     -2.757658E+001  1.591044E+000 -2.956504E-001 -3.513863E+001 -2.932374E-001 -3.515536E+001 -3.036467E+001  2.018331E+001
 149.0000     -2.753090E+001  1.265803E+000 -2.958422E-001 -3.537317E+001 -2.953468E-001 -3.539527E+001 -3.040369E+001  1.997449E+001
 150.0000     -2.751825E+001  1.431817E+000 -2.982934E-001 -3.563289E+001 -2.982296E-001 -3.565311E+001 -3.037692E+001  2.014865E+001
 151.0000     -2.747256E+001  8.214818E-001 -2.974755E-001 -3.585453E+001 -2.968858E-001 -3.586829E+001 -3.036419E+001  2.005503E+001
 152.0000     -2.742315E+001  5.357247E-001 -2.982009E-001 -3.608816E+001 -2.973203E-001 -3.611103E+001 -3.033578E+001  1.987053E+001
 153.0000     -2.739756E+001  4.988697E-002 -2.992701E-001 -3.632797E+001 -2.981375E-001 -3.634632E+001 -3.030365E+001  1.981797E+001
 154.0000     -2.735044E+001 -6.207182E-002 -3.005870E-001 -3.656688E+001 -2.983541E-001 -3.658577E+001 -3.030465E+001  1.972930E+001
