! TriQuint
! TQP3M9036 
! 8-pin 2x2mm DFN Package
! The data is for the device in a 50 Ohm system, 2-port file de-embedded to the device leads.
! Device bias: +5V V @ 70 mA Idq
!Lot 131
! Temperature: 25C
! Date: 07/23/2012
!  Port 1 corresponds to Pin 2 on TQP3M9036 (RF input)
!  Port 2 corresponds to Pin 7 on TQP3M9036 (RF output)
! All data in ma (Magnitude/Angle) format 
! freq-unit   param-type   data-format   keyword   impedance-ohms
# Hz S dB R 50
10000000	-4.838870e+000	-2.371806e+001	2.931675e+001	1.680195e+002	-3.463607e+001	2.803567e+001	-1.363094e+001	-5.406499e+001
20000000	-6.615556e+000	-1.833756e+001	2.865248e+001	1.697593e+002	-3.386077e+001	1.791025e+001	-1.956519e+001	-5.818573e+001
30000000	-7.124314e+000	-1.494228e+001	2.845105e+001	1.698507e+002	-3.383856e+001	1.263087e+001	-2.345255e+001	-5.083070e+001
40000000	-7.366835e+000	-1.345879e+001	2.835195e+001	1.692017e+002	-3.364555e+001	1.267390e+001	-2.635579e+001	-3.577604e+001
50000000	-7.466037e+000	-1.293065e+001	2.827537e+001	1.680116e+002	-3.340311e+001	1.260737e+001	-2.764454e+001	-1.406273e+001
60000000	-7.527033e+000	-1.313447e+001	2.820992e+001	1.667181e+002	-3.354527e+001	1.315230e+001	-2.809075e+001	1.766129e+000
70000000	-7.581816e+000	-1.363616e+001	2.814189e+001	1.653079e+002	-3.358168e+001	1.391182e+001	-2.679183e+001	1.950217e+001
80000000	-7.616968e+000	-1.389597e+001	2.809409e+001	1.638220e+002	-3.363387e+001	1.458793e+001	-2.592025e+001	2.818175e+001
90000000	-7.752591e+000	-1.434455e+001	2.802762e+001	1.624374e+002	-3.341168e+001	1.578913e+001	-2.442338e+001	3.310834e+001
100000000	-7.772982e+000	-1.557751e+001	2.794863e+001	1.609856e+002	-3.327040e+001	1.625466e+001	-2.358778e+001	3.799085e+001
110000000	-7.847219e+000	-1.613550e+001	2.788726e+001	1.594042e+002	-3.320951e+001	1.931871e+001	-2.248724e+001	3.834072e+001
120000000	-7.883585e+000	-1.672033e+001	2.780955e+001	1.579199e+002	-3.312571e+001	1.766202e+001	-2.169718e+001	4.114756e+001
130000000	-7.950434e+000	-1.779906e+001	2.773130e+001	1.564537e+002	-3.306049e+001	2.069449e+001	-2.095836e+001	3.983083e+001
140000000	-7.949346e+000	-1.827550e+001	2.764850e+001	1.548813e+002	-3.323824e+001	2.037659e+001	-2.017596e+001	3.934611e+001
150000000	-8.073614e+000	-1.913444e+001	2.756477e+001	1.534358e+002	-3.308192e+001	2.129659e+001	-1.951729e+001	4.179244e+001
160000000	-8.200495e+000	-2.015157e+001	2.746221e+001	1.520134e+002	-3.277914e+001	2.371790e+001	-1.907709e+001	4.127327e+001
170000000	-8.281108e+000	-2.065091e+001	2.736982e+001	1.506023e+002	-3.276982e+001	2.486848e+001	-1.873384e+001	4.005446e+001
180000000	-8.360816e+000	-2.166711e+001	2.727286e+001	1.492361e+002	-3.286824e+001	2.528922e+001	-1.840821e+001	3.923563e+001
190000000	-8.425864e+000	-2.249620e+001	2.716234e+001	1.477013e+002	-3.241190e+001	2.695071e+001	-1.775965e+001	3.879180e+001
200000000	-8.533503e+000	-2.292663e+001	2.707968e+001	1.464708e+002	-3.256970e+001	2.762049e+001	-1.753349e+001	3.902075e+001
210000000	-8.589104e+000	-2.406432e+001	2.696462e+001	1.451012e+002	-3.248723e+001	2.880162e+001	-1.721593e+001	3.817099e+001
220000000	-8.664106e+000	-2.457356e+001	2.685299e+001	1.437817e+002	-3.232353e+001	3.063411e+001	-1.691138e+001	3.659382e+001
230000000	-8.777339e+000	-2.563076e+001	2.674857e+001	1.425580e+002	-3.226496e+001	3.188832e+001	-1.679477e+001	3.634560e+001
240000000	-8.857072e+000	-2.609723e+001	2.664214e+001	1.413358e+002	-3.216803e+001	3.207154e+001	-1.625903e+001	3.480109e+001
250000000	-8.938941e+000	-2.714048e+001	2.652886e+001	1.400757e+002	-3.213725e+001	3.261851e+001	-1.604539e+001	3.505976e+001
260000000	-9.066519e+000	-2.745934e+001	2.640489e+001	1.389023e+002	-3.180360e+001	3.409454e+001	-1.593816e+001	3.245396e+001
270000000	-9.112192e+000	-2.793920e+001	2.630059e+001	1.376505e+002	-3.191194e+001	3.457930e+001	-1.555620e+001	3.189683e+001
280000000	-9.241575e+000	-2.880771e+001	2.617886e+001	1.365656e+002	-3.165790e+001	3.482087e+001	-1.529815e+001	3.045142e+001
290000000	-9.309658e+000	-2.933119e+001	2.607472e+001	1.354030e+002	-3.163171e+001	3.661376e+001	-1.528337e+001	3.100307e+001
300000000	-9.496740e+000	-2.997456e+001	2.594156e+001	1.343445e+002	-3.134558e+001	3.694194e+001	-1.519381e+001	2.859118e+001
310000000	-9.569425e+000	-3.018307e+001	2.582939e+001	1.332881e+002	-3.134497e+001	3.771647e+001	-1.496771e+001	2.839647e+001
320000000	-9.567466e+000	-3.121757e+001	2.570786e+001	1.321426e+002	-3.108704e+001	3.879055e+001	-1.480528e+001	2.778711e+001
330000000	-9.725730e+000	-3.151181e+001	2.559249e+001	1.311428e+002	-3.109848e+001	3.997965e+001	-1.475182e+001	2.699577e+001
340000000	-9.816274e+000	-3.216309e+001	2.547406e+001	1.301587e+002	-3.082939e+001	4.122398e+001	-1.457662e+001	2.560037e+001
350000000	-9.943727e+000	-3.243275e+001	2.536466e+001	1.291771e+002	-3.083552e+001	4.220001e+001	-1.437698e+001	2.468317e+001
360000000	-9.980211e+000	-3.319489e+001	2.523150e+001	1.281844e+002	-3.062878e+001	4.112148e+001	-1.438753e+001	2.375846e+001
370000000	-1.013612e+001	-3.328533e+001	2.511414e+001	1.272293e+002	-3.051845e+001	4.296080e+001	-1.423419e+001	2.345353e+001
380000000	-1.025978e+001	-3.353732e+001	2.500533e+001	1.262539e+002	-3.038673e+001	4.337116e+001	-1.403646e+001	2.271933e+001
390000000	-1.030367e+001	-3.448113e+001	2.488498e+001	1.254844e+002	-3.014439e+001	4.436613e+001	-1.395637e+001	2.105127e+001
400000000	-1.044673e+001	-3.487071e+001	2.477639e+001	1.245427e+002	-3.020661e+001	4.406720e+001	-1.392616e+001	2.005749e+001
410000000	-1.056134e+001	-3.481741e+001	2.464920e+001	1.237201e+002	-2.983634e+001	4.541728e+001	-1.376838e+001	1.879875e+001
420000000	-1.057466e+001	-3.581090e+001	2.453908e+001	1.228335e+002	-2.982135e+001	4.625954e+001	-1.378719e+001	1.824328e+001
430000000	-1.071833e+001	-3.587518e+001	2.441608e+001	1.220386e+002	-2.973488e+001	4.631503e+001	-1.365724e+001	1.778936e+001
440000000	-1.077787e+001	-3.597212e+001	2.430494e+001	1.211875e+002	-2.962676e+001	4.625802e+001	-1.344489e+001	1.700608e+001
450000000	-1.087150e+001	-3.635083e+001	2.419261e+001	1.203891e+002	-2.937448e+001	4.727780e+001	-1.342225e+001	1.637895e+001
460000000	-1.100827e+001	-3.706857e+001	2.407092e+001	1.196217e+002	-2.930821e+001	4.748626e+001	-1.341213e+001	1.553294e+001
470000000	-1.110197e+001	-3.707610e+001	2.396612e+001	1.189387e+002	-2.918243e+001	4.816029e+001	-1.335846e+001	1.516500e+001
480000000	-1.122839e+001	-3.765496e+001	2.384165e+001	1.181491e+002	-2.910086e+001	4.828436e+001	-1.329664e+001	1.413412e+001
490000000	-1.125954e+001	-3.787752e+001	2.372542e+001	1.174025e+002	-2.889703e+001	4.880316e+001	-1.322652e+001	1.319440e+001
500000000	-1.138614e+001	-3.805194e+001	2.361545e+001	1.167053e+002	-2.873677e+001	4.901924e+001	-1.319988e+001	1.234450e+001
510000000	-1.142422e+001	-3.863688e+001	2.349999e+001	1.160113e+002	-2.873974e+001	5.015427e+001	-1.315349e+001	1.220464e+001
520000000	-1.154061e+001	-3.848577e+001	2.339758e+001	1.152818e+002	-2.853435e+001	5.011433e+001	-1.306079e+001	1.136974e+001
530000000	-1.161835e+001	-3.884864e+001	2.328423e+001	1.145748e+002	-2.837588e+001	5.021456e+001	-1.306485e+001	1.040426e+001
540000000	-1.170189e+001	-3.909203e+001	2.317412e+001	1.139323e+002	-2.837147e+001	5.061527e+001	-1.303651e+001	9.214058e+000
550000000	-1.190193e+001	-3.911437e+001	2.307397e+001	1.132794e+002	-2.819203e+001	5.113093e+001	-1.293174e+001	8.452587e+000
560000000	-1.184315e+001	-3.961252e+001	2.296565e+001	1.126686e+002	-2.806081e+001	5.111736e+001	-1.290173e+001	7.976894e+000
570000000	-1.195025e+001	-3.954824e+001	2.286266e+001	1.119227e+002	-2.799937e+001	5.079454e+001	-1.289624e+001	7.817598e+000
580000000	-1.210206e+001	-3.956905e+001	2.274784e+001	1.113642e+002	-2.781922e+001	5.180470e+001	-1.290514e+001	6.773051e+000
590000000	-1.214339e+001	-4.009298e+001	2.265865e+001	1.107010e+002	-2.778202e+001	5.224434e+001	-1.279309e+001	5.538167e+000
600000000	-1.221808e+001	-4.048658e+001	2.255807e+001	1.101827e+002	-2.764073e+001	5.209263e+001	-1.279567e+001	5.593417e+000
610000000	-1.234178e+001	-4.084478e+001	2.244033e+001	1.095452e+002	-2.755141e+001	5.311280e+001	-1.279379e+001	4.598747e+000
620000000	-1.241464e+001	-4.068622e+001	2.233725e+001	1.090015e+002	-2.742624e+001	5.303441e+001	-1.268077e+001	3.910616e+000
630000000	-1.248142e+001	-4.082072e+001	2.223226e+001	1.083455e+002	-2.734573e+001	5.307574e+001	-1.270993e+001	4.066262e+000
640000000	-1.250455e+001	-4.123232e+001	2.212037e+001	1.078124e+002	-2.715735e+001	5.344750e+001	-1.265548e+001	2.818958e+000
650000000	-1.268687e+001	-4.142087e+001	2.205134e+001	1.072804e+002	-2.710945e+001	5.293023e+001	-1.258786e+001	2.185748e+000
660000000	-1.271324e+001	-4.154898e+001	2.195332e+001	1.067282e+002	-2.688529e+001	5.416598e+001	-1.257279e+001	1.485226e+000
670000000	-1.278090e+001	-4.149971e+001	2.183746e+001	1.061714e+002	-2.682094e+001	5.359256e+001	-1.257978e+001	1.220450e+000
680000000	-1.285610e+001	-4.155578e+001	2.173920e+001	1.057087e+002	-2.671997e+001	5.419780e+001	-1.252517e+001	9.186201e-001
690000000	-1.294523e+001	-4.120178e+001	2.162505e+001	1.050499e+002	-2.659332e+001	5.405624e+001	-1.248955e+001	-1.933652e-001
700000000	-1.308262e+001	-4.165287e+001	2.154584e+001	1.045417e+002	-2.648278e+001	5.419248e+001	-1.253982e+001	-5.558973e-001
710000000	-1.312672e+001	-4.203325e+001	2.146015e+001	1.040261e+002	-2.633547e+001	5.488536e+001	-1.243136e+001	-7.638075e-001
720000000	-1.323541e+001	-4.229195e+001	2.136463e+001	1.034898e+002	-2.635428e+001	5.478518e+001	-1.242391e+001	-1.640383e+000
730000000	-1.325663e+001	-4.199029e+001	2.127590e+001	1.030738e+002	-2.618165e+001	5.492423e+001	-1.245972e+001	-2.226453e+000
740000000	-1.342403e+001	-4.237396e+001	2.117938e+001	1.025985e+002	-2.612933e+001	5.500938e+001	-1.243805e+001	-2.915488e+000
750000000	-1.343165e+001	-4.283865e+001	2.107951e+001	1.020601e+002	-2.589170e+001	5.506494e+001	-1.242052e+001	-3.828673e+000
760000000	-1.354259e+001	-4.212838e+001	2.099329e+001	1.014527e+002	-2.584008e+001	5.490042e+001	-1.250478e+001	-4.643352e+000
770000000	-1.358914e+001	-4.283681e+001	2.091584e+001	1.010906e+002	-2.583240e+001	5.513394e+001	-1.234568e+001	-3.943984e+000
780000000	-1.376748e+001	-4.246605e+001	2.081214e+001	1.005779e+002	-2.569766e+001	5.542278e+001	-1.237588e+001	-5.634605e+000
790000000	-1.374598e+001	-4.204642e+001	2.072916e+001	1.001287e+002	-2.562523e+001	5.545924e+001	-1.237167e+001	-5.866723e+000
800000000	-1.380263e+001	-4.308306e+001	2.064843e+001	9.971554e+001	-2.552152e+001	5.550064e+001	-1.239767e+001	-6.281472e+000
810000000	-1.380603e+001	-4.196649e+001	2.054519e+001	9.927265e+001	-2.543561e+001	5.532906e+001	-1.231622e+001	-6.681867e+000
820000000	-1.399650e+001	-4.253335e+001	2.046053e+001	9.876298e+001	-2.534737e+001	5.571463e+001	-1.234491e+001	-7.277262e+000
830000000	-1.395093e+001	-4.261809e+001	2.037268e+001	9.836894e+001	-2.520923e+001	5.564706e+001	-1.227109e+001	-7.709592e+000
840000000	-1.400653e+001	-4.268937e+001	2.029973e+001	9.784796e+001	-2.511772e+001	5.569843e+001	-1.233408e+001	-8.766463e+000
850000000	-1.421625e+001	-4.271727e+001	2.020789e+001	9.744271e+001	-2.502270e+001	5.607302e+001	-1.221179e+001	-9.042266e+000
860000000	-1.422931e+001	-4.317831e+001	2.012290e+001	9.699070e+001	-2.495302e+001	5.575264e+001	-1.226208e+001	-9.693533e+000
870000000	-1.431761e+001	-4.251043e+001	2.004402e+001	9.657424e+001	-2.491026e+001	5.612805e+001	-1.225585e+001	-9.956572e+000
880000000	-1.440516e+001	-4.278057e+001	1.996694e+001	9.618235e+001	-2.480880e+001	5.568805e+001	-1.218820e+001	-1.095600e+001
890000000	-1.436731e+001	-4.218348e+001	1.987540e+001	9.577662e+001	-2.468922e+001	5.605772e+001	-1.224245e+001	-1.110279e+001
900000000	-1.453820e+001	-4.331583e+001	1.981690e+001	9.531737e+001	-2.467232e+001	5.584442e+001	-1.220393e+001	-1.201572e+001
910000000	-1.449922e+001	-4.292991e+001	1.970586e+001	9.500410e+001	-2.455816e+001	5.553292e+001	-1.212676e+001	-1.256079e+001
920000000	-1.470200e+001	-4.238495e+001	1.964559e+001	9.446326e+001	-2.448451e+001	5.572107e+001	-1.216958e+001	-1.311100e+001
930000000	-1.474716e+001	-4.338839e+001	1.955989e+001	9.414220e+001	-2.430959e+001	5.587957e+001	-1.218806e+001	-1.353347e+001
940000000	-1.476475e+001	-4.294333e+001	1.947303e+001	9.373599e+001	-2.433498e+001	5.585685e+001	-1.220157e+001	-1.386693e+001
950000000	-1.481522e+001	-4.241534e+001	1.940623e+001	9.336129e+001	-2.421989e+001	5.621582e+001	-1.208516e+001	-1.371767e+001
960000000	-1.480382e+001	-4.204651e+001	1.930779e+001	9.293089e+001	-2.422190e+001	5.631866e+001	-1.218243e+001	-1.469340e+001
970000000	-1.498148e+001	-4.240504e+001	1.924942e+001	9.257526e+001	-2.404520e+001	5.608698e+001	-1.208754e+001	-1.509548e+001
980000000	-1.515667e+001	-4.265579e+001	1.917094e+001	9.211035e+001	-2.393640e+001	5.634705e+001	-1.210341e+001	-1.529995e+001
990000000	-1.503462e+001	-4.299404e+001	1.909891e+001	9.186971e+001	-2.387638e+001	5.630311e+001	-1.208416e+001	-1.638052e+001
1000000000	-1.514463e+001	-4.255111e+001	1.901288e+001	9.142347e+001	-2.382160e+001	5.588622e+001	-1.215273e+001	-1.666362e+001
1010000000	-1.504064e+001	-4.227162e+001	1.893934e+001	9.105664e+001	-2.369405e+001	5.618648e+001	-1.206626e+001	-1.706351e+001
1020000000	-1.520742e+001	-4.164658e+001	1.885896e+001	9.071092e+001	-2.360731e+001	5.604101e+001	-1.213743e+001	-1.755118e+001
1030000000	-1.526582e+001	-4.293806e+001	1.877609e+001	9.026163e+001	-2.357439e+001	5.600561e+001	-1.204718e+001	-1.821957e+001
1040000000	-1.540013e+001	-4.198720e+001	1.871442e+001	8.993398e+001	-2.351626e+001	5.604888e+001	-1.207221e+001	-1.909742e+001
1050000000	-1.529184e+001	-4.269931e+001	1.865926e+001	8.957741e+001	-2.340535e+001	5.613748e+001	-1.209302e+001	-1.899410e+001
1060000000	-1.550270e+001	-4.121781e+001	1.857597e+001	8.909759e+001	-2.327125e+001	5.591675e+001	-1.201862e+001	-1.986214e+001
1070000000	-1.554126e+001	-4.157844e+001	1.849923e+001	8.874381e+001	-2.321484e+001	5.568033e+001	-1.206750e+001	-2.071684e+001
1080000000	-1.558361e+001	-4.232427e+001	1.841743e+001	8.854956e+001	-2.321369e+001	5.554317e+001	-1.209109e+001	-2.051507e+001
1090000000	-1.554437e+001	-4.091296e+001	1.834455e+001	8.806645e+001	-2.311167e+001	5.551541e+001	-1.210521e+001	-2.141973e+001
1100000000	-1.574182e+001	-4.167171e+001	1.829039e+001	8.773013e+001	-2.302049e+001	5.611275e+001	-1.201357e+001	-2.165502e+001
1110000000	-1.573786e+001	-4.128799e+001	1.822500e+001	8.744438e+001	-2.295769e+001	5.629345e+001	-1.196810e+001	-2.273716e+001
1120000000	-1.595475e+001	-4.099685e+001	1.816016e+001	8.705023e+001	-2.289609e+001	5.554963e+001	-1.204208e+001	-2.230617e+001
1130000000	-1.575885e+001	-4.195078e+001	1.808734e+001	8.678007e+001	-2.282829e+001	5.556871e+001	-1.200209e+001	-2.397200e+001
1140000000	-1.585920e+001	-4.090779e+001	1.800746e+001	8.631317e+001	-2.276032e+001	5.610776e+001	-1.192235e+001	-2.354533e+001
1150000000	-1.600681e+001	-4.133251e+001	1.794390e+001	8.606389e+001	-2.272587e+001	5.577006e+001	-1.189247e+001	-2.361247e+001
1160000000	-1.600042e+001	-4.052085e+001	1.788389e+001	8.570712e+001	-2.265979e+001	5.580118e+001	-1.196679e+001	-2.440391e+001
1170000000	-1.602056e+001	-4.157990e+001	1.783428e+001	8.549929e+001	-2.255260e+001	5.584562e+001	-1.189804e+001	-2.506601e+001
1180000000	-1.598409e+001	-4.078033e+001	1.775172e+001	8.510377e+001	-2.243289e+001	5.565075e+001	-1.196332e+001	-2.601237e+001
1190000000	-1.614719e+001	-4.152617e+001	1.767126e+001	8.473623e+001	-2.240592e+001	5.550749e+001	-1.197612e+001	-2.623308e+001
1200000000	-1.594886e+001	-4.066624e+001	1.760147e+001	8.442628e+001	-2.234050e+001	5.586599e+001	-1.193610e+001	-2.645139e+001
1210000000	-1.616509e+001	-4.012033e+001	1.753389e+001	8.414282e+001	-2.222346e+001	5.575488e+001	-1.194335e+001	-2.703380e+001
1220000000	-1.633752e+001	-4.034813e+001	1.748358e+001	8.366748e+001	-2.227544e+001	5.540902e+001	-1.186143e+001	-2.755066e+001
1230000000	-1.623571e+001	-4.149800e+001	1.741379e+001	8.346960e+001	-2.213597e+001	5.512957e+001	-1.180582e+001	-2.782798e+001
1240000000	-1.636232e+001	-3.996558e+001	1.735482e+001	8.307072e+001	-2.208373e+001	5.528931e+001	-1.186481e+001	-2.841617e+001
1250000000	-1.634414e+001	-3.969604e+001	1.728777e+001	8.278443e+001	-2.201565e+001	5.533121e+001	-1.177800e+001	-2.884639e+001
1260000000	-1.627933e+001	-4.022177e+001	1.721823e+001	8.245315e+001	-2.195738e+001	5.512392e+001	-1.171091e+001	-2.956524e+001
1270000000	-1.644023e+001	-3.949521e+001	1.715188e+001	8.213012e+001	-2.185639e+001	5.530452e+001	-1.176433e+001	-3.044155e+001
1280000000	-1.650226e+001	-3.916511e+001	1.710047e+001	8.178698e+001	-2.184267e+001	5.469325e+001	-1.178313e+001	-3.028240e+001
1290000000	-1.647232e+001	-3.872940e+001	1.703241e+001	8.150594e+001	-2.178503e+001	5.480238e+001	-1.169216e+001	-3.022514e+001
1300000000	-1.651854e+001	-3.940894e+001	1.698485e+001	8.125726e+001	-2.168586e+001	5.482029e+001	-1.175776e+001	-3.116050e+001
1310000000	-1.667502e+001	-3.996315e+001	1.692205e+001	8.080506e+001	-2.164122e+001	5.498290e+001	-1.185533e+001	-3.164131e+001
1320000000	-1.651199e+001	-3.788908e+001	1.684412e+001	8.054145e+001	-2.155654e+001	5.511737e+001	-1.173971e+001	-3.227325e+001
1330000000	-1.669839e+001	-3.788341e+001	1.678770e+001	8.024758e+001	-2.152586e+001	5.478731e+001	-1.167352e+001	-3.205670e+001
1340000000	-1.656447e+001	-3.855146e+001	1.672325e+001	7.993283e+001	-2.141809e+001	5.470440e+001	-1.169556e+001	-3.275869e+001
1350000000	-1.661552e+001	-3.869393e+001	1.666982e+001	7.975463e+001	-2.140066e+001	5.478279e+001	-1.171246e+001	-3.333238e+001
1360000000	-1.674699e+001	-3.784464e+001	1.660885e+001	7.943305e+001	-2.133625e+001	5.449547e+001	-1.168471e+001	-3.347055e+001
1370000000	-1.666746e+001	-3.858058e+001	1.655330e+001	7.909689e+001	-2.127700e+001	5.478417e+001	-1.172010e+001	-3.395958e+001
1380000000	-1.664812e+001	-3.791614e+001	1.648580e+001	7.878979e+001	-2.123016e+001	5.438314e+001	-1.167138e+001	-3.456210e+001
1390000000	-1.684165e+001	-3.859209e+001	1.643318e+001	7.845812e+001	-2.115276e+001	5.437730e+001	-1.171185e+001	-3.491962e+001
1400000000	-1.679649e+001	-3.652672e+001	1.637941e+001	7.806874e+001	-2.112758e+001	5.418488e+001	-1.161645e+001	-3.531245e+001
1410000000	-1.681503e+001	-3.829863e+001	1.632909e+001	7.800889e+001	-2.104433e+001	5.413478e+001	-1.166838e+001	-3.637053e+001
1420000000	-1.694062e+001	-3.800176e+001	1.627600e+001	7.767565e+001	-2.102411e+001	5.400488e+001	-1.158492e+001	-3.675576e+001
1430000000	-1.701427e+001	-3.658340e+001	1.621246e+001	7.728783e+001	-2.095004e+001	5.416915e+001	-1.165982e+001	-3.667798e+001
1440000000	-1.683642e+001	-3.710036e+001	1.615068e+001	7.705462e+001	-2.088111e+001	5.397746e+001	-1.163935e+001	-3.723740e+001
1450000000	-1.705707e+001	-3.659210e+001	1.609007e+001	7.673170e+001	-2.085431e+001	5.371345e+001	-1.162502e+001	-3.769988e+001
1460000000	-1.692691e+001	-3.638308e+001	1.603041e+001	7.638137e+001	-2.079566e+001	5.359297e+001	-1.164768e+001	-3.737488e+001
1470000000	-1.703221e+001	-3.672604e+001	1.598253e+001	7.618122e+001	-2.068487e+001	5.365582e+001	-1.160586e+001	-3.828605e+001
1480000000	-1.687075e+001	-3.634915e+001	1.591678e+001	7.587935e+001	-2.069785e+001	5.359217e+001	-1.164877e+001	-3.889314e+001
1490000000	-1.704723e+001	-3.578190e+001	1.587056e+001	7.547647e+001	-2.061460e+001	5.333401e+001	-1.152301e+001	-3.972284e+001
1500000000	-1.710412e+001	-3.541772e+001	1.581310e+001	7.532159e+001	-2.058876e+001	5.321848e+001	-1.146360e+001	-3.993313e+001
1510000000	-1.712570e+001	-3.559359e+001	1.576879e+001	7.502890e+001	-2.045628e+001	5.354507e+001	-1.146467e+001	-4.014464e+001
1520000000	-1.697913e+001	-3.529627e+001	1.570998e+001	7.467443e+001	-2.044149e+001	5.300289e+001	-1.154232e+001	-4.036407e+001
1530000000	-1.708908e+001	-3.486630e+001	1.565870e+001	7.440861e+001	-2.035015e+001	5.288022e+001	-1.153881e+001	-4.130370e+001
1540000000	-1.708852e+001	-3.563207e+001	1.560329e+001	7.422129e+001	-2.035973e+001	5.308941e+001	-1.142711e+001	-4.143906e+001
