! TriQuint
! TQP3M9036 
! 8-pin 2x2mm DFN Package
! The data is for the device in a 50 Ohm system, 2-port file de-embedded to the device leads.
! Device bias: +5V V @ 0 mA Idq
!Lot M306
! Temperature: 25C
! Date: 06/27/2013
!  Port 1 corresponds to Pin 2 on TQP3M9036 (RF input)
!  Port 2 corresponds to Pin 7 on TQP3M9036 (RF output)
! All data in ma (Magnitude/Angle) format 
! freq-unit   param-type   data-format   keyword   impedance-ohms
# hz S ma R 50
! freq  magS11  angS11  magS21  angS21  magS12  angS12  magS22  angS22  
          10000000       0.964784016       -0.700445237        0.028647181         29.3588146       0.0285298295         31.5770353        0.942776067        -3.17654537
          20000000       0.963629205       -0.803520388       0.0347181713         24.0045249       0.0352908869         22.5022393        0.912727789        -3.06713322
          30000000       0.962512034       -0.966092618       0.0374691286         20.3302811       0.0371632914         20.1578262        0.902087638        -2.79019573
          40000000       0.960959575        -1.12014062       0.0380912267         20.6870428       0.0385330542         20.4708811        0.897757824         -2.6333226
          50000000       0.961219067        -1.34189596       0.0392644736         21.5035898        0.040049426         21.1097267        0.896634117        -2.66643965
          60000000       0.961289978        -1.53721057       0.0397727327         23.4409876       0.0404236066          22.559282        0.895272196        -2.74943532
          70000000       0.961764535        -1.85209117       0.0406613363         25.0997462       0.0408242759         26.0766668        0.894314794        -2.96584059
          80000000        0.96123357        -2.00871916       0.0422313075         26.4575344       0.0419062267         26.6985795         0.89342545        -3.10294206
          90000000       0.960733544        -2.22449154       0.0426503306         28.0737274       0.0424710707         27.5835186        0.893587733        -3.30477161
         100000000       0.960188761        -2.41560854       0.0447836172         30.1972811        0.044200165         30.6825088        0.892529087        -3.57052683
         110000000       0.959279928        -2.64633026       0.0446656635         31.5113158       0.0454185037         31.5361406        0.891843426        -3.80539451
         120000000       0.959293993        -2.90471288       0.0462095029          33.839183       0.0459062427           33.62038        0.891862853        -4.02548898
         130000000       0.959853098        -3.05073133       0.0475376999         35.3489009       0.0475425942         35.3565342        0.891761301        -4.26052168
         140000000       0.959598127        -3.30375603        0.048460419         36.6617748       0.0487403071         36.6283708         0.89168052        -4.53928319
         150000000       0.959577019         -3.5782241       0.0500630322         38.1961975       0.0500116646         37.6342117        0.891423459         -4.7882891
         160000000       0.960461508        -3.74511734       0.0516247887         39.1613029       0.0510061138         38.9597079        0.891963214        -5.01747098
         170000000        0.95950619        -3.99166464       0.0526199711         40.3485611       0.0530294386         40.4124183        0.891259206         -5.3147246
         180000000       0.958923709        -4.23398418       0.0538437878         41.6418003       0.0550210351          42.097115        0.891101944         -5.5416879
         190000000        0.95969337        -4.48550973       0.0552640695         43.4429074       0.0553353842          43.153638         0.89072373        -5.87384323
         200000000       0.958665398        -4.75164647       0.0577138432         43.9891558       0.0576575875         43.9600502        0.890547415        -6.07423651
         210000000       0.958469251        -4.95935495       0.0586875756          45.541043       0.0590794699         45.5494836        0.891057101        -6.35415202
         220000000       0.960308775        -5.16587631       0.0594534242          46.631444       0.0609295637         45.4914445        0.891077517        -6.67237159
         230000000       0.958131596        -5.39735581        0.062441367         46.6969096       0.0620844042         47.6780207        0.890247684        -6.93252595
         240000000       0.958462284         -5.6895084       0.0632583277         48.0586238       0.0634952773         48.3027212        0.889997911        -7.22170464
         250000000       0.958015673        -5.89495029        0.065485132           48.91335       0.0651929495         48.7531097        0.890035837        -7.55141974
         260000000       0.958681867        -6.10966071       0.0669342572         49.4142085       0.0670280535         49.4602054        0.889200811        -7.75091568
         270000000       0.958053732        -6.38509679       0.0687552881         50.3401678       0.0692198263         50.4664088        0.889724622        -8.09687427
         280000000       0.957609157        -6.60811942       0.0710841644         50.8815037       0.0702856501         51.0579522        0.889465459        -8.33287297
         290000000       0.957460201        -6.80806903         0.07257672         51.5127737       0.0725900691          51.462185        0.889492406        -8.62938275
         300000000       0.957898796        -7.03696797       0.0738484341         52.1471632       0.0737565345         51.7043746        0.888168621        -8.92557044
         310000000       0.956978229        -7.29696141       0.0758163672          52.416756       0.0765313545         52.9885458        0.889482599         -9.1963122
         320000000       0.956698035        -7.52853483        0.077473212         52.8578082       0.0771712984         53.0377578        0.889115176         -9.4945361
         330000000       0.956171929        -7.74995236       0.0797350447         53.2820584       0.0799246403         53.4928435        0.888996663        -9.79994986
         340000000       0.956830892        -8.00268321       0.0808785456         53.7091665       0.0806072448         54.5347294        0.888457677        -10.0712978
         350000000       0.956433876        -8.19672558       0.0827886365         54.2880342       0.0830578023         54.3718979        0.889647419        -10.3976136
         360000000       0.956747153        -8.40317419       0.0849191443         54.7794664       0.0851940915          54.622417        0.887917434        -10.6639985
         370000000       0.956557325        -8.66525233       0.0868373255         54.8359217       0.0856981651         54.9460312        0.887909703        -10.9548834
         380000000        0.95555076        -8.95015565        0.088556656         55.4410081       0.0884790427          55.105182        0.888138736        -11.2851773
         390000000        0.95522974        -9.13651849       0.0901269911         55.4889769       0.0906066659         55.3887129        0.887028491        -11.5234977
         400000000       0.955533399        -9.36956533       0.0916621607         55.8734291       0.0925390688         55.9158726        0.888116032        -11.7906763
         410000000        0.95525443        -9.65958451       0.0940632905          56.139774       0.0943000258         56.1389975        0.886590243        -12.0990356
         420000000       0.954893779        -9.84946147       0.0961082807         56.3009915       0.0956532395         56.5234684         0.88597261        -12.4568641
         430000000       0.953670267        -10.0932619       0.0980816209         56.4253079       0.0971344059          56.437847        0.886803149        -12.6954567
         440000000       0.953861112         -10.295448       0.0999195907         57.0122589       0.0995682172         56.7852286        0.886116733        -12.9806536
         450000000        0.95502615        -10.5690731        0.100917183         57.0021856        0.101771829         57.0696071        0.886677831        -13.2933448
         460000000       0.953917671        -10.8440372         0.10392502         57.1379526        0.103390395          56.821348        0.886776007        -13.5746663
         470000000       0.954008871         -11.052209        0.105596203          57.095211        0.104736024         56.7947535        0.886006906        -13.8621049
         480000000       0.954346616        -11.3044146         0.10717549         57.4159909        0.106937851         57.4929958        0.885420329        -14.1217363
         490000000       0.953280469        -11.4990254        0.109230928         57.3800645        0.108286866         57.4365911        0.885332575        -14.4628895
         500000000       0.952855895        -11.7701436        0.111172656         57.6089861        0.110699211         57.7378827        0.885218557          -14.68996
         510000000       0.951950314        -12.0347431        0.112722643         57.4075241        0.112838113         57.5271275        0.885439977        -14.9566345
         520000000       0.951292808        -12.2336022        0.114475491          57.629194        0.114978546         57.5340167        0.885165478          -15.30291
         530000000       0.951787058        -12.5160997        0.116620087         57.5998564        0.116373317         57.8580417        0.883951645        -15.5821062
         540000000        0.95144837        -12.7620969        0.118048181          57.689552        0.118240664         57.7012941         0.88418669        -15.8781485
         550000000       0.951305123        -13.0532262        0.120518442         57.9499479        0.119818973         57.6254553        0.883495116        -16.2072036
         560000000       0.950794911        -13.2068277        0.122077211         57.8309418        0.121937825         57.9059138        0.883846114        -16.4789858
         570000000       0.950540028         -13.402464        0.123973208          57.743511        0.124230019         57.5099798        0.883435281        -16.7390151
         580000000       0.951007155        -13.7635378        0.126107458          57.906503        0.125760804         57.5385994        0.882956664        -17.0011292
         590000000       0.949783559        -13.9652204        0.127104577         57.7973142        0.127675488         57.8680517        0.883566126        -17.3375875
         600000000       0.950294723        -14.2294058        0.129225512         57.8847475        0.128942501         57.6612901        0.882462369        -17.5987019
         610000000       0.948733097        -14.5082012        0.130700714         57.8270386        0.131358798         57.8173541        0.882681017        -17.8522545
         620000000       0.949832425        -14.7166452         0.13327386         57.8897311        0.132907017         57.9397352        0.882076195        -18.1703251
         630000000       0.948767221        -14.9714632        0.134571238         57.8809094        0.134174952          58.204948        0.882190168        -18.4523173
         640000000       0.947530292        -15.2244054        0.136474431         57.6954365        0.135975202         57.6789119         0.88236017        -18.7342922
         650000000       0.947318145        -15.4145266        0.138550591         57.7688912        0.138398433         57.6491358        0.881986335        -18.9897282
         660000000       0.947202293        -15.7325632         0.14042677         57.5433473         0.13969645         57.6150247        0.882116469        -19.2931288
         670000000       0.947755208         -15.920951        0.142586229         57.6021456        0.141931725         57.6007402        0.882401473        -19.5328394
         680000000       0.946769875        -16.1420612        0.144150541         57.5627462        0.144024879         57.7076544        0.881105541        -19.8621093
         690000000       0.947086114        -16.3416868        0.145300096         57.4246501        0.144967336          57.392297        0.880477021        -20.0976375
         700000000       0.946723755         -16.600682        0.147501151          57.457127        0.147038671         57.5734258        0.880664973        -20.3704546
         710000000       0.945963657        -16.8172928        0.149117869         57.3204595        0.149485156         57.4019787        0.880647476        -20.6432943
         720000000       0.944644253        -17.0367701        0.150821404         57.3161498        0.150213157          57.588826         0.87997656        -20.8844049
         730000000       0.945264563        -17.3155228        0.152904566         57.2962647        0.152525142          57.396549        0.880338692        -21.2058105
         740000000       0.944703861        -17.5479329        0.154150898         57.0620501        0.153827983         57.1346106         0.87957251        -21.4824471
         750000000       0.944703446        -17.7134044        0.156395951         57.0336116         0.15570289          57.079329        0.879467399        -21.6939478
         760000000       0.943779358        -17.9491496        0.157990646         57.0400025        0.157618572         57.1472922        0.879461066         -21.998307
         770000000        0.94306868        -18.2120793        0.159332869          56.993819        0.159391163         57.1073837        0.878531751        -22.2992775
         780000000       0.943800498        -18.4313567        0.161883036         57.0165514        0.160863922         56.8205278        0.878708571        -22.5258455
         790000000       0.943169826        -18.5898241        0.163221238         56.7738968        0.163245397         56.9129209        0.878399217        -22.8058645
         800000000       0.942474599        -18.9124002         0.16485702         56.7175976        0.164346024         56.7263221        0.878770984        -23.0803021
         810000000       0.942268902        -19.0899763        0.167044485         56.4566496        0.166940073         56.6454473        0.877812873        -23.2975133
         820000000       0.941662313        -19.3395537        0.168333057         56.5422492        0.168435269         56.6049481        0.877760957        -23.5778414
         830000000       0.941710161        -19.5389878        0.169981083         56.3277951        0.169632007          56.392442        0.877738019        -23.8410455
         840000000       0.941237792        -19.8298186        0.171508959         56.1999064        0.172248161         56.3514161        0.877514313        -24.1135473
         850000000       0.941084689        -19.9746239         0.17311554         56.1848566        0.173289526         56.1545959        0.876407836        -24.3237317
         860000000       0.940316733        -20.2285489        0.174948652         56.0367741        0.175140664         56.1179982        0.876773414        -24.5718153
         870000000       0.940345224        -20.4243729        0.176910884         55.7363408        0.176151236         55.9707912        0.876085891        -24.8863153
         880000000       0.938984894        -20.6745755        0.178414016         55.9154427        0.178429385         55.8973759        0.876536141        -25.1217646
         890000000       0.939022142        -20.8925287        0.180488215         55.7252755        0.179982194         55.8229912         0.87596435        -25.3626296
         900000000       0.939546946        -21.1290717        0.181659491         55.7624469        0.181820196         55.6358637        0.875826175         -25.647301
         910000000       0.938855173         -21.311114        0.183962745         55.4690737        0.183448067         55.5281703        0.875375916        -25.8937926
         920000000       0.937959785        -21.5614621        0.184886679         55.3605743        0.185489942         55.5795693        0.874416859        -26.0806656
         930000000       0.936806249        -21.8142334        0.187136635         55.0944805        0.186775852         55.3558339        0.874675622        -26.3907061
         940000000       0.937286862        -22.0401218        0.188437351         55.0888257         0.18820457         55.2568767        0.874513127        -26.6138931
         950000000        0.93623998         -22.264575        0.189908178         54.9297897        0.189786994         55.1042962        0.874142199        -26.8562504
         960000000       0.936602381        -22.5301253        0.191881191         54.8059684        0.191867007         55.0795972        0.874201096        -27.0916771
         970000000       0.935668836        -22.7258482        0.193382038         54.6517519        0.193216547         54.7362788        0.873769109        -27.3664461
         980000000       0.935765601        -22.9882347        0.194849877         54.5522121        0.194784282         54.5664701        0.873467722        -27.6282487
         990000000       0.935134546        -23.2195893        0.196058938         54.4830247        0.196159776         54.6917233        0.873156126        -27.8384791
            1e+009       0.935438155        -23.3924542        0.197951653          54.332064        0.197991963         54.4700873        0.872639568        -28.0952507
         1.01e+009         0.9345355        -23.6667547        0.200600433         54.1000328        0.199542527         54.4008667        0.872573248        -28.3397245
         1.02e+009       0.934339857        -23.9036696        0.201281127          54.059144         0.20039791         53.8858249        0.872534567        -28.5473655
         1.03e+009        0.93286976        -24.1265391        0.202869563         53.9199969        0.202766322         53.8807447        0.872086709        -28.8550952
         1.04e+009       0.933275438        -24.3269878         0.20441982         53.7435016        0.204321901         53.6690113        0.871533494        -29.0804872
         1.05e+009       0.932901064        -24.5030405          0.2065765         53.6418467        0.206038644         53.6756135        0.871152859        -29.2474477
         1.06e+009       0.932568596        -24.8068749         0.20743147         53.6447356         0.20782203         53.4285166        0.871257081        -29.5265623
         1.07e+009       0.931397678        -25.0043757        0.209291889         53.3372043        0.209067629         53.5247416        0.870137596        -29.7429378
         1.08e+009       0.931661493        -25.2704621          0.2111435         53.0881356        0.211399592         53.1857862        0.869949675        -30.0235972
         1.09e+009       0.929878864        -25.4890551        0.211926217         53.0537205        0.212616789         53.1079157        0.870721766        -30.1733509
          1.1e+009       0.929592135        -25.6836647        0.214019375          52.951665        0.214012102         52.9626647         0.86953306        -30.4226559
         1.11e+009       0.930036688        -25.9405556        0.215607288         52.7801238        0.215122582          52.807784        0.869625572        -30.6374593
         1.12e+009       0.929986222         -26.166757        0.216692273          52.598582        0.216526652         52.6195289        0.868746017        -30.9111671
         1.13e+009       0.928517935        -26.4065686        0.218009023         52.4557302        0.217896839         52.4880231        0.868796525        -31.1157278
         1.14e+009       0.928160996        -26.5708917        0.219519187          52.385184        0.219518411         52.0808258        0.868911706        -31.3828209
