!	created	by	azisi	at	Mon	Jul	20	20:14:54	EEST	2020
!	generated	using	vna/J	Version	3.4.3
#	Hz	S	DB	R	50
800000000 -4.00771978 -33.51081547 -12.60648277 54.84255395 0 0 -7.86441603 102.71094387
800197432 -4.00195045 -33.65669488 -12.61237762 54.76845886 0 0 -7.86315661 102.6188126
800394864 -4.01986681 -33.83329229 -12.5981503 54.57391844 0 0 -7.85227525 102.68754976
800592296 -4.01519758 -33.89244068 -12.57869338 54.39637881 0 0 -7.89165667 102.56673625
800789728 -4.02979759 -33.9106163 -12.56680181 54.25073628 0 0 -7.86317544 102.64437385
800987160 -4.03383526 -34.15590315 -12.57083307 53.98935328 0 0 -7.87369022 102.62258261
801184592 -4.03875149 -34.22033702 -12.53934409 54.04824235 0 0 -7.89438883 102.60067104
801382024 -4.05632912 -34.4383601 -12.55822209 53.73673466 0 0 -7.89233972 102.41934099
801579456 -4.06655204 -34.6522499 -12.54688449 53.67903934 0 0 -7.86715974 102.73253758
801776888 -4.05879396 -34.65853155 -12.55338768 53.52794071 0 0 -7.9010765 102.50437799
801974320 -4.08411107 -34.83185552 -12.51689668 53.39019292 0 0 -7.89566469 102.67542988
802171752 -4.0897311 -34.97860777 -12.51860427 53.19748193 0 0 -7.9228013 102.49649017
802369184 -4.0763141 -35.15853767 -12.51241807 53.1678884 0 0 -7.91695985 102.4313805
802566616 -4.07222927 -35.20189408 -12.51565032 52.91153483 0 0 -7.89735689 102.60363391
802764048 -4.10358443 -35.30429683 -12.51194335 52.69687958 0 0 -7.91894679 102.49969833
802961480 -4.11951951 -35.43407981 -12.47660223 52.7391321 0 0 -7.90137828 102.56582106
803158912 -4.12345403 -35.76717196 -12.47859619 52.37163565 0 0 -7.92135754 102.55960583
803356344 -4.13090555 -35.91783762 -12.46045374 52.30277869 0 0 -7.93778037 102.40710612
803553776 -4.12913272 -36.05717068 -12.45605532 52.20140075 0 0 -7.92504018 102.61384828
803751208 -4.14753151 -36.14831098 -12.45186954 52.10678314 0 0 -7.93714418 102.59750156
803948640 -4.1300053 -36.28455244 -12.44351085 51.866487 0 0 -7.92382479 102.79713366
804146072 -4.15803846 -36.38873579 -12.43947779 51.80117121 0 0 -7.9366936 102.65983656
804343504 -4.13626909 -36.64841742 -12.43171752 51.4539425 0 0 -7.90773446 102.6100998
804540936 -4.18658342 -36.68253667 -12.41523883 51.57928163 0 0 -7.91297596 102.67381278
804738368 -4.17113796 -36.82015277 -12.39288813 51.16019636 0 0 -7.95649364 102.66409435
804935800 -4.16471236 -37.01462369 -12.39969593 51.06478642 0 0 -7.93658155 102.50957382
805133232 -4.18523141 -37.2338917 -12.39765828 50.94104133 0 0 -7.96540737 102.57159747
805330664 -4.19848453 -37.44385487 -12.40147803 50.75429049 0 0 -7.95837712 102.69762373
805528096 -4.20767123 -37.42033237 -12.38387097 50.72881415 0 0 -7.93878989 102.62540616
805725528 -4.23006761 -37.64424938 -12.36562398 50.53419076 0 0 -7.95070248 102.4137723
805922960 -4.20985438 -37.77734183 -12.35397611 50.42528663 0 0 -7.94206671 102.80224589
806120392 -4.22124632 -37.79781036 -12.33895237 50.30455135 0 0 -7.94499653 102.57441351
806317824 -4.22501179 -38.14538044 -12.33809796 49.9559852 0 0 -7.9606445 102.81231764
806515256 -4.22829773 -38.10509151 -12.35040074 49.88414805 0 0 -7.95819171 102.58660331
806712688 -4.23558705 -38.33091842 -12.31185888 49.94080175 0 0 -7.97731233 102.61033558
806910120 -4.23759791 -38.32952475 -12.31669822 49.57829495 0 0 -7.98469553 102.67307394
807107552 -4.23217996 -38.50867769 -12.30812443 49.35163378 0 0 -7.97390022 102.65052209
807304984 -4.23974855 -38.62837105 -12.28126572 49.4436578 0 0 -7.98165332 102.45043628
807502416 -4.24132469 -38.73975278 -12.28437776 49.23855893 0 0 -8.01697206 102.49328409
807699848 -4.25543612 -38.81246263 -12.2706869 49.07687089 0 0 -7.99565493 102.65471875
807897280 -4.24150721 -39.07009602 -12.25612858 48.82516703 0 0 -7.99578072 102.46985318
808094712 -4.27862291 -39.20081964 -12.26547559 48.85960072 0 0 -7.99408413 102.82347463
808292144 -4.26418983 -39.22089388 -12.25145836 48.58155969 0 0 -8.01656081 102.54707782
808489576 -4.28129106 -39.36987621 -12.26533682 48.3293634 0 0 -8.0410108 102.57394528
808687008 -4.29783044 -39.4978747 -12.22342716 48.25258908 0 0 -8.01333688 102.54372503
808884440 -4.2970609 -39.74459001 -12.22959608 48.04296432 0 0 -8.02348768 102.42242769
809081872 -4.29884028 -39.86552066 -12.20586915 47.90444144 0 0 -8.02603884 102.615907
809279304 -4.32382417 -40.08090024 -12.21586804 47.88407342 0 0 -8.0110298 102.70920544
809476736 -4.32785312 -40.15857404 -12.18819826 47.65917204 0 0 -7.99964869 102.57459286
809674168 -4.33298358 -40.29296765 -12.16559977 47.43021987 0 0 -8.02514881 102.7608392
809871600 -4.32368806 -40.42995748 -12.18268696 47.33714376 0 0 -8.01913163 102.55272501
810069032 -4.32513011 -40.79110279 -12.15678764 47.21890751 0 0 -8.03358973 102.93867123
810266464 -4.34936431 -40.76828688 -12.16873952 47.13794934 0 0 -8.03560573 102.758927
810463896 -4.35472484 -40.96773506 -12.14356078 46.9364647 0 0 -8.02465988 102.67184613
810661328 -4.34838342 -41.07291088 -12.1518612 46.91873632 0 0 -8.00883892 102.80164037
810858760 -4.37428031 -41.26805999 -12.13349302 46.69485269 0 0 -8.00334789 102.94664024
811056192 -4.36928626 -41.46215744 -12.14611282 46.67227326 0 0 -8.01260223 102.98522291
811253624 -4.39561802 -41.66101045 -12.13154953 46.47918213 0 0 -8.01663717 103.09753633
811451056 -4.39507401 -41.79973301 -12.13035759 46.26323809 0 0 -8.02836366 102.95927595
811648488 -4.3875619 -41.98429023 -12.12042741 46.03232942 0 0 -8.00817986 102.85934507
811845920 -4.41737961 -42.16877157 -12.09560649 46.03558175 0 0 -8.04985442 103.03754293
812043352 -4.42246092 -42.15048741 -12.1019644 45.86809821 0 0 -8.02772702 102.95667562
812240784 -4.41769163 -42.39610423 -12.08095154 45.56719608 0 0 -8.01692427 102.93767274
812438216 -4.4172383 -42.54786398 -12.07618001 45.57224799 0 0 -8.02351482 102.87037211
812635648 -4.4314243 -42.56607838 -12.08270551 45.30536426 0 0 -8.03081983 102.71405022
812833080 -4.43261389 -42.62358355 -12.04978787 45.3047512 0 0 -8.01903857 102.77100538
813030512 -4.45562577 -42.95453083 -12.04064369 45.07620491 0 0 -8.04643964 102.79465433
813227944 -4.43226362 -43.01179243 -12.02965778 44.89968882 0 0 -8.05198654 103.02610252
813425376 -4.44898267 -43.17495514 -12.01856888 44.92246877 0 0 -8.05857827 102.7583873
813622808 -4.44842051 -43.18117687 -12.01817805 44.66888295 0 0 -8.07007033 102.87880836
813820240 -4.49208625 -43.40366694 -12.00327605 44.58274609 0 0 -8.04608086 102.76861517
814017672 -4.50353928 -43.67100155 -11.99380158 44.30757879 0 0 -8.01567318 102.7916503
814215104 -4.49670751 -43.62876029 -11.99544829 44.39025704 0 0 -8.06522749 102.70809186
814412536 -4.48531616 -43.78196659 -11.98939762 44.0568027 0 0 -8.07217548 102.61619264
814609968 -4.50696443 -44.00821124 -11.98603115 44.03452321 0 0 -8.05710718 102.78870886
814807400 -4.50235211 -44.01731596 -11.97343846 43.87950379 0 0 -8.07855703 102.72082343
815004832 -4.50842526 -44.30133489 -11.95618779 43.61709507 0 0 -8.09620296 102.79771698
815202264 -4.50690164 -44.33918872 -11.94829503 43.54965831 0 0 -8.0439465 102.56202394
815399696 -4.53921916 -44.60664239 -11.94864004 43.31131791 0 0 -8.08195876 102.69043054
815597128 -4.51694828 -44.59729297 -11.95099212 43.25976648 0 0 -8.05696056 102.6774604
815794560 -4.52373977 -44.80070856 -11.91821778 42.93621134 0 0 -8.07191814 102.95410375
815991992 -4.53482393 -45.01669438 -11.92655918 42.92732964 0 0 -8.0905836 102.82906535
816189424 -4.54444892 -45.09519444 -11.90345039 42.56595985 0 0 -8.10265843 102.76844564
816386856 -4.55011477 -45.41158568 -11.90540377 42.37141663 0 0 -8.07682751 102.77829989
816584288 -4.55471787 -45.38055606 -11.89572263 42.3596796 0 0 -8.0850493 102.82346041
816781720 -4.58037055 -45.60765803 -11.88441035 42.14021819 0 0 -8.07416789 102.77689274
816979152 -4.57456468 -45.58965663 -11.86784488 42.05279102 0 0 -8.10855393 102.60969217
817176584 -4.59358327 -45.82406889 -11.85987274 41.9040161 0 0 -8.1082229 102.70825774
817374016 -4.57974334 -46.07172368 -11.86152779 41.76204447 0 0 -8.11724254 102.85567182
817571448 -4.60765318 -46.23032592 -11.86983029 41.69682097 0 0 -8.0676284 102.7692856
817768880 -4.60916689 -46.24738667 -11.84730097 41.449719 0 0 -8.1293019 102.65687389
817966312 -4.62755161 -46.46458493 -11.83617809 41.26405556 0 0 -8.09272675 102.65591778
818163744 -4.63129858 -46.55304618 -11.8263776 41.15716346 0 0 -8.12107918 102.79037016
818361176 -4.62813389 -46.79081894 -11.79882419 40.93636169 0 0 -8.1006301 102.90971268
818558608 -4.62171563 -46.76888474 -11.7924052 40.953958 0 0 -8.12910469 102.77079683
818756040 -4.64630134 -47.03613896 -11.79920468 40.77432367 0 0 -8.12877899 103.04108807
818953472 -4.65251663 -47.12468922 -11.77685795 40.67400594 0 0 -8.12816022 102.7306
819150904 -4.65568851 -47.37709843 -11.78491559 40.39613655 0 0 -8.12723923 102.76354569
819348336 -4.65789349 -47.59498057 -11.76873417 40.31638523 0 0 -8.12961399 102.80024895
819545768 -4.66644944 -47.71090585 -11.76259562 40.10946307 0 0 -8.14301062 102.80468524
819743200 -4.66687745 -47.954186 -11.7448589 39.93620303 0 0 -8.11796161 102.93963546
819940632 -4.67661844 -48.10187896 -11.76110079 39.92672571 0 0 -8.1851142 102.90863524
820138064 -4.70402044 -48.09654428 -11.75213213 39.72751328 0 0 -8.14303785 103.13254251
820335496 -4.69568658 -48.26981967 -11.71333978 39.37955147 0 0 -8.17807848 103.0064056
820532928 -4.71867019 -48.35362025 -11.72502988 39.3729257 0 0 -8.18465594 102.90272
820730360 -4.7323427 -48.74506906 -11.73135566 39.27977135 0 0 -8.17683545 102.96695739
820927792 -4.72821694 -48.61745303 -11.72735701 39.18683861 0 0 -8.16370292 102.94749685
821125224 -4.71195752 -48.85612246 -11.6890011 39.02404001 0 0 -8.16255819 103.09168576
821322656 -4.72244892 -49.04029303 -11.6866372 38.87948777 0 0 -8.18893364 103.25276442
821520088 -4.73747681 -49.13943335 -11.68972048 38.71391917 0 0 -8.15716926 103.25675528
821717520 -4.72554301 -49.26384788 -11.67277695 38.52351047 0 0 -8.19188064 102.95027657
821914952 -4.7394205 -49.30589904 -11.65882357 38.24193699 0 0 -8.19488736 102.86044703
822112384 -4.74523425 -49.57440016 -11.67014422 38.29138463 0 0 -8.19707398 102.99358465
822309816 -4.76737135 -49.72538683 -11.63897627 38.20743752 0 0 -8.16687294 103.12750302
822507248 -4.76907262 -49.75297644 -11.65475104 37.91938098 0 0 -8.17094787 102.93662077
822704680 -4.78641251 -49.82313054 -11.63740792 37.64882995 0 0 -8.20147605 102.76394034
822902112 -4.79857759 -50.14468638 -11.63821779 37.57341041 0 0 -8.16194988 102.94350148
823099544 -4.79142129 -50.07046957 -11.61732568 37.56221559 0 0 -8.19301091 102.85493502
823296976 -4.80302857 -50.19234004 -11.61604153 37.33181175 0 0 -8.17688944 102.79268986
823494408 -4.80913002 -50.50867044 -11.62285064 37.11908945 0 0 -8.19000916 102.90966318
823691840 -4.81291784 -50.56743501 -11.61208922 36.97912453 0 0 -8.16075718 102.94409711
823889272 -4.82455261 -50.63791895 -11.59725937 36.80476883 0 0 -8.19666952 102.85686333
824086704 -4.83412108 -50.98755557 -11.5644241 36.71309847 0 0 -8.15182561 102.84055738
824284136 -4.83654592 -51.12038646 -11.57231395 36.47266759 0 0 -8.19014958 102.81962938
824481568 -4.85007972 -51.29681743 -11.55882744 36.42478854 0 0 -8.19876805 102.79574842
824679000 -4.84643801 -51.22048336 -11.5430596 36.24126101 0 0 -8.21274324 102.71106942
824876432 -4.83271687 -51.3838624 -11.55018665 36.08040579 0 0 -8.18773648 102.92668208
825073864 -4.84604383 -51.58531917 -11.52905017 35.98942029 0 0 -8.19490231 102.62022369
825271296 -4.84885907 -51.70132862 -11.50899732 35.75574801 0 0 -8.21989393 102.88775114
825468728 -4.8686276 -51.8017581 -11.51897893 35.51578951 0 0 -8.21245945 102.66368354
825666160 -4.86555872 -51.95951298 -11.51928458 35.65287696 0 0 -8.21155699 102.80943711
825863592 -4.87728433 -52.07260462 -11.5043793 35.30808337 0 0 -8.24650719 102.90363529
826061024 -4.89479072 -52.25344195 -11.49888671 35.18345672 0 0 -8.22014269 102.92044111
826258456 -4.89730994 -52.47332098 -11.48441712 35.2479214 0 0 -8.22665445 102.79446718
826455888 -4.90372634 -52.54878049 -11.49391893 34.96192619 0 0 -8.23130849 102.73053281
826653320 -4.91483746 -52.67468412 -11.48266416 34.94655582 0 0 -8.22501236 102.9040882
826850752 -4.91396959 -52.77331706 -11.47811019 34.62679443 0 0 -8.24903224 102.75606408
827048184 -4.91951109 -52.98240868 -11.45423302 34.53594229 0 0 -8.23374404 102.68626704
827245616 -4.92834679 -53.19086274 -11.45496596 34.28289967 0 0 -8.24026138 102.57915184
827443048 -4.93838944 -53.24197737 -11.43930446 34.30621289 0 0 -8.2489488 102.70603567
827640480 -4.94964209 -53.36954793 -11.44058364 33.94882236 0 0 -8.24084429 102.74130992
827837912 -4.94308631 -53.58309905 -11.44683394 33.92935451 0 0 -8.23147588 102.70482145
828035344 -4.962142 -53.73834547 -11.41522034 33.69997515 0 0 -8.2281772 102.74551852
828232776 -4.95950933 -53.86767044 -11.39035758 33.67139249 0 0 -8.24605823 102.64180873
828430208 -4.96141315 -53.96111262 -11.39123773 33.38053978 0 0 -8.256381 102.59126865
828627640 -4.97749148 -53.97244369 -11.37342367 33.33229644 0 0 -8.23476102 102.7186366
828825072 -4.99445265 -54.10930893 -11.37807868 33.12570451 0 0 -8.23645478 102.50636102
829022504 -4.99347179 -54.44425435 -11.36877221 33.02664687 0 0 -8.23711504 102.49249707
829219936 -4.99484718 -54.59660762 -11.34976339 32.90060179 0 0 -8.2446092 102.66736074
829417368 -4.99972576 -54.64338315 -11.35286466 32.66710154 0 0 -8.25980039 102.49678295
829614800 -5.01001477 -54.70667137 -11.35782643 32.62864215 0 0 -8.24859926 102.49408272
829812232 -5.01669801 -54.96373977 -11.32799224 32.47027228 0 0 -8.25242983 102.67527993
830009664 -5.03186957 -55.19798421 -11.33454492 32.16066944 0 0 -8.24929673 102.81301409
830207096 -5.02912503 -55.30647107 -11.34560713 32.02237222 0 0 -8.26165145 102.65206344
830404528 -5.04706352 -55.67007372 -11.3189009 32.04485247 0 0 -8.27336443 102.72207378
830601960 -5.02035354 -55.70356551 -11.29641666 31.97328902 0 0 -8.27478168 102.69484792
830799392 -5.0367216 -55.85243411 -11.31875838 31.59905177 0 0 -8.27113806 102.64208189
830996824 -5.05482642 -55.83264361 -11.29447418 31.51464422 0 0 -8.29474246 102.6337513
831194256 -5.05216028 -56.11931053 -11.28434777 31.34134446 0 0 -8.29124814 102.83578442
831391688 -5.04453508 -56.2261861 -11.28484401 31.13590505 0 0 -8.27663607 102.71900836
831589120 -5.07515713 -56.50384183 -11.27363509 30.97604067 0 0 -8.31261765 102.83143243
831786552 -5.05733928 -56.64596799 -11.26800386 30.89615267 0 0 -8.30968371 102.65874722
831983984 -5.07793414 -56.84127485 -11.26443201 30.86444723 0 0 -8.32508753 103.02169716
832181416 -5.08277187 -56.90708259 -11.25101393 30.52718764 0 0 -8.34983233 102.77926946
832378848 -5.07639502 -57.15214571 -11.28077978 30.58224177 0 0 -8.33242066 102.64518814
832576280 -5.09031542 -57.35388248 -11.24468086 30.32898107 0 0 -8.34929589 102.74485834
832773712 -5.08851012 -57.35329034 -11.23367894 30.25519218 0 0 -8.3120646 102.54336593
832971144 -5.11430972 -57.49553385 -11.23867459 29.98316902 0 0 -8.33905003 103.02289507
833168576 -5.1254749 -57.66394248 -11.21128 29.89728018 0 0 -8.31829383 102.87463554
833366008 -5.12391062 -57.9428395 -11.20092798 29.67147472 0 0 -8.32758062 102.8362833
833563440 -5.12989451 -57.944584 -11.19653858 29.52860735 0 0 -8.3469845 102.64702983
833760872 -5.14546258 -58.10902425 -11.19729466 29.54781967 0 0 -8.35304359 102.8405113
833958304 -5.16060432 -58.22630382 -11.1597947 29.32117871 0 0 -8.33037087 102.65780742
834155736 -5.13976953 -58.38270614 -11.18108424 29.05797881 0 0 -8.35629382 102.73395443
834353168 -5.15755977 -58.55869251 -11.17005869 28.96104143 0 0 -8.33902551 102.78383535
834550600 -5.17801389 -58.69739569 -11.16633139 28.82217681 0 0 -8.34342082 102.86270495
834748032 -5.19245097 -58.76963396 -11.14890045 28.70288495 0 0 -8.36583326 102.60099298
834945464 -5.18317272 -58.89996336 -11.15796352 28.50810943 0 0 -8.33990884 102.85025361
835142896 -5.17767247 -59.2333216 -11.11743334 28.45943142 0 0 -8.33824048 102.6651845
835340328 -5.21173791 -59.21787124 -11.13635761 28.25463026 0 0 -8.34720589 102.62302333
835537760 -5.24453196 -59.37463671 -11.13150631 27.99530897 0 0 -8.35272614 102.64899078
835735192 -5.21651773 -59.67472321 -11.11902013 28.01572449 0 0 -8.38220921 102.76155259
835932624 -5.24632896 -59.73834622 -11.09943658 27.73360083 0 0 -8.32916944 102.47640393
836130056 -5.24428435 -59.7988609 -11.10516175 27.68704171 0 0 -8.34469399 102.81220896
836327488 -5.2564186 -60.10888244 -11.09677333 27.49245116 0 0 -8.36725861 102.72921759
836524920 -5.26761553 -60.14579092 -11.07926571 27.34354503 0 0 -8.38239839 102.80338575
836722352 -5.27353457 -60.33311296 -11.07542022 27.18950413 0 0 -8.38236202 102.78106466
836919784 -5.25751139 -60.46127679 -11.07295582 27.06062854 0 0 -8.32613663 102.8417903
837117216 -5.27847895 -60.58834971 -11.07379805 26.9574329 0 0 -8.35532703 102.64097669
837314648 -5.29261534 -60.77242505 -11.06075783 26.68015907 0 0 -8.37848408 102.869151
837512080 -5.29162235 -60.94837301 -11.04336835 26.6280619 0 0 -8.3708634 102.83248268
837709512 -5.29465579 -61.03849929 -11.06574225 26.51148158 0 0 -8.36771498 102.72924626
837906944 -5.31960083 -61.10962412 -11.03135301 26.22799074 0 0 -8.37477066 102.80661709
838104376 -5.33013491 -61.27596394 -11.02553901 26.1438562 0 0 -8.37022972 102.73341489
838301808 -5.3348753 -61.37435484 -11.02242568 25.9513908 0 0 -8.39788556 102.58829308
838499240 -5.33526333 -61.88197488 -11.03554278 25.9405777 0 0 -8.37215958 102.83280555
838696672 -5.33690377 -61.85629977 -11.03141015 25.77540026 0 0 -8.37099135 102.69974917
838894104 -5.3735461 -62.04465834 -11.01816993 25.59046639 0 0 -8.39879722 102.85063769
839091536 -5.39130471 -62.22268521 -11.00968201 25.28499952 0 0 -8.384808 102.77933986
839288968 -5.37686052 -62.43435397 -10.98101813 25.29856532 0 0 -8.36998498 102.77210073
839486400 -5.37219506 -62.3899384 -10.97718095 25.15145476 0 0 -8.35885456 102.62182895
839683832 -5.40028425 -62.64733929 -10.96555473 24.97051723 0 0 -8.3805771 102.85600214
839881264 -5.4119272 -62.79299002 -10.96442129 24.88964621 0 0 -8.37438387 102.97028722
840078696 -5.42417044 -62.91018822 -10.9537898 24.6734383 0 0 -8.3984485 102.8318775
840276128 -5.41718946 -63.10561707 -10.97053125 24.58548879 0 0 -8.35447497 102.82453985
840473560 -5.44924907 -63.42272442 -10.95449698 24.5289414 0 0 -8.37866558 102.8140042
840670992 -5.44484963 -63.46021961 -10.9566029 24.30169598 0 0 -8.35747729 102.85331314
840868424 -5.46456394 -63.61222673 -10.92902447 24.07817639 0 0 -8.37598358 102.76917058
841065856 -5.47094456 -63.7879024 -10.91361864 23.90427885 0 0 -8.40997268 103.00521362
841263288 -5.48781891 -63.94420716 -10.93373568 23.86541496 0 0 -8.38154802 102.7145678
841460720 -5.50500806 -64.24138338 -10.9215418 23.63557079 0 0 -8.35327215 102.618976
841658152 -5.48731887 -64.12461065 -10.90401366 23.52021786 0 0 -8.41209651 102.82091796
841855584 -5.50760529 -64.40210365 -10.90431649 23.34652551 0 0 -8.39523367 102.86996106
842053016 -5.52967765 -64.58228476 -10.89069011 23.22620035 0 0 -8.39747543 102.98703735
842250448 -5.53069803 -64.81192966 -10.89938423 23.087395 0 0 -8.39618297 102.72603125
842447880 -5.51094035 -64.86529859 -10.86559664 22.94417161 0 0 -8.37882451 102.68062451
842645312 -5.53739416 -65.09468214 -10.85977933 22.5895373 0 0 -8.39982602 102.8840369
842842744 -5.55856013 -65.23913149 -10.85480957 22.65097703 0 0 -8.39882543 102.77285222
843040176 -5.55504251 -65.50661067 -10.86215534 22.5728687 0 0 -8.39129583 102.7822826
843237608 -5.52875735 -65.65076421 -10.85449325 22.37714909 0 0 -8.38532042 102.85772349
843435040 -5.54979712 -65.73085293 -10.84202516 22.1872071 0 0 -8.41107315 102.82967322
843632472 -5.5533988 -65.82432992 -10.83683495 22.07422769 0 0 -8.44843154 102.79092997
843829904 -5.56383475 -66.02296008 -10.82184838 21.75526205 0 0 -8.4097079 102.68271322
844027336 -5.58458706 -66.20308204 -10.81131847 21.63769594 0 0 -8.4489514 102.83578618
844224768 -5.56285318 -66.45158334 -10.80911272 21.5276573 0 0 -8.48299986 103.01501903
