! TriQuint Semiconductor
! TQP7M9106 Power Amplifier
! 24-pin QFN Package
! The data is for the unmatched device in a 50 Ohm system, 2-port file de-embedded to the device leads.
! Device bias: +5V V @ 455 mA Icq
! Temperature: 25C
!  Port 1 corresponds to Pins 4 and 5 on TQP7M9106 (RF input)
!  Port 2 corresponds to Pins 14, 15 and 16 on TQP7M9106 (RF output)
! All data in (Magnitude/Angle) format 
! freq-unit   param-type   data-format   keyword   impedance-ohms
! GHz		S-param		Mag/Angle		50 Ohms
# Hz S dB R 50
300000	1.684558e-002	-3.407343e-001	-2.473311e-001	-1.056075e+002	-3.568612e+001	-1.617002e+002	-1.594952e+000	-2.331674e+000
5299850	-1.129694e-001	-1.789327e+001	1.983155e+001	-1.421185e+002	-4.440833e+001	9.162098e+001	-2.917614e+000	-7.234644e+001
10299700	-1.481953e-001	-3.411103e+001	2.194551e+001	-1.617172e+002	-5.458746e+001	8.484085e+001	-3.186312e+000	-1.042140e+002
15299550	-2.160809e-001	-4.895324e+001	2.258281e+001	-1.751555e+002	-4.788411e+001	8.406580e+001	-2.851435e+000	-1.213395e+002
20299400	-2.542174e-001	-6.224785e+001	2.261525e+001	1.745320e+002	-4.684048e+001	6.856259e+001	-2.653828e+000	-1.337711e+002
25299250	-2.956166e-001	-7.416123e+001	2.233489e+001	1.662986e+002	-4.559013e+001	6.693592e+001	-2.414511e+000	-1.412819e+002
30299100	-3.373908e-001	-8.457233e+001	2.191402e+001	1.597790e+002	-4.457278e+001	7.392866e+001	-2.288245e+000	-1.472881e+002
35298950	-3.700089e-001	-9.361428e+001	2.140144e+001	1.546238e+002	-4.365963e+001	5.769940e+001	-2.139720e+000	-1.512615e+002
40298800	-3.984314e-001	-1.014494e+002	2.086655e+001	1.505175e+002	-4.224903e+001	5.146908e+001	-2.063475e+000	-1.549018e+002
45298650	-4.216216e-001	-1.083204e+002	2.031235e+001	1.472462e+002	-4.233332e+001	3.963127e+001	-2.094049e+000	-1.570179e+002
50298500	-4.364461e-001	-1.142479e+002	1.978443e+001	1.446856e+002	-4.209845e+001	3.910908e+001	-1.980182e+000	-1.598802e+002
55298350	-4.691596e-001	-1.194291e+002	1.924907e+001	1.426551e+002	-4.213733e+001	3.417426e+001	-1.901965e+000	-1.617743e+002
60298200	-4.913595e-001	-1.239934e+002	1.875048e+001	1.411976e+002	-4.215409e+001	3.212765e+001	-1.861237e+000	-1.635976e+002
65298050	-4.879421e-001	-1.280377e+002	1.830552e+001	1.401861e+002	-4.228961e+001	3.174401e+001	-1.854716e+000	-1.646435e+002
70297900	-5.091989e-001	-1.315218e+002	1.786614e+001	1.395997e+002	-4.236208e+001	2.720084e+001	-1.802322e+000	-1.659460e+002
75297750	-5.154590e-001	-1.347323e+002	1.750357e+001	1.391659e+002	-4.294290e+001	2.358396e+001	-1.754835e+000	-1.663592e+002
80297600	-5.170894e-001	-1.375042e+002	1.715752e+001	1.388125e+002	-4.141711e+001	2.518767e+001	-1.658217e+000	-1.676233e+002
85297450	-5.194518e-001	-1.400174e+002	1.682947e+001	1.385870e+002	-4.120853e+001	2.638407e+001	-1.693052e+000	-1.683669e+002
90297300	-5.168617e-001	-1.421937e+002	1.653116e+001	1.385129e+002	-4.180162e+001	1.907705e+001	-1.648118e+000	-1.687451e+002
95297150	-5.157808e-001	-1.442342e+002	1.623232e+001	1.385648e+002	-4.198534e+001	2.670886e+001	-1.638905e+000	-1.697650e+002
100297000	-5.235852e-001	-1.460851e+002	1.599567e+001	1.387308e+002	-4.322211e+001	2.045357e+001	-1.712243e+000	-1.701578e+002
105296850	-5.197475e-001	-1.476720e+002	1.579140e+001	1.389178e+002	-4.203576e+001	2.495516e+001	-1.636079e+000	-1.703803e+002
110296700	-5.189600e-001	-1.492054e+002	1.562955e+001	1.391433e+002	-4.140671e+001	1.996066e+001	-1.627931e+000	-1.711617e+002
115296550	-5.179250e-001	-1.504999e+002	1.549423e+001	1.393278e+002	-4.111878e+001	1.911294e+001	-1.641161e+000	-1.711394e+002
120296400	-5.010012e-001	-1.516926e+002	1.537320e+001	1.394510e+002	-4.156247e+001	2.421236e+001	-1.600609e+000	-1.714490e+002
125296250	-5.154764e-001	-1.528587e+002	1.526115e+001	1.395452e+002	-4.132772e+001	2.386438e+001	-1.609316e+000	-1.721023e+002
130296100	-5.027036e-001	-1.539116e+002	1.519047e+001	1.395074e+002	-4.149049e+001	1.997145e+001	-1.636005e+000	-1.721140e+002
135295950	-5.072155e-001	-1.549070e+002	1.511685e+001	1.393682e+002	-4.116500e+001	1.733102e+001	-1.566027e+000	-1.722655e+002
140295800	-5.033317e-001	-1.557961e+002	1.505959e+001	1.390919e+002	-4.105957e+001	1.970228e+001	-1.600958e+000	-1.727618e+002
145295650	-5.104324e-001	-1.566716e+002	1.499299e+001	1.387730e+002	-4.125051e+001	1.789727e+001	-1.602276e+000	-1.726773e+002
150295500	-5.034753e-001	-1.574600e+002	1.495274e+001	1.383154e+002	-4.069858e+001	1.927400e+001	-1.557668e+000	-1.731237e+002
155295350	-4.876940e-001	-1.582756e+002	1.488803e+001	1.376616e+002	-4.071718e+001	1.808281e+001	-1.622127e+000	-1.733229e+002
160295200	-4.941512e-001	-1.589626e+002	1.482150e+001	1.371591e+002	-4.041926e+001	1.562421e+001	-1.570705e+000	-1.731684e+002
165295050	-5.003072e-001	-1.596737e+002	1.474451e+001	1.364373e+002	-4.106556e+001	1.498534e+001	-1.562363e+000	-1.737619e+002
170294900	-4.891674e-001	-1.603895e+002	1.465493e+001	1.356376e+002	-4.071266e+001	1.659346e+001	-1.606740e+000	-1.737081e+002
175294750	-4.917974e-001	-1.610674e+002	1.455148e+001	1.349860e+002	-4.080033e+001	1.138273e+001	-1.549578e+000	-1.738313e+002
180294600	-4.869727e-001	-1.617307e+002	1.444084e+001	1.342512e+002	-4.056599e+001	1.247667e+001	-1.567545e+000	-1.743455e+002
185294450	-4.930488e-001	-1.623382e+002	1.430122e+001	1.335631e+002	-4.062024e+001	8.502090e+000	-1.583638e+000	-1.741961e+002
190294300	-4.901888e-001	-1.630118e+002	1.417431e+001	1.329449e+002	-4.041395e+001	8.617065e+000	-1.505537e+000	-1.746415e+002
195294150	-4.941967e-001	-1.636592e+002	1.402234e+001	1.323422e+002	-4.027238e+001	7.013770e+000	-1.575241e+000	-1.745695e+002
200294000	-4.981732e-001	-1.642578e+002	1.387253e+001	1.320307e+002	-4.075348e+001	6.764726e+000	-1.502824e+000	-1.751298e+002
205293850	-5.105878e-001	-1.648763e+002	1.372542e+001	1.315800e+002	-4.091338e+001	3.688014e+000	-1.577884e+000	-1.755117e+002
210293700	-5.187812e-001	-1.654118e+002	1.356872e+001	1.313973e+002	-4.023325e+001	6.191813e+000	-1.541166e+000	-1.753090e+002
215293550	-5.337125e-001	-1.659971e+002	1.343824e+001	1.312664e+002	-4.129671e+001	6.364857e-001	-1.520751e+000	-1.759770e+002
220293400	-5.362272e-001	-1.665426e+002	1.330258e+001	1.310418e+002	-4.101929e+001	7.609160e+000	-1.587332e+000	-1.759747e+002
225293250	-5.364499e-001	-1.670426e+002	1.317663e+001	1.310832e+002	-3.993467e+001	3.237991e+000	-1.491699e+000	-1.760746e+002
230293100	-5.473860e-001	-1.676280e+002	1.307528e+001	1.310370e+002	-4.113881e+001	3.760848e+000	-1.544041e+000	-1.767142e+002
235292950	-5.433937e-001	-1.680696e+002	1.295223e+001	1.310742e+002	-4.166223e+001	3.974633e+000	-1.558214e+000	-1.764742e+002
240292800	-5.466343e-001	-1.685840e+002	1.286568e+001	1.311953e+002	-4.130944e+001	1.052968e+001	-1.493867e+000	-1.768282e+002
245292650	-5.555922e-001	-1.690772e+002	1.279216e+001	1.312126e+002	-4.059140e+001	8.943897e+000	-1.562788e+000	-1.772908e+002
250292500	-5.697483e-001	-1.694690e+002	1.270674e+001	1.312907e+002	-4.142662e+001	5.897229e+000	-1.543167e+000	-1.768244e+002
255292350	-5.665318e-001	-1.698915e+002	1.265460e+001	1.314267e+002	-4.075008e+001	2.633569e+000	-1.500257e+000	-1.773414e+002
260292200	-5.666057e-001	-1.702853e+002	1.260571e+001	1.313518e+002	-4.170723e+001	4.105168e+000	-1.548777e+000	-1.774320e+002
265292050	-5.721678e-001	-1.707052e+002	1.255649e+001	1.314175e+002	-4.112615e+001	1.365004e+001	-1.504714e+000	-1.773162e+002
270291900	-5.689805e-001	-1.710331e+002	1.253279e+001	1.313681e+002	-4.114643e+001	8.418195e+000	-1.501083e+000	-1.776844e+002
275291750	-5.737802e-001	-1.713716e+002	1.249260e+001	1.312958e+002	-4.087300e+001	9.557072e+000	-1.527092e+000	-1.774005e+002
280291600	-5.664860e-001	-1.716633e+002	1.248202e+001	1.312003e+002	-4.111980e+001	9.685889e+000	-1.464554e+000	-1.776670e+002
285291450	-5.631860e-001	-1.719010e+002	1.245209e+001	1.309990e+002	-4.139936e+001	3.877096e+000	-1.518688e+000	-1.777666e+002
290291300	-5.657024e-001	-1.721892e+002	1.243987e+001	1.308417e+002	-4.186707e+001	8.309047e+000	-1.477272e+000	-1.774098e+002
295291150	-5.643925e-001	-1.725240e+002	1.241823e+001	1.304915e+002	-4.041250e+001	5.267887e+000	-1.470885e+000	-1.778877e+002
300291000	-5.566154e-001	-1.727041e+002	1.239211e+001	1.302658e+002	-4.093296e+001	4.692892e+000	-1.504735e+000	-1.775034e+002
305290850	-5.444440e-001	-1.729137e+002	1.237884e+001	1.299105e+002	-4.128791e+001	3.654636e+000	-1.435807e+000	-1.775528e+002
310290700	-5.399755e-001	-1.731981e+002	1.235009e+001	1.293850e+002	-4.086602e+001	9.407625e+000	-1.485547e+000	-1.777625e+002
315290550	-5.405819e-001	-1.733518e+002	1.232284e+001	1.291580e+002	-4.109561e+001	7.946225e+000	-1.441840e+000	-1.772131e+002
320290400	-5.280232e-001	-1.735815e+002	1.230322e+001	1.285279e+002	-4.077417e+001	8.890647e+000	-1.416337e+000	-1.776909e+002
325290250	-5.212034e-001	-1.737683e+002	1.225999e+001	1.282419e+002	-4.100968e+001	6.649186e+000	-1.478622e+000	-1.773047e+002
330290100	-5.159741e-001	-1.739417e+002	1.224042e+001	1.277476e+002	-4.103873e+001	9.281027e+000	-1.391757e+000	-1.773540e+002
335289950	-5.187258e-001	-1.740316e+002	1.219565e+001	1.273151e+002	-4.040424e+001	4.171007e+000	-1.456961e+000	-1.775425e+002
340289800	-5.092552e-001	-1.742719e+002	1.214971e+001	1.268114e+002	-4.091050e+001	3.264099e+000	-1.417494e+000	-1.771221e+002
345289650	-5.067741e-001	-1.743796e+002	1.211107e+001	1.263123e+002	-4.138379e+001	1.553668e+000	-1.390345e+000	-1.775135e+002
350289500	-5.118382e-001	-1.746526e+002	1.204732e+001	1.257798e+002	-4.090555e+001	3.735143e+000	-1.454172e+000	-1.772707e+002
355289350	-5.116359e-001	-1.747574e+002	1.199766e+001	1.253207e+002	-4.084071e+001	1.993434e+000	-1.408935e+000	-1.773661e+002
360289200	-5.045522e-001	-1.748042e+002	1.193690e+001	1.247271e+002	-4.119342e+001	3.520330e+000	-1.451530e+000	-1.775450e+002
365289050	-5.201999e-001	-1.749518e+002	1.187272e+001	1.243587e+002	-4.067876e+001	3.136708e+000	-1.445241e+000	-1.771132e+002
370288900	-5.216759e-001	-1.751246e+002	1.181757e+001	1.238921e+002	-4.083685e+001	5.613335e+000	-1.427547e+000	-1.776713e+002
375288750	-5.258354e-001	-1.753592e+002	1.173620e+001	1.234698e+002	-4.102999e+001	3.264168e+000	-1.500647e+000	-1.774138e+002
380288600	-5.225620e-001	-1.755909e+002	1.167256e+001	1.230564e+002	-4.096145e+001	7.252548e+000	-1.447656e+000	-1.774195e+002
385288450	-5.136367e-001	-1.757130e+002	1.159125e+001	1.226287e+002	-4.072957e+001	4.250728e+000	-1.500861e+000	-1.776888e+002
390288300	-5.213831e-001	-1.757737e+002	1.150725e+001	1.223251e+002	-4.103245e+001	2.253937e+000	-1.487815e+000	-1.774305e+002
395288150	-5.252415e-001	-1.760839e+002	1.142466e+001	1.219477e+002	-4.129153e+001	-9.932314e-001	-1.504498e+000	-1.780024e+002
400288000	-5.388841e-001	-1.761794e+002	1.135360e+001	1.216336e+002	-4.083139e+001	3.598389e+000	-1.552511e+000	-1.778024e+002
405287850	-5.372852e-001	-1.763829e+002	1.126647e+001	1.214216e+002	-4.133829e+001	2.991361e+000	-1.505771e+000	-1.780064e+002
410287700	-5.322838e-001	-1.765606e+002	1.120243e+001	1.211797e+002	-4.117123e+001	4.102395e+000	-1.572674e+000	-1.781920e+002
415287550	-5.468427e-001	-1.768025e+002	1.112353e+001	1.209714e+002	-4.066849e+001	1.216140e+000	-1.542280e+000	-1.779949e+002
420287400	-5.424283e-001	-1.769714e+002	1.106093e+001	1.208593e+002	-4.120274e+001	5.328144e+000	-1.552900e+000	-1.785851e+002
425287250	-5.553781e-001	-1.771439e+002	1.099872e+001	1.207012e+002	-4.087174e+001	-1.089787e+000	-1.613304e+000	-1.783101e+002
430287100	-5.563848e-001	-1.774158e+002	1.092724e+001	1.205687e+002	-4.075964e+001	4.627165e+000	-1.535806e+000	-1.784008e+002
435286950	-5.639662e-001	-1.775963e+002	1.088140e+001	1.205044e+002	-4.030942e+001	4.379921e+000	-1.614764e+000	-1.788264e+002
440286800	-5.763561e-001	-1.778460e+002	1.081288e+001	1.202636e+002	-4.075683e+001	4.165685e+000	-1.598998e+000	-1.784635e+002
445286650	-5.949979e-001	-1.780519e+002	1.076178e+001	1.202199e+002	-4.055076e+001	4.258681e+000	-1.587665e+000	-1.787126e+002
450286500	-5.910282e-001	-1.781909e+002	1.072364e+001	1.201094e+002	-4.064831e+001	2.690623e+000	-1.660890e+000	-1.787725e+002
455286350	-6.008844e-001	-1.784355e+002	1.067225e+001	1.198988e+002	-4.035428e+001	5.367111e+000	-1.615937e+000	-1.787018e+002
460286200	-6.089901e-001	-1.785802e+002	1.065093e+001	1.199048e+002	-4.036617e+001	4.969575e+000	-1.664543e+000	-1.790467e+002
465286050	-5.988230e-001	-1.788125e+002	1.061594e+001	1.196530e+002	-4.110691e+001	1.167769e+000	-1.654389e+000	-1.786710e+002
470285900	-6.049005e-001	-1.789950e+002	1.058176e+001	1.195267e+002	-4.105715e+001	4.428045e+000	-1.630506e+000	-1.789975e+002
475285750	-5.996403e-001	-1.791752e+002	1.057106e+001	1.192430e+002	-4.053158e+001	3.583505e+000	-1.685237e+000	-1.788931e+002
480285600	-6.081348e-001	-1.793495e+002	1.052739e+001	1.190624e+002	-4.027548e+001	4.485254e+000	-1.626819e+000	-1.786789e+002
485285450	-6.088383e-001	-1.794725e+002	1.051058e+001	1.188868e+002	-4.119628e+001	2.961754e+000	-1.655811e+000	-1.789830e+002
490285300	-6.002064e-001	-1.796222e+002	1.048631e+001	1.184901e+002	-4.068700e+001	5.477467e+000	-1.658578e+000	-1.785226e+002
495285150	-6.080671e-001	-1.797543e+002	1.045342e+001	1.183405e+002	-4.079761e+001	2.648579e+000	-1.620910e+000	-1.787130e+002
500285000	-5.960739e-001	-1.798687e+002	1.042875e+001	1.179487e+002	-4.059475e+001	3.602521e+000	-1.661473e+000	-1.786067e+002
505284850	-5.929618e-001	-1.799491e+002	1.038653e+001	1.176635e+002	-4.091139e+001	-4.549363e-001	-1.615797e+000	-1.782420e+002
510284700	-6.007320e-001	1.798932e+002	1.036172e+001	1.173499e+002	-4.035934e+001	5.157149e+000	-1.618561e+000	-1.785904e+002
515284550	-5.912678e-001	1.797675e+002	1.032403e+001	1.168874e+002	-4.044989e+001	3.839701e+000	-1.631867e+000	-1.780644e+002
520284400	-5.776737e-001	1.797156e+002	1.028048e+001	1.166519e+002	-4.069925e+001	3.931266e+000	-1.567617e+000	-1.780725e+002
525284250	-5.623796e-001	1.796227e+002	1.025398e+001	1.162167e+002	-4.105285e+001	2.433799e+000	-1.641928e+000	-1.779755e+002
530284100	-5.726801e-001	1.796062e+002	1.019121e+001	1.159413e+002	-4.051516e+001	4.665206e+000	-1.555530e+000	-1.775043e+002
535283950	-5.672867e-001	1.794585e+002	1.015310e+001	1.156043e+002	-4.105200e+001	3.414656e+000	-1.587477e+000	-1.778101e+002
540283800	-5.469597e-001	1.794629e+002	1.010373e+001	1.153046e+002	-3.984454e+001	1.557385e+000	-1.600306e+000	-1.773125e+002
545283650	-5.436348e-001	1.793260e+002	1.004857e+001	1.150116e+002	-4.028818e+001	9.614236e-001	-1.540845e+000	-1.772762e+002
550283500	-5.397816e-001	1.793089e+002	9.999849e+000	1.146228e+002	-4.081933e+001	2.598803e+000	-1.603485e+000	-1.773773e+002
555283350	-5.257879e-001	1.793131e+002	9.953980e+000	1.145316e+002	-4.045250e+001	4.792360e-001	-1.542793e+000	-1.768689e+002
560283200	-5.216303e-001	1.791862e+002	9.909817e+000	1.140707e+002	-4.051717e+001	-5.085482e-001	-1.566339e+000	-1.771258e+002
565283050	-5.200383e-001	1.791356e+002	9.848533e+000	1.139309e+002	-4.106234e+001	3.213497e+000	-1.584234e+000	-1.765568e+002
570282900	-5.248404e-001	1.790624e+002	9.811427e+000	1.136464e+002	-4.042051e+001	1.443181e+000	-1.523599e+000	-1.768836e+002
575282750	-5.275033e-001	1.790518e+002	9.745823e+000	1.133867e+002	-4.152538e+001	1.170444e+000	-1.575784e+000	-1.764782e+002
580282600	-5.223880e-001	1.789892e+002	9.709245e+000	1.131889e+002	-4.079059e+001	2.058218e+000	-1.522170e+000	-1.764710e+002
585282450	-5.159978e-001	1.789014e+002	9.657681e+000	1.129336e+002	-4.056754e+001	3.444727e+000	-1.568853e+000	-1.765442e+002
590282300	-5.160216e-001	1.788173e+002	9.605518e+000	1.127589e+002	-4.108540e+001	2.514626e+000	-1.528162e+000	-1.762139e+002
595282150	-5.278217e-001	1.787643e+002	9.564987e+000	1.125220e+002	-4.061858e+001	3.427477e+000	-1.549548e+000	-1.765078e+002
600282000	-5.328350e-001	1.786733e+002	9.504530e+000	1.122986e+002	-4.124421e+001	8.430208e-001	-1.560964e+000	-1.762220e+002
605281850	-5.330537e-001	1.785651e+002	9.467488e+000	1.120742e+002	-4.053161e+001	3.591381e+000	-1.534088e+000	-1.764833e+002
610281700	-5.379021e-001	1.785036e+002	9.418349e+000	1.118633e+002	-4.045646e+001	3.721304e+000	-1.574987e+000	-1.764767e+002
615281550	-5.454627e-001	1.784120e+002	9.375419e+000	1.117595e+002	-4.056920e+001	2.228878e+000	-1.536697e+000	-1.764099e+002
620281400	-5.534179e-001	1.782982e+002	9.323927e+000	1.114882e+002	-4.130088e+001	1.816028e-001	-1.586171e+000	-1.767285e+002
625281250	-5.724428e-001	1.781206e+002	9.270248e+000	1.113763e+002	-4.059711e+001	4.670994e+000	-1.559839e+000	-1.763712e+002
630281100	-5.729632e-001	1.780895e+002	9.238379e+000	1.112224e+002	-4.066707e+001	4.407449e+000	-1.549029e+000	-1.768988e+002
635280950	-5.779992e-001	1.779354e+002	9.189253e+000	1.110979e+002	-4.103743e+001	3.229304e-001	-1.598545e+000	-1.765404e+002
640280800	-5.828958e-001	1.777948e+002	9.169983e+000	1.109889e+002	-4.058028e+001	2.600231e+000	-1.545419e+000	-1.768829e+002
645280650	-5.925700e-001	1.776339e+002	9.112384e+000	1.108016e+002	-4.131171e+001	6.952347e+000	-1.587183e+000	-1.771172e+002
650280500	-6.003119e-001	1.776150e+002	9.091684e+000	1.108475e+002	-4.069219e+001	1.973074e+000	-1.559830e+000	-1.770090e+002
655280350	-6.081274e-001	1.773822e+002	9.062169e+000	1.104933e+002	-4.144396e+001	2.464442e+000	-1.585064e+000	-1.773754e+002
660280200	-6.249856e-001	1.772857e+002	9.017293e+000	1.104390e+002	-4.089892e+001	3.101534e+000	-1.584804e+000	-1.769594e+002
665280050	-6.243741e-001	1.771040e+002	9.008028e+000	1.102472e+002	-4.105587e+001	1.438178e+000	-1.571251e+000	-1.774430e+002
670279900	-6.356329e-001	1.769970e+002	8.975363e+000	1.100326e+002	-4.126066e+001	-2.038674e+000	-1.620221e+000	-1.771491e+002
675279750	-6.396479e-001	1.768065e+002	8.965859e+000	1.098238e+002	-4.059054e+001	5.052457e-001	-1.564162e+000	-1.773505e+002
680279600	-6.433677e-001	1.767520e+002	8.932707e+000	1.096310e+002	-4.080793e+001	5.930446e-001	-1.629732e+000	-1.773436e+002
685279450	-6.416986e-001	1.765671e+002	8.910263e+000	1.094539e+002	-4.029037e+001	1.701027e+000	-1.570547e+000	-1.772903e+002
690279300	-6.389168e-001	1.764433e+002	8.900565e+000	1.092047e+002	-4.063889e+001	2.951317e-001	-1.622029e+000	-1.774859e+002
695279150	-6.388589e-001	1.763478e+002	8.863030e+000	1.090082e+002	-4.088661e+001	-1.313127e-001	-1.586005e+000	-1.771629e+002
700279000	-6.396978e-001	1.763307e+002	8.852865e+000	1.087315e+002	-4.046815e+001	2.439962e+000	-1.593641e+000	-1.774700e+002
705278850	-6.339753e-001	1.761110e+002	8.814628e+000	1.083669e+002	-4.040020e+001	6.956265e+000	-1.605664e+000	-1.769684e+002
710278700	-6.286519e-001	1.761023e+002	8.798184e+000	1.081324e+002	-4.089922e+001	1.161778e+000	-1.551157e+000	-1.772997e+002
715278550	-6.308936e-001	1.759781e+002	8.751189e+000	1.077274e+002	-4.013924e+001	1.707178e+000	-1.613729e+000	-1.769966e+002
720278400	-6.141329e-001	1.758693e+002	8.719472e+000	1.075059e+002	-4.015711e+001	3.665274e+000	-1.540812e+000	-1.768620e+002
725278250	-6.100728e-001	1.758194e+002	8.680701e+000	1.070901e+002	-4.068772e+001	-1.974434e-001	-1.584535e+000	-1.769531e+002
730278100	-6.030942e-001	1.757536e+002	8.631885e+000	1.068416e+002	-4.077440e+001	5.013465e+000	-1.547021e+000	-1.765570e+002
735277950	-6.008243e-001	1.757409e+002	8.591894e+000	1.066170e+002	-4.074778e+001	-1.079505e+000	-1.548208e+000	-1.767572e+002
740277800	-5.951668e-001	1.756232e+002	8.529427e+000	1.062579e+002	-4.125870e+001	1.942371e-001	-1.559779e+000	-1.762740e+002
745277650	-5.843782e-001	1.755820e+002	8.498905e+000	1.062073e+002	-4.114295e+001	2.580810e+000	-1.534950e+000	-1.764015e+002
750277500	-5.798230e-001	1.755280e+002	8.439799e+000	1.058609e+002	-4.055085e+001	-9.700931e-002	-1.559852e+000	-1.759721e+002
755277350	-5.616989e-001	1.755753e+002	8.385678e+000	1.057961e+002	-3.999402e+001	-1.931498e-001	-1.512602e+000	-1.758574e+002
760277200	-5.665985e-001	1.753982e+002	8.349024e+000	1.054879e+002	-4.060733e+001	4.564767e+000	-1.550185e+000	-1.758089e+002
