! created by azisi at Mon Sep 28 15:06:25 EEST 2020
! generated using vna/J Version 3.4.3
# Hz S DB R 50.0
300000000 -1.18011308 122.91212215 -18.46200464 10.28214230 -42.94365005 -88.19992764 -2.22237612 111.89448173 
300296149 -1.19466825 122.79403341 -18.44596251 9.79708774 -43.35074052 -92.17492596 -2.23035564 111.70813516 
300592298 -1.20549566 122.62088040 -18.37299943 9.28984631 -42.45121031 -90.21977557 -2.23666189 111.55686336 
300888447 -1.21774028 122.55526250 -18.32301238 8.96506789 -43.11454983 -94.66991921 -2.24958353 111.39593284 
301184596 -1.23572299 122.34579378 -18.26260870 8.65178456 -42.16460957 -94.16213091 -2.27153838 111.26601384 
301480745 -1.24210848 122.21686435 -18.25354159 8.29349215 -42.55930569 -93.21632154 -2.27070589 111.21736493 
301776894 -1.25233344 122.07165579 -18.21033536 7.88712589 -42.83344532 -93.00499120 -2.27168770 111.09367113 
302073043 -1.24062222 121.95889972 -18.13693572 7.70151942 -42.55968707 -94.92461459 -2.28350055 110.89275507 
302369192 -1.24816344 121.83789339 -18.12115316 7.15610574 -42.86437179 -93.57508964 -2.28703076 110.84428113 
302665341 -1.26834479 121.64279380 -18.06767087 6.88991319 -42.24652288 -91.02953915 -2.29017382 110.65871963 
302961490 -1.27557477 121.57535813 -18.04499217 6.57410569 -42.61998341 -96.81022542 -2.30092092 110.54359179 
303257639 -1.29250322 121.39144180 -17.99921983 6.15411775 -42.68872672 -93.26135133 -2.30342950 110.46218941 
303553788 -1.29575732 121.24295967 -17.95811856 5.99651645 -42.32805189 -94.82581899 -2.31865725 110.25193029 
303849937 -1.31712209 121.12268499 -17.89498286 5.49757802 -42.41314901 -97.33647099 -2.32296083 110.15669949 
304146086 -1.32373573 121.04894046 -17.88512002 5.27197824 -42.60288562 -95.04041420 -2.34752959 110.02572361 
304442235 -1.33626958 120.85743828 -17.85497159 5.05665304 -42.41026802 -96.08121292 -2.35276469 109.91610465 
304738384 -1.33686112 120.71775339 -17.78675608 4.69841952 -42.46648966 -94.53901737 -2.35484509 109.68381791 
305034533 -1.33879824 120.64818582 -17.79803174 4.35192471 -42.72097786 -95.35707900 -2.35746354 109.59138705 
305330682 -1.34851856 120.49446076 -17.72938508 3.92588471 -42.32121893 -94.83146917 -2.35302438 109.49813535 
305626831 -1.35753926 120.34189592 -17.70039407 3.87995455 -42.19307728 -97.58610426 -2.36777939 109.33329049 
305922980 -1.36921505 120.21992285 -17.69105337 3.43533952 -42.41274746 -97.09611015 -2.36671542 109.17479140 
306219129 -1.37782760 120.10044996 -17.63528618 3.27490986 -41.99627494 -95.54959234 -2.38729822 109.03909127 
306515278 -1.39114986 119.95172410 -17.65227930 2.85643670 -42.25446049 -96.84241937 -2.40279374 108.88757819 
306811427 -1.40497009 119.87514896 -17.56683108 2.67919249 -42.20966644 -99.34656135 -2.40653948 108.68286078 
307107576 -1.41399896 119.69154629 -17.56082412 2.45581565 -42.68994974 -97.03873962 -2.42505928 108.48783020 
307403725 -1.41709947 119.59012572 -17.53656586 2.28497274 -42.04130609 -100.22274649 -2.42874120 108.42815027 
307699874 -1.42350125 119.40950389 -17.51866192 1.93165245 -41.85329035 -99.89492321 -2.42398431 108.19991340 
307996023 -1.41828892 119.21439438 -17.49196500 1.80108527 -42.67354811 -100.00952990 -2.42773123 107.96330127 
308292172 -1.42095754 119.13118653 -17.46370949 1.57942051 -42.39635234 -100.27382105 -2.43839886 107.75981412 
308588321 -1.42260751 119.00635711 -17.43671824 1.31249617 -41.95077534 -100.10518584 -2.43786570 107.61139641 
308884470 -1.43584966 118.88531181 -17.39650832 1.12175154 -42.00380940 -100.29529141 -2.43853844 107.40457846 
309180619 -1.43890088 118.71345586 -17.38897735 0.81451493 -41.57321699 -101.75161508 -2.45422243 107.22301318 
309476768 -1.43519032 118.56347576 -17.36051238 0.80779556 -42.08713789 -100.68351672 -2.46218707 107.01443332 
309772917 -1.44538478 118.40515419 -17.32807404 0.59369341 -41.64112286 -100.08010514 -2.47169932 106.73318460 
310069066 -1.45187553 118.29153056 -17.31281346 0.39591264 -41.58871409 -98.61605816 -2.49619205 106.64751565 
310365215 -1.45503046 118.15020283 -17.29067692 0.42903361 -41.60379597 -98.58759568 -2.50171912 106.42030978 
310661364 -1.44411840 117.96082608 -17.23474761 0.07645748 -42.06641228 -101.72200304 -2.50194826 106.20305452 
310957513 -1.45494293 117.83481067 -17.26066753 0.08996331 -41.50574607 -101.62707176 -2.52780420 105.97115316 
311253662 -1.45970441 117.62315842 -17.18640686 -0.05657012 -41.26344491 -100.85922713 -2.53172282 105.76803379 
311549811 -1.46141641 117.52010775 -17.15675779 0.17612142 -41.57904437 -102.88263630 -2.55859028 105.52362669 
311845960 -1.46658695 117.30453800 -17.12429919 0.06658461 -41.39448251 -102.26960915 -2.57184622 105.33535041 
312142109 -1.46447798 117.19895210 -17.06504287 0.04543824 -41.37525342 -106.29472267 -2.59266920 105.05055136 
312438258 -1.48150474 116.98791182 -17.03460452 0.04416834 -41.23103105 -103.26945950 -2.60683565 104.90522872 
312734407 -1.48572051 116.81563590 -16.98644427 -0.00943779 -41.67220871 -102.21306120 -2.63200660 104.58906209 
313030556 -1.49164096 116.58417644 -16.92822779 0.00586418 -41.16697937 -102.71876848 -2.65718681 104.44459103 
313326705 -1.49454079 116.43831138 -16.88691860 0.14974033 -40.80203285 -106.09225778 -2.68273147 104.12265527 
313622854 -1.49940809 116.22888922 -16.81500940 -0.12020226 -41.05323150 -105.65746271 -2.71206254 103.95914146 
313919003 -1.49847548 116.03682796 -16.75480763 -0.10119846 -40.45262252 -105.33590157 -2.72914382 103.78610169 
314215152 -1.49942092 115.90031529 -16.69357162 0.03655509 -40.71253169 -105.35047283 -2.75382113 103.53709809 
314511301 -1.50645405 115.63365467 -16.61424064 -0.10870112 -40.18861925 -104.33236532 -2.76758728 103.33579101 
314807450 -1.50444639 115.46093549 -16.52646690 -0.20982387 -40.30173318 -104.00511028 -2.80491303 103.15962153 
315103599 -1.51053497 115.26958135 -16.46535179 -0.23255866 -40.40018859 -103.25186548 -2.84556203 102.90873503 
315399748 -1.52148435 115.03511215 -16.36642986 -0.15212907 -40.39310445 -105.13347766 -2.86948183 102.82424948 
315695897 -1.52047318 114.82199583 -16.30716964 -0.21903929 -40.16685962 -106.15309715 -2.91051167 102.50955372 
315992046 -1.53014475 114.60351466 -16.20643405 -0.33902994 -39.94558614 -106.46569427 -2.94141156 102.40737771 
316288195 -1.54693323 114.37176550 -16.12731579 -0.32164657 -40.18969637 -109.37681401 -2.97766074 102.22621920 
316584344 -1.54924150 114.15880745 -16.02758078 -0.64203885 -39.76571772 -110.62141021 -3.01798639 102.02193961 
316880493 -1.55894629 113.85207092 -15.92870629 -0.75361972 -39.46841461 -107.60236614 -3.04773070 101.85375276 
317176642 -1.55456690 113.67031462 -15.84036641 -0.82225552 -39.61520022 -108.40826030 -3.07624412 101.77049022 
317472791 -1.58199313 113.44259584 -15.74107782 -1.12723584 -39.56018026 -110.19433847 -3.12158597 101.48587679 
317768940 -1.58565674 113.18752022 -15.63412853 -1.41388821 -39.51842343 -109.32128246 -3.16211828 101.32071846 
318065089 -1.59423793 112.96709968 -15.55388988 -1.69414807 -39.22491486 -113.33772223 -3.20235662 101.36355492 
318361238 -1.60943848 112.76780612 -15.45011711 -1.92769986 -38.89710010 -112.66696056 -3.23854240 101.18631122 
318657387 -1.63176547 112.53616466 -15.35188165 -2.12527138 -39.25490468 -110.98698091 -3.28753549 101.00957705 
318953536 -1.64152764 112.26989836 -15.24218859 -2.46176860 -38.74959712 -110.08519998 -3.32221841 100.87221084 
319249685 -1.65261447 111.98945155 -15.16189087 -2.83016423 -38.96911021 -114.17307903 -3.36486671 100.83363883 
319545834 -1.68397889 111.75393741 -15.05684494 -3.10869341 -38.45924028 -114.86981314 -3.40509198 100.64604611 
319841983 -1.68946134 111.58849867 -14.96074240 -3.39639277 -38.39226346 -113.24139308 -3.44104134 100.61823346 
320138132 -1.71669072 111.38959349 -14.87201747 -3.86966464 -38.17758805 -115.29645997 -3.48690493 100.61316889 
320434281 -1.72749289 111.15356772 -14.77909622 -4.30676783 -38.05471826 -116.06751065 -3.51966430 100.48981915 
320730430 -1.75172309 110.94802030 -14.69986884 -4.67644761 -38.18273661 -115.39182089 -3.56921147 100.45727982 
321026579 -1.77687266 110.70970719 -14.62304443 -5.05907449 -38.11556845 -115.72947408 -3.61389467 100.45245815 
321322728 -1.80306615 110.60692754 -14.51544926 -5.51306342 -37.85112002 -118.03850274 -3.66229275 100.42644843 
321618877 -1.83123958 110.39014339 -14.43070789 -5.94518372 -38.05953540 -117.69052601 -3.70155343 100.49037205 
321915026 -1.85286268 110.16510313 -14.36205063 -6.40290024 -37.81334550 -118.92454579 -3.74429267 100.38581609 
322211175 -1.89557755 109.96433376 -14.28768857 -6.84852579 -37.47415444 -119.89124565 -3.78912691 100.32672787 
322507324 -1.89966133 109.71005929 -14.17520148 -7.34199454 -37.42144899 -119.49800070 -3.82166010 100.32012680 
322803473 -1.91783086 109.47476378 -14.09877729 -7.74588305 -37.64996891 -120.79018748 -3.84806641 100.31939215 
323099622 -1.94943560 109.28412498 -14.02085693 -8.25976336 -37.30434809 -120.26390402 -3.90241027 100.35084389 
323395771 -1.98075405 109.12702516 -13.94996634 -8.80467282 -37.22075917 -121.12720641 -3.94124322 100.37672215 
323691920 -2.00080309 108.94577629 -13.87901824 -9.22336008 -37.16374862 -122.96923025 -3.96170845 100.29919081 
323988069 -2.02004828 108.68926730 -13.79000041 -9.76744188 -37.08297218 -123.30463259 -4.00787116 100.25068197 
324284218 -2.04848759 108.52571840 -13.71480170 -10.16956533 -36.96652736 -122.97641497 -4.04989914 100.26728683 
324580367 -2.08652340 108.29320945 -13.66029422 -10.69660209 -36.63397936 -123.40125111 -4.08667512 100.26675524 
324876516 -2.10869261 108.16956370 -13.57598925 -11.14250210 -36.57220437 -125.36561849 -4.12748593 100.32189291 
325172665 -2.13496360 107.94680075 -13.53781422 -11.76451789 -36.68143877 -125.88844372 -4.17543251 100.30443013 
325468814 -2.16862691 107.79582092 -13.45698860 -12.23042188 -36.51834519 -126.60638331 -4.20481663 100.33294993 
325764963 -2.19373095 107.64456077 -13.37263761 -12.81738292 -36.41222793 -128.54603744 -4.23760200 100.30960599 
326061112 -2.22038964 107.42826639 -13.31025857 -13.28141163 -36.32538003 -128.29215104 -4.26899144 100.41944562 
326357261 -2.25696913 107.17242078 -13.25554364 -13.88246811 -36.27649497 -128.00321081 -4.30814542 100.39137237 
326653410 -2.28352695 107.05887629 -13.17366505 -14.38861528 -36.33007677 -128.25068047 -4.35020199 100.50267848 
326949559 -2.31381746 106.93979740 -13.12995127 -14.89590731 -36.38782656 -131.26773116 -4.39677669 100.60480921 
327245708 -2.34864935 106.73745969 -13.05965145 -15.44612414 -36.09922799 -129.84361083 -4.42443736 100.48859614 
327541857 -2.38425512 106.54194460 -13.00567584 -15.98769349 -36.21954394 -131.86210487 -4.45828224 100.53930558 
327838006 -2.42566425 106.46418810 -12.93228659 -16.50751941 -36.04352798 -130.94879203 -4.50673543 100.67483235 
328134155 -2.46247421 106.27852932 -12.87846418 -17.01727655 -35.84824743 -132.34352711 -4.54704571 100.69719458 
328430304 -2.49684696 106.09616513 -12.82370998 -17.58419745 -35.66218857 -134.03486272 -4.58622750 100.70681386 
328726453 -2.52001137 105.92209208 -12.76944982 -18.21925425 -35.59308870 -133.56824125 -4.60804789 100.77388509 
329022602 -2.54449052 105.75342853 -12.67887002 -18.68969873 -35.67314872 -134.02266925 -4.63532682 100.80694810 
329318751 -2.58134289 105.56538421 -12.63322056 -19.24187067 -35.45606907 -134.58120099 -4.66850299 100.78722194 
329614900 -2.60713099 105.35989230 -12.55368178 -19.77154060 -35.47543213 -134.68487688 -4.69287331 100.80623929 
329911049 -2.64163503 105.20161685 -12.50114123 -20.23246182 -35.41865749 -134.11151420 -4.72303577 100.88584741 
330207198 -2.67511494 105.08252954 -12.44201384 -20.71889243 -35.44263070 -135.84463581 -4.77056455 100.86818994 
330503347 -2.71799279 104.80976464 -12.38376854 -21.36553517 -35.36078290 -137.73915743 -4.78497266 100.93455495 
330799496 -2.74930741 104.60292027 -12.33385285 -21.88245212 -35.37045876 -135.67914716 -4.82603235 101.08101637 
331095645 -2.77860110 104.52155551 -12.27004669 -22.51666498 -35.37603030 -135.30454818 -4.85918864 100.96205204 
331391794 -2.82978200 104.34700485 -12.23453837 -22.96959960 -35.24801993 -136.27517391 -4.87640115 101.00767501 
331687943 -2.85943853 104.11926709 -12.15462919 -23.43718807 -35.24391468 -138.68211410 -4.91585373 101.01538658 
331984092 -2.88979233 104.07179985 -12.10505524 -24.07355798 -34.98431158 -138.46157960 -4.94461721 101.10937918 
332280241 -2.92724425 103.91878869 -12.04268832 -24.48371060 -35.19100534 -138.90730491 -4.96585541 101.18566255 
332576390 -2.96210498 103.74604851 -12.01732576 -25.19508860 -35.05271906 -140.48168761 -5.00129633 101.28129088 
332872539 -3.00709517 103.61880539 -11.94789083 -25.71235237 -34.91791318 -140.73652957 -5.03347998 101.33078470 
333168688 -3.04727675 103.41473473 -11.91255326 -26.25688942 -34.86262514 -141.23641904 -5.06643122 101.45283750 
333464837 -3.08181195 103.33578087 -11.85650528 -26.77410851 -35.03944249 -140.84442293 -5.09758127 101.54226292 
333760986 -3.13199729 103.18127091 -11.79681986 -27.22906220 -34.94345025 -142.39867356 -5.11961085 101.61315083 
334057135 -3.17744129 102.94651963 -11.74848519 -27.85755274 -34.78191116 -142.89278534 -5.16788176 101.66447868 
334353284 -3.21975918 102.86738390 -11.70084337 -28.41864935 -34.68193058 -144.05016332 -5.20286389 101.78220761 
334649433 -3.25235606 102.75616602 -11.64757756 -28.93536007 -34.69469917 -144.92614233 -5.23339261 101.80182899 
334945582 -3.28819796 102.56975549 -11.60662465 -29.50525584 -34.59914566 -145.63509760 -5.25227944 101.85866978 
335241731 -3.33424215 102.35746853 -11.55088304 -30.00348455 -34.48130184 -145.59273167 -5.28266469 101.88348156 
335537880 -3.37722164 102.29286116 -11.48624590 -30.67992225 -34.41676655 -147.68912971 -5.29898733 102.03472051 
335834029 -3.42355756 102.08247216 -11.45391418 -31.17436038 -34.60134204 -145.64146419 -5.32694368 102.05214860 
336130178 -3.45992342 101.93834485 -11.39675315 -31.62224575 -34.30407506 -147.54626102 -5.36347622 102.18337083 
336426327 -3.50577753 101.75601805 -11.34963460 -32.26441021 -34.28228357 -148.46656312 -5.39934641 102.25543089 
336722476 -3.55090248 101.65516110 -11.30885597 -32.82935809 -34.41461770 -148.84252629 -5.41812739 102.29449432 
337018625 -3.60950976 101.40978945 -11.25607682 -33.27182126 -34.06357990 -149.20116707 -5.45763317 102.35182184 
337314774 -3.66510230 101.33703931 -11.20979443 -33.81949131 -34.07938363 -149.28963277 -5.48184418 102.38873423 
337610923 -3.67960623 101.14044640 -11.15433962 -34.37776134 -34.13611808 -148.95472438 -5.50452643 102.46627481 
337907072 -3.73245192 100.93608467 -11.10519182 -34.88529528 -34.04782719 -150.90260719 -5.53440146 102.49937663 
338203221 -3.77447392 100.80855592 -11.05113881 -35.41032328 -34.07722580 -151.73675993 -5.54576865 102.57276025 
338499370 -3.81693864 100.66163364 -11.00422339 -35.85899033 -33.76957460 -151.55746440 -5.57535393 102.70009428 
338795519 -3.86093996 100.57351102 -10.95635178 -36.50842318 -33.82927322 -151.63264433 -5.59720103 102.82629865 
339091668 -3.91178615 100.40843349 -10.91348351 -37.00312570 -33.72035101 -153.51178465 -5.62564604 102.89595546 
339387817 -3.96571644 100.28152278 -10.86588960 -37.55091404 -33.74980304 -154.22712339 -5.63807674 102.82714056 
339683966 -4.00205911 100.10774538 -10.81407633 -38.11320674 -33.68298285 -154.37786329 -5.67134595 103.02976180 
339980115 -4.06882854 99.99794748 -10.77477785 -38.64898831 -33.83594758 -153.31802482 -5.69227367 103.09270626 
340276264 -4.12915967 99.83627200 -10.72440881 -39.18471259 -33.65894192 -154.85074239 -5.72171180 103.12241631 
340572413 -4.16743582 99.58825570 -10.68519476 -39.72608880 -33.57810774 -154.84448595 -5.75330235 103.14306725 
340868562 -4.20278829 99.56103001 -10.62642806 -40.25008260 -33.81376460 -155.09772963 -5.75691275 103.35520584 
341164711 -4.25135901 99.31771436 -10.57969451 -40.80164796 -33.43386490 -155.50650650 -5.78768447 103.25937640 
341460860 -4.30450712 99.19815987 -10.54307290 -41.37141331 -33.43972362 -157.06714278 -5.80630279 103.36868596 
341757009 -4.35891030 98.97636448 -10.48012043 -41.79018114 -33.42223724 -157.96221477 -5.83324816 103.53704092 
342053158 -4.40999505 98.85474303 -10.44329053 -42.35921554 -33.24396295 -158.58331418 -5.87330853 103.59442628 
342349307 -4.46763463 98.66380390 -10.39942769 -42.86386837 -33.37860052 -157.62566140 -5.88793489 103.59322764 
342645456 -4.52810722 98.59611839 -10.35750012 -43.37969811 -33.13491448 -158.71149364 -5.91010559 103.65523877 
342941605 -4.59398949 98.39269348 -10.30580793 -43.89803935 -33.19086785 -159.36511312 -5.93251456 103.79457456 
343237754 -4.63161761 98.22619692 -10.26963310 -44.42547797 -33.13317870 -160.90621750 -5.95133384 103.83030523 
343533903 -4.68950415 98.04718990 -10.22966909 -44.97245380 -33.08876256 -160.04397075 -5.96019419 103.85853717 
343830052 -4.73081301 97.85315710 -10.17642672 -45.46761274 -33.28746850 -161.16010671 -5.97914548 103.87337796 
344126201 -4.79319525 97.73930485 -10.12537362 -46.04994461 -33.19325366 -162.21080672 -5.98513042 103.89391654 
344422350 -4.84361778 97.51301957 -10.06949421 -46.41445257 -33.19823788 -161.11431609 -6.01144474 103.93659755 
344718499 -4.89156333 97.38381903 -10.03676827 -46.95797305 -33.25695229 -161.31581680 -6.02037363 104.00314260 
345014648 -4.96453760 97.18829460 -9.98304538 -47.45549558 -33.14224444 -163.71105671 -6.04535073 104.09638792 
345310797 -5.01126917 97.03535805 -9.95117191 -47.98177246 -33.19996378 -162.85729735 -6.04960224 104.18736244 
345606946 -5.06685458 96.96125188 -9.91005575 -48.44516485 -33.09715009 -163.07911803 -6.05829920 104.18721788 
345903095 -5.11829684 96.77610358 -9.86136455 -48.98329094 -33.20783434 -162.43474702 -6.07944177 104.18197367 
346199244 -5.19194666 96.49904156 -9.83823134 -49.42960062 -33.22775781 -163.22961083 -6.09655011 104.25927502 
346495393 -5.23674644 96.46098621 -9.76735101 -49.93558130 -33.00395168 -163.94012433 -6.12432129 104.30565342 
346791542 -5.28549216 96.22037137 -9.72586230 -50.43021817 -33.23657101 -165.56769720 -6.14008762 104.37635774 
347087691 -5.35852422 96.13355702 -9.67992736 -50.98299202 -32.93356122 -165.51302109 -6.13784084 104.33625193 
347383840 -5.43081414 95.92632554 -9.62804002 -51.39719271 -33.08501140 -166.04497054 -6.16607907 104.51722229 
347679989 -5.48127551 95.63448930 -9.60355197 -51.99340484 -33.26255148 -165.82361626 -6.17870252 104.42706780 
347976138 -5.53157402 95.43848150 -9.55744581 -52.50639714 -32.94470802 -167.42881123 -6.19175889 104.51381705 
348272287 -5.59800932 95.37775248 -9.51887236 -52.91220992 -33.04152542 -168.34384099 -6.19937330 104.50990082 
348568436 -5.67559930 95.26155293 -9.47454782 -53.44628018 -32.94000529 -166.82705774 -6.22543369 104.55536502 
348864585 -5.73747819 95.04786109 -9.43847844 -53.96908079 -32.92020360 -169.25123331 -6.22772552 104.50642134 
349160734 -5.79594515 94.86370792 -9.39868128 -54.39107142 -32.86234109 -168.73530957 -6.26197391 104.64181738 
349456883 -5.85018491 94.71979980 -9.35917710 -54.82818159 -33.05455575 -169.78607806 -6.26991903 104.58363663 
349753032 -5.91675115 94.56340732 -9.32281832 -55.34256522 -32.82663806 -170.09649137 -6.26642639 104.71165220 
350049181 -5.98510328 94.36093534 -9.26974514 -55.87476711 -32.85756120 -170.03352971 -6.28990983 104.71506194 
350345330 -6.05813539 94.10616425 -9.22174548 -56.32743667 -32.82463261 -170.41496215 -6.30208141 104.65768762 
350641479 -6.13371872 94.01946963 -9.18310765 -56.75978173 -32.75018024 -170.22831550 -6.31465569 104.73425283 
350937628 -6.19859897 93.72837963 -9.15850314 -57.26681875 -32.77907460 -172.04169966 -6.32524081 104.65873775 
351233777 -6.26789986 93.60370917 -9.10941041 -57.77173678 -32.64818279 -171.09706136 -6.35184421 104.81576946 
