!Port1 is connected to pin#1 of device
!Port2 is connected to pin#3 of device
!Port3 is connected to pin#4 of device
!Agilent Technologies,E5071C,MY46103155,A.09.54
!Date: Thu Nov 26 17:36:30 2015
!Data & Calibration Information:
!Freq	S11:SOLT3(ON)	S12:SOLT3(ON)	S13:SOLT3(ON)
!	S21:SOLT3(ON)	S22:SOLT3(ON)	S23:SOLT3(ON)
!	S31:SOLT3(ON)	S32:SOLT3(ON)	S33:SOLT3(ON)
# Hz S dB R 50
500000000	-3.225091e+000	-9.234174e+001	-6.629732e+000	7.086096e+001	-6.924930e+000	-1.113584e+002
	-6.642033e+000	7.082416e+001	-1.941766e+000	6.885253e+001	-1.545844e+001	1.011376e+002
	-6.941740e+000	-1.113801e+002	-1.545555e+001	1.012130e+002	-1.695770e+000	6.137598e+001
505000000	-3.341677e+000	-9.373210e+001	-6.482045e+000	6.972470e+001	-6.811927e+000	-1.126156e+002
	-6.524053e+000	6.966607e+001	-1.989043e+000	6.830798e+001	-1.519220e+001	1.003599e+002
	-6.831556e+000	-1.126737e+002	-1.519914e+001	1.003706e+002	-1.739719e+000	6.055288e+001
510000000	-3.438805e+000	-9.482965e+001	-6.404989e+000	6.858019e+001	-6.710576e+000	-1.137374e+002
	-6.410566e+000	6.857603e+001	-2.054441e+000	6.735255e+001	-1.495576e+001	9.966985e+001
	-6.725514e+000	-1.137544e+002	-1.494931e+001	9.963055e+001	-1.780787e+000	5.975754e+001
515000000	-3.570553e+000	-9.591768e+001	-6.303670e+000	6.738248e+001	-6.606071e+000	-1.149384e+002
	-6.318009e+000	6.740329e+001	-2.097047e+000	6.661154e+001	-1.471015e+001	9.878523e+001
	-6.624086e+000	-1.149481e+002	-1.471271e+001	9.873176e+001	-1.827621e+000	5.897625e+001
520000000	-3.689606e+000	-9.710663e+001	-6.215907e+000	6.630802e+001	-6.496952e+000	-1.162002e+002
	-6.228432e+000	6.629580e+001	-2.135445e+000	6.585305e+001	-1.448970e+001	9.799080e+001
	-6.516135e+000	-1.161641e+002	-1.448781e+001	9.804860e+001	-1.866177e+000	5.826462e+001
525000000	-3.831329e+000	-9.838705e+001	-6.095011e+000	6.501509e+001	-6.393910e+000	-1.173323e+002
	-6.116402e+000	6.507335e+001	-2.175502e+000	6.516756e+001	-1.425278e+001	9.719611e+001
	-6.407240e+000	-1.173139e+002	-1.424719e+001	9.717428e+001	-1.898537e+000	5.765002e+001
530000000	-3.920100e+000	-9.956302e+001	-6.004056e+000	6.411468e+001	-6.295641e+000	-1.184999e+002
	-6.018514e+000	6.406551e+001	-2.241895e+000	6.437690e+001	-1.405098e+001	9.644006e+001
	-6.305614e+000	-1.184011e+002	-1.402410e+001	9.647900e+001	-1.955644e+000	5.682067e+001
535000000	-4.103586e+000	-1.006715e+002	-5.924178e+000	6.273255e+001	-6.211476e+000	-1.196843e+002
	-5.937331e+000	6.277417e+001	-2.217517e+000	6.385299e+001	-1.382689e+001	9.551243e+001
	-6.224141e+000	-1.196666e+002	-1.382166e+001	9.555768e+001	-1.987001e+000	5.611700e+001
540000000	-4.218692e+000	-1.018577e+002	-5.839592e+000	6.167520e+001	-6.123314e+000	-1.207798e+002
	-5.842394e+000	6.169304e+001	-2.294450e+000	6.321267e+001	-1.362781e+001	9.471619e+001
	-6.125975e+000	-1.207634e+002	-1.361818e+001	9.468442e+001	-2.028536e+000	5.543299e+001
545000000	-4.322688e+000	-1.029605e+002	-5.740103e+000	6.083637e+001	-6.031571e+000	-1.219188e+002
	-5.757849e+000	6.081027e+001	-2.347571e+000	6.248112e+001	-1.343763e+001	9.395018e+001
	-6.038342e+000	-1.218173e+002	-1.341066e+001	9.401924e+001	-2.088964e+000	5.482556e+001
550000000	-4.512785e+000	-1.040652e+002	-5.670007e+000	5.962590e+001	-5.948845e+000	-1.230812e+002
	-5.684195e+000	5.953355e+001	-2.353554e+000	6.196160e+001	-1.322798e+001	9.298828e+001
	-5.958741e+000	-1.230923e+002	-1.322392e+001	9.307625e+001	-2.129341e+000	5.416187e+001
555000000	-4.619791e+000	-1.052678e+002	-5.574863e+000	5.851720e+001	-5.866760e+000	-1.242263e+002
	-5.588192e+000	5.850963e+001	-2.446027e+000	6.122725e+001	-1.304760e+001	9.214834e+001
	-5.869779e+000	-1.241580e+002	-1.303510e+001	9.221189e+001	-2.178314e+000	5.348131e+001
560000000	-4.772285e+000	-1.065169e+002	-5.488515e+000	5.744324e+001	-5.795172e+000	-1.253649e+002
	-5.510279e+000	5.740507e+001	-2.465279e+000	6.079697e+001	-1.286809e+001	9.133652e+001
	-5.797259e+000	-1.253596e+002	-1.285516e+001	9.131402e+001	-2.222797e+000	5.287990e+001
565000000	-4.921061e+000	-1.077723e+002	-5.414879e+000	5.630063e+001	-5.707532e+000	-1.264775e+002
	-5.437756e+000	5.624888e+001	-2.524915e+000	6.024921e+001	-1.269173e+001	9.043429e+001
	-5.711154e+000	-1.264922e+002	-1.268281e+001	9.042861e+001	-2.270346e+000	5.228464e+001
570000000	-5.042958e+000	-1.088189e+002	-5.353181e+000	5.525084e+001	-5.631289e+000	-1.275371e+002
	-5.369395e+000	5.523329e+001	-2.597250e+000	5.958342e+001	-1.253652e+001	8.954852e+001
	-5.641933e+000	-1.275133e+002	-1.252181e+001	8.966196e+001	-2.335274e+000	5.170270e+001
575000000	-5.203439e+000	-1.100060e+002	-5.287780e+000	5.417546e+001	-5.564239e+000	-1.286565e+002
	-5.305563e+000	5.411706e+001	-2.637961e+000	5.913624e+001	-1.237621e+001	8.867888e+001
	-5.573029e+000	-1.286728e+002	-1.236581e+001	8.869317e+001	-2.369784e+000	5.102600e+001
580000000	-5.368330e+000	-1.111758e+002	-5.227975e+000	5.306708e+001	-5.493533e+000	-1.297553e+002
	-5.240157e+000	5.304572e+001	-2.692774e+000	5.859328e+001	-1.221614e+001	8.778221e+001
	-5.506277e+000	-1.297929e+002	-1.220882e+001	8.784459e+001	-2.421143e+000	5.042867e+001
585000000	-5.515049e+000	-1.125011e+002	-5.155956e+000	5.197107e+001	-5.428402e+000	-1.308533e+002
	-5.167621e+000	5.194972e+001	-2.769050e+000	5.821194e+001	-1.206329e+001	8.692110e+001
	-5.437644e+000	-1.309196e+002	-1.205318e+001	8.686310e+001	-2.479872e+000	4.985335e+001
590000000	-5.666082e+000	-1.136596e+002	-5.085489e+000	5.095781e+001	-5.357594e+000	-1.319429e+002
	-5.104536e+000	5.091833e+001	-2.822123e+000	5.761396e+001	-1.191444e+001	8.603981e+001
	-5.370309e+000	-1.319881e+002	-1.191252e+001	8.599502e+001	-2.522459e+000	4.927993e+001
595000000	-5.823506e+000	-1.147887e+002	-5.022948e+000	4.989441e+001	-5.293072e+000	-1.330351e+002
	-5.041672e+000	4.989697e+001	-2.881285e+000	5.694135e+001	-1.178051e+001	8.512146e+001
	-5.306042e+000	-1.330114e+002	-1.176054e+001	8.515994e+001	-2.572642e+000	4.873942e+001
600000000	-5.996892e+000	-1.160223e+002	-4.972898e+000	4.887711e+001	-5.235115e+000	-1.340910e+002
	-4.989761e+000	4.884030e+001	-2.918602e+000	5.651884e+001	-1.163846e+001	8.425121e+001
	-5.251094e+000	-1.341250e+002	-1.164350e+001	8.434800e+001	-2.622333e+000	4.814479e+001
605000000	-6.144075e+000	-1.171629e+002	-4.924468e+000	4.785395e+001	-5.173933e+000	-1.351936e+002
	-4.931126e+000	4.780961e+001	-2.981854e+000	5.584003e+001	-1.152426e+001	8.333219e+001
	-5.192229e+000	-1.351563e+002	-1.151842e+001	8.344325e+001	-2.668408e+000	4.764464e+001
610000000	-6.308047e+000	-1.183545e+002	-4.869046e+000	4.684757e+001	-5.109377e+000	-1.362336e+002
	-4.875606e+000	4.680286e+001	-3.033472e+000	5.532076e+001	-1.138592e+001	8.250370e+001
	-5.125596e+000	-1.361592e+002	-1.138299e+001	8.262868e+001	-2.723093e+000	4.712971e+001
615000000	-6.476263e+000	-1.195613e+002	-4.799715e+000	4.578578e+001	-5.054589e+000	-1.373212e+002
	-4.823138e+000	4.584209e+001	-3.082090e+000	5.495070e+001	-1.126580e+001	8.171131e+001
	-5.069927e+000	-1.372469e+002	-1.125287e+001	8.182824e+001	-2.770562e+000	4.664517e+001
620000000	-6.655989e+000	-1.208540e+002	-4.737442e+000	4.486735e+001	-5.001705e+000	-1.382935e+002
	-4.770448e+000	4.485213e+001	-3.136727e+000	5.456566e+001	-1.114122e+001	8.094040e+001
	-5.015329e+000	-1.382788e+002	-1.113769e+001	8.091948e+001	-2.818964e+000	4.610575e+001
625000000	-6.845194e+000	-1.219495e+002	-4.711378e+000	4.377451e+001	-4.949649e+000	-1.393646e+002
	-4.728739e+000	4.382958e+001	-3.168915e+000	5.402998e+001	-1.102703e+001	8.002953e+001
	-4.966141e+000	-1.393264e+002	-1.101727e+001	8.009569e+001	-2.862937e+000	4.560554e+001
630000000	-7.013860e+000	-1.230883e+002	-4.681553e+000	4.284639e+001	-4.903787e+000	-1.403703e+002
	-4.690003e+000	4.280205e+001	-3.205371e+000	5.359396e+001	-1.092095e+001	7.918531e+001
	-4.913109e+000	-1.403370e+002	-1.092238e+001	7.921506e+001	-2.901169e+000	4.518154e+001
635000000	-7.187651e+000	-1.242727e+002	-4.622991e+000	4.186361e+001	-4.851552e+000	-1.413692e+002
	-4.627277e+000	4.186107e+001	-3.243793e+000	5.313218e+001	-1.081215e+001	7.838152e+001
	-4.858154e+000	-1.412920e+002	-1.079601e+001	7.843914e+001	-2.950868e+000	4.468008e+001
640000000	-7.339189e+000	-1.255692e+002	-4.564945e+000	4.098937e+001	-4.807697e+000	-1.423830e+002
	-4.579566e+000	4.090992e+001	-3.305997e+000	5.270931e+001	-1.071074e+001	7.759594e+001
	-4.807039e+000	-1.423394e+002	-1.069050e+001	7.751535e+001	-2.985483e+000	4.419421e+001
645000000	-7.540817e+000	-1.266639e+002	-4.525367e+000	3.982509e+001	-4.766932e+000	-1.433651e+002
	-4.540990e+000	3.982066e+001	-3.310453e+000	5.233555e+001	-1.060648e+001	7.663257e+001
	-4.769617e+000	-1.433497e+002	-1.058942e+001	7.666761e+001	-3.030760e+000	4.375084e+001
650000000	-7.724179e+000	-1.280171e+002	-4.476924e+000	3.892726e+001	-4.723293e+000	-1.443472e+002
	-4.494516e+000	3.886117e+001	-3.350060e+000	5.202808e+001	-1.050646e+001	7.587512e+001
	-4.723821e+000	-1.443233e+002	-1.048915e+001	7.588590e+001	-3.085794e+000	4.333121e+001
655000000	-7.887835e+000	-1.291832e+002	-4.419968e+000	3.793505e+001	-4.672635e+000	-1.453135e+002
	-4.433654e+000	3.796923e+001	-3.411587e+000	5.161845e+001	-1.039712e+001	7.512867e+001
	-4.667954e+000	-1.453200e+002	-1.037697e+001	7.500533e+001	-3.130320e+000	4.293139e+001
660000000	-8.101131e+000	-1.301756e+002	-4.419171e+000	3.706616e+001	-4.641112e+000	-1.462570e+002
	-4.436785e+000	3.704700e+001	-3.434823e+000	5.121800e+001	-1.032243e+001	7.427318e+001
	-4.644197e+000	-1.462509e+002	-1.030432e+001	7.426775e+001	-3.162733e+000	4.252428e+001
665000000	-8.262947e+000	-1.316162e+002	-4.363551e+000	3.609642e+001	-4.596663e+000	-1.472729e+002
	-4.380639e+000	3.608884e+001	-3.512766e+000	5.106660e+001	-1.022617e+001	7.341746e+001
	-4.596627e+000	-1.472639e+002	-1.020978e+001	7.342466e+001	-3.214968e+000	4.210857e+001
670000000	-8.504721e+000	-1.328009e+002	-4.347261e+000	3.514800e+001	-4.564355e+000	-1.481901e+002
	-4.362655e+000	3.516229e+001	-3.538095e+000	5.084135e+001	-1.013068e+001	7.266424e+001
	-4.572796e+000	-1.482334e+002	-1.014196e+001	7.260722e+001	-3.268754e+000	4.181850e+001
675000000	-8.657426e+000	-1.340066e+002	-4.295123e+000	3.427801e+001	-4.526421e+000	-1.491137e+002
	-4.317974e+000	3.425478e+001	-3.591295e+000	5.041926e+001	-1.006088e+001	7.182839e+001
	-4.533945e+000	-1.491333e+002	-1.004475e+001	7.182776e+001	-3.319371e+000	4.139104e+001
680000000	-8.860548e+000	-1.353109e+002	-4.279453e+000	3.331134e+001	-4.485860e+000	-1.500810e+002
	-4.294578e+000	3.331520e+001	-3.645194e+000	5.013393e+001	-9.986103e+000	7.101465e+001
	-4.498406e+000	-1.501153e+002	-9.971449e+000	7.100382e+001	-3.353891e+000	4.110684e+001
685000000	-9.047627e+000	-1.363531e+002	-4.256730e+000	3.244738e+001	-4.453363e+000	-1.510090e+002
	-4.268678e+000	3.243702e+001	-3.675954e+000	4.991073e+001	-9.905061e+000	7.019101e+001
	-4.464131e+000	-1.510173e+002	-9.889644e+000	7.026673e+001	-3.398712e+000	4.067158e+001
690000000	-9.237912e+000	-1.378913e+002	-4.221729e+000	3.159890e+001	-4.425222e+000	-1.519072e+002
	-4.233943e+000	3.154205e+001	-3.741082e+000	4.957318e+001	-9.835852e+000	6.948649e+001
	-4.431957e+000	-1.519441e+002	-9.822916e+000	6.941778e+001	-3.439289e+000	4.034126e+001
695000000	-9.457812e+000	-1.393070e+002	-4.187285e+000	3.068501e+001	-4.391473e+000	-1.528926e+002
	-4.203597e+000	3.063516e+001	-3.783468e+000	4.936862e+001	-9.757590e+000	6.869217e+001
	-4.404515e+000	-1.528717e+002	-9.747518e+000	6.870784e+001	-3.484772e+000	4.004833e+001
700000000	-9.650637e+000	-1.403657e+002	-4.163865e+000	2.981090e+001	-4.359263e+000	-1.537772e+002
	-4.180597e+000	2.980479e+001	-3.814781e+000	4.894809e+001	-9.685616e+000	6.786103e+001
	-4.381121e+000	-1.537392e+002	-9.698933e+000	6.803089e+001	-3.529717e+000	3.971277e+001
705000000	-9.871124e+000	-1.418451e+002	-4.128783e+000	2.887778e+001	-4.327930e+000	-1.546927e+002
	-4.153680e+000	2.888548e+001	-3.857906e+000	4.862112e+001	-9.627192e+000	6.711333e+001
	-4.343129e+000	-1.546687e+002	-9.624194e+000	6.717306e+001	-3.563641e+000	3.935620e+001
710000000	-1.004766e+001	-1.433057e+002	-4.102707e+000	2.808532e+001	-4.307465e+000	-1.555998e+002
	-4.123067e+000	2.804204e+001	-3.932499e+000	4.834842e+001	-9.567519e+000	6.648257e+001
	-4.313950e+000	-1.555440e+002	-9.560711e+000	6.645511e+001	-3.603092e+000	3.902916e+001
715000000	-1.028101e+001	-1.446522e+002	-4.076358e+000	2.708770e+001	-4.277302e+000	-1.564728e+002
	-4.098572e+000	2.710424e+001	-3.930611e+000	4.807868e+001	-9.490972e+000	6.569193e+001
	-4.291162e+000	-1.564623e+002	-9.511901e+000	6.570812e+001	-3.647036e+000	3.873645e+001
720000000	-1.050098e+001	-1.459810e+002	-4.049543e+000	2.628158e+001	-4.251600e+000	-1.573284e+002
	-4.073377e+000	2.633995e+001	-3.980228e+000	4.776623e+001	-9.439699e+000	6.500205e+001
	-4.259271e+000	-1.572913e+002	-9.425237e+000	6.502734e+001	-3.684397e+000	3.844238e+001
725000000	-1.072401e+001	-1.471674e+002	-4.047616e+000	2.546354e+001	-4.232584e+000	-1.581795e+002
	-4.054336e+000	2.545571e+001	-4.001636e+000	4.741858e+001	-9.372776e+000	6.430127e+001
	-4.237800e+000	-1.581675e+002	-9.380740e+000	6.420243e+001	-3.709904e+000	3.808732e+001
730000000	-1.094217e+001	-1.487433e+002	-4.014877e+000	2.457598e+001	-4.207407e+000	-1.590804e+002
	-4.038981e+000	2.458202e+001	-4.035646e+000	4.724989e+001	-9.318018e+000	6.361618e+001
	-4.212575e+000	-1.590650e+002	-9.333663e+000	6.358679e+001	-3.747269e+000	3.779641e+001
735000000	-1.114449e+001	-1.498790e+002	-4.005716e+000	2.387738e+001	-4.184996e+000	-1.599173e+002
	-4.017194e+000	2.382177e+001	-4.055975e+000	4.693488e+001	-9.273229e+000	6.289580e+001
	-4.186143e+000	-1.598721e+002	-9.261403e+000	6.289289e+001	-3.785104e+000	3.753421e+001
740000000	-1.137365e+001	-1.514697e+002	-3.960617e+000	2.286291e+001	-4.156414e+000	-1.607621e+002
	-3.983806e+000	2.290049e+001	-4.059693e+000	4.664189e+001	-9.194856e+000	6.214134e+001
	-4.162652e+000	-1.607582e+002	-9.205329e+000	6.211518e+001	-3.813622e+000	3.721694e+001
745000000	-1.158611e+001	-1.526643e+002	-3.953053e+000	2.210869e+001	-4.137126e+000	-1.615668e+002
	-3.974315e+000	2.219337e+001	-4.089578e+000	4.645347e+001	-9.150525e+000	6.149616e+001
	-4.141890e+000	-1.615643e+002	-9.146751e+000	6.150325e+001	-3.843903e+000	3.698652e+001
750000000	-1.178944e+001	-1.540649e+002	-3.954031e+000	2.147957e+001	-4.113640e+000	-1.624285e+002
	-3.960006e+000	2.137217e+001	-4.141264e+000	4.619837e+001	-9.121142e+000	6.082013e+001
	-4.114274e+000	-1.624249e+002	-9.100049e+000	6.079794e+001	-3.882125e+000	3.674290e+001
755000000	-1.198811e+001	-1.556737e+002	-3.919234e+000	2.061233e+001	-4.098258e+000	-1.632153e+002
	-3.936939e+000	2.055719e+001	-4.155304e+000	4.617153e+001	-9.057534e+000	6.015006e+001
	-4.104599e+000	-1.632525e+002	-9.062149e+000	6.011788e+001	-3.912557e+000	3.642838e+001
760000000	-1.222341e+001	-1.571435e+002	-3.896509e+000	1.974054e+001	-4.072578e+000	-1.640081e+002
	-3.922963e+000	1.977208e+001	-4.173434e+000	4.595482e+001	-9.009598e+000	5.947885e+001
	-4.079464e+000	-1.640500e+002	-9.005763e+000	5.944145e+001	-3.939704e+000	3.623163e+001
765000000	-1.244232e+001	-1.585715e+002	-3.900323e+000	1.905766e+001	-4.053373e+000	-1.648484e+002
	-3.922858e+000	1.897976e+001	-4.202361e+000	4.573546e+001	-8.986351e+000	5.871377e+001
	-4.058914e+000	-1.648422e+002	-8.956150e+000	5.874214e+001	-3.985994e+000	3.602436e+001
770000000	-1.269054e+001	-1.600306e+002	-3.885581e+000	1.825566e+001	-4.037033e+000	-1.656345e+002
	-3.909943e+000	1.821179e+001	-4.219656e+000	4.555063e+001	-8.930585e+000	5.806459e+001
	-4.045069e+000	-1.656348e+002	-8.916176e+000	5.807941e+001	-4.007109e+000	3.581030e+001
775000000	-1.289985e+001	-1.615946e+002	-3.853566e+000	1.738155e+001	-4.018504e+000	-1.663974e+002
	-3.893708e+000	1.742540e+001	-4.260178e+000	4.522740e+001	-8.893940e+000	5.738392e+001
	-4.028947e+000	-1.664328e+002	-8.876523e+000	5.730258e+001	-4.040060e+000	3.559214e+001
780000000	-1.310232e+001	-1.633861e+002	-3.862889e+000	1.664538e+001	-3.999135e+000	-1.672467e+002
	-3.878667e+000	1.664816e+001	-4.286031e+000	4.529236e+001	-8.851336e+000	5.668501e+001
	-4.010487e+000	-1.672376e+002	-8.840534e+000	5.670412e+001	-4.077444e+000	3.538418e+001
785000000	-1.334514e+001	-1.650467e+002	-3.844337e+000	1.584638e+001	-3.983339e+000	-1.679902e+002
	-3.871789e+000	1.591971e+001	-4.301181e+000	4.519742e+001	-8.817373e+000	5.609486e+001
	-3.996861e+000	-1.679978e+002	-8.803603e+000	5.604267e+001	-4.113787e+000	3.515849e+001
790000000	-1.358948e+001	-1.668532e+002	-3.853848e+000	1.521070e+001	-3.970955e+000	-1.687945e+002
	-3.865159e+000	1.517747e+001	-4.344237e+000	4.501261e+001	-8.786067e+000	5.545392e+001
	-3.981758e+000	-1.687784e+002	-8.777592e+000	5.543156e+001	-4.134125e+000	3.495784e+001
795000000	-1.382794e+001	-1.685767e+002	-3.827954e+000	1.444984e+001	-3.960042e+000	-1.695854e+002
	-3.846987e+000	1.440254e+001	-4.380178e+000	4.478858e+001	-8.751942e+000	5.479618e+001
	-3.970772e+000	-1.695499e+002	-8.743048e+000	5.481835e+001	-4.164532e+000	3.477320e+001
800000000	-1.404643e+001	-1.703730e+002	-3.829597e+000	1.370127e+001	-3.943175e+000	-1.703313e+002
	-3.838877e+000	1.368292e+001	-4.407021e+000	4.473109e+001	-8.716252e+000	5.420844e+001
	-3.952309e+000	-1.703155e+002	-8.702176e+000	5.419441e+001	-4.202117e+000	3.461050e+001
805000000	-1.428812e+001	-1.723526e+002	-3.809780e+000	1.292614e+001	-3.936500e+000	-1.711052e+002
	-3.834918e+000	1.295649e+001	-4.416617e+000	4.457869e+001	-8.688221e+000	5.360990e+001
	-3.948075e+000	-1.710873e+002	-8.679531e+000	5.363389e+001	-4.217497e+000	3.436027e+001
810000000	-1.449286e+001	-1.740633e+002	-3.804280e+000	1.223065e+001	-3.923521e+000	-1.718406e+002
	-3.822706e+000	1.222142e+001	-4.459296e+000	4.427348e+001	-8.666329e+000	5.297737e+001
	-3.928395e+000	-1.717933e+002	-8.646521e+000	5.301235e+001	-4.248789e+000	3.412731e+001
815000000	-1.476608e+001	-1.759824e+002	-3.802575e+000	1.149671e+001	-3.901787e+000	-1.726076e+002
	-3.814901e+000	1.148942e+001	-4.458910e+000	4.423085e+001	-8.620721e+000	5.241969e+001
	-3.911173e+000	-1.725475e+002	-8.624801e+000	5.242445e+001	-4.280138e+000	3.395467e+001
820000000	-1.498912e+001	-1.778702e+002	-3.788965e+000	1.076089e+001	-3.897024e+000	-1.733698e+002
	-3.810584e+000	1.076319e+001	-4.473116e+000	4.393478e+001	-8.597005e+000	5.178190e+001
	-3.907702e+000	-1.733218e+002	-8.600444e+000	5.188760e+001	-4.294079e+000	3.377664e+001
825000000	-1.521495e+001	1.799829e+002	-3.785797e+000	1.009532e+001	-3.888752e+000	-1.740586e+002
	-3.805240e+000	1.006740e+001	-4.498480e+000	4.373083e+001	-8.571488e+000	5.125792e+001
	-3.895346e+000	-1.740173e+002	-8.567108e+000	5.135885e+001	-4.318491e+000	3.354131e+001
830000000	-1.545303e+001	1.780561e+002	-3.786826e+000	9.351807e+000	-3.876478e+000	-1.748228e+002
	-3.794370e+000	9.356447e+000	-4.511761e+000	4.354161e+001	-8.541405e+000	5.065219e+001
	-3.881343e+000	-1.747772e+002	-8.539571e+000	5.074767e+001	-4.337218e+000	3.337435e+001
835000000	-1.564787e+001	1.759791e+002	-3.777510e+000	8.664279e+000	-3.869039e+000	-1.755220e+002
	-3.790831e+000	8.646514e+000	-4.523546e+000	4.343197e+001	-8.516006e+000	5.009793e+001
	-3.874019e+000	-1.755036e+002	-8.517956e+000	5.014459e+001	-4.359817e+000	3.316049e+001
840000000	-1.586271e+001	1.739700e+002	-3.762465e+000	8.058971e+000	-3.859757e+000	-1.762259e+002
	-3.770857e+000	7.962723e+000	-4.537592e+000	4.324007e+001	-8.482070e+000	4.962123e+001
	-3.860847e+000	-1.762263e+002	-8.483901e+000	4.947953e+001	-4.372870e+000	3.294725e+001
845000000	-1.607761e+001	1.719549e+002	-3.774290e+000	7.243737e+000	-3.842843e+000	-1.769358e+002
	-3.780060e+000	7.259660e+000	-4.537046e+000	4.299443e+001	-8.463052e+000	4.894963e+001
	-3.847860e+000	-1.769104e+002	-8.463048e+000	4.898413e+001	-4.396044e+000	3.270098e+001
850000000	-1.622984e+001	1.698074e+002	-3.741061e+000	6.713142e+000	-3.832112e+000	-1.776046e+002
	-3.772621e+000	6.617661e+000	-4.525863e+000	4.277722e+001	-8.440695e+000	4.848190e+001
	-3.835408e+000	-1.776405e+002	-8.419587e+000	4.844664e+001	-4.407814e+000	3.257458e+001
