!Mini-Circuits Laboratory
!S-Parameters
!Model:BFCN-2491+
!S/N:Unit 1
!Run/Lot/Date Code:CE1210/MP20240/NA/1946
!Fixture/SN/Due: 90-4-20-290/75508/08-26-20
!Connection: PORT<1> - pin<1>, PORT<2> - pin<3> 
!Port extension was done on test fixture

!Created: 06-17-2020 at 8:58 AM
# MHZ S DB R 50
!Frequency          S11 dB    S11 DEG     S21 dB    S21 DEG     S12 dB    S12 DEG     S22 dB    S22 DEG
  10.0000     -4.897571E-002 -1.237208E+000 -7.762620E+001  8.297631E+001 -7.909623E+001  7.939816E+001 -4.878098E-002 -1.235129E+000
  20.0000     -5.452042E-002 -2.452250E+000 -7.230611E+001  8.786060E+001 -7.269035E+001  8.959602E+001 -5.140952E-002 -2.486366E+000
  30.0000     -5.587219E-002 -3.678291E+000 -6.970409E+001  8.706611E+001 -7.124142E+001  8.798825E+001 -5.512822E-002 -3.708591E+000
  40.0000     -5.371754E-002 -4.920893E+000 -6.654468E+001  8.561850E+001 -6.685325E+001  9.194192E+001 -5.159910E-002 -4.932899E+000
  50.0000     -5.589487E-002 -6.144917E+000 -6.516153E+001  8.226658E+001 -6.539005E+001  8.503358E+001 -5.512951E-002 -6.136129E+000
  60.0000     -5.712643E-002 -7.371277E+000 -6.397809E+001  8.255331E+001 -6.346048E+001  8.395461E+001 -5.384938E-002 -7.387690E+000
  70.0000     -5.765089E-002 -8.589062E+000 -6.242992E+001  8.038225E+001 -6.209852E+001  8.028867E+001 -5.515032E-002 -8.602282E+000
  80.0000     -5.796107E-002 -9.812161E+000 -6.173037E+001  7.834948E+001 -6.145845E+001  7.920455E+001 -5.638266E-002 -9.832684E+000
  90.0000     -5.880347E-002 -1.104691E+001 -6.057045E+001  7.856743E+001 -6.088029E+001  7.912997E+001 -5.926598E-002 -1.106280E+001
 100.0000     -6.078111E-002 -1.227803E+001 -6.005175E+001  7.648249E+001 -5.983219E+001  7.580474E+001 -5.891278E-002 -1.230263E+001
 110.0000     -6.070011E-002 -1.349446E+001 -5.914923E+001  7.582554E+001 -5.929398E+001  7.675684E+001 -6.075061E-002 -1.352759E+001
 120.0000     -6.312400E-002 -1.471939E+001 -5.862379E+001  7.393291E+001 -5.867091E+001  7.565795E+001 -5.996468E-002 -1.474070E+001
 130.0000     -6.321029E-002 -1.592787E+001 -5.828657E+001  7.468107E+001 -5.804462E+001  7.372938E+001 -6.146458E-002 -1.596043E+001
 140.0000     -6.282012E-002 -1.714863E+001 -5.775603E+001  7.336891E+001 -5.766585E+001  7.255953E+001 -6.053160E-002 -1.717125E+001
 150.0000     -6.515674E-002 -1.835845E+001 -5.744571E+001  7.156855E+001 -5.722220E+001  7.220323E+001 -6.260974E-002 -1.840088E+001
 160.0000     -6.697358E-002 -1.957989E+001 -5.712306E+001  6.856124E+001 -5.688059E+001  6.873489E+001 -6.537326E-002 -1.961643E+001
 170.0000     -6.820440E-002 -2.079552E+001 -5.681538E+001  6.840025E+001 -5.682429E+001  6.854684E+001 -6.704745E-002 -2.084324E+001
 180.0000     -7.046401E-002 -2.201041E+001 -5.655095E+001  6.773560E+001 -5.648755E+001  6.688618E+001 -6.892940E-002 -2.205863E+001
 190.0000     -7.429891E-002 -2.321342E+001 -5.635067E+001  6.589026E+001 -5.643776E+001  6.622812E+001 -7.079752E-002 -2.326676E+001
 200.0000     -7.531638E-002 -2.443388E+001 -5.633308E+001  6.554128E+001 -5.622402E+001  6.503088E+001 -7.209981E-002 -2.450258E+001
 210.0000     -7.675578E-002 -2.563655E+001 -5.622932E+001  6.402491E+001 -5.619826E+001  6.446874E+001 -7.408506E-002 -2.570342E+001
 220.0000     -8.030649E-002 -2.684394E+001 -5.641700E+001  6.216884E+001 -5.621464E+001  6.177750E+001 -7.465124E-002 -2.691990E+001
 230.0000     -8.008273E-002 -2.805903E+001 -5.645887E+001  6.107322E+001 -5.635292E+001  6.187797E+001 -7.612461E-002 -2.814536E+001
 240.0000     -8.359071E-002 -2.926370E+001 -5.645358E+001  6.147374E+001 -5.632524E+001  5.996646E+001 -8.004757E-002 -2.935878E+001
 250.0000     -8.627118E-002 -3.047523E+001 -5.660235E+001  6.000027E+001 -5.662182E+001  5.980032E+001 -8.323757E-002 -3.057080E+001
 260.0000     -8.653922E-002 -3.167573E+001 -5.703797E+001  5.873758E+001 -5.686021E+001  5.893984E+001 -8.368544E-002 -3.177002E+001
 270.0000     -9.135586E-002 -3.288224E+001 -5.707568E+001  5.913701E+001 -5.709472E+001  5.838308E+001 -8.655106E-002 -3.297390E+001
 280.0000     -9.443282E-002 -3.408901E+001 -5.759379E+001  5.807939E+001 -5.760363E+001  5.658867E+001 -9.000544E-002 -3.416933E+001
 290.0000     -9.573321E-002 -3.528469E+001 -5.822066E+001  5.652397E+001 -5.839859E+001  5.663371E+001 -9.179115E-002 -3.537343E+001
 300.0000     -9.876010E-002 -3.646839E+001 -5.888119E+001  5.713897E+001 -5.891272E+001  5.618682E+001 -9.421980E-002 -3.656695E+001
 310.0000     -1.014639E-001 -3.767282E+001 -5.966317E+001  5.607181E+001 -5.962161E+001  5.520736E+001 -9.516846E-002 -3.776161E+001
 320.0000     -1.042246E-001 -3.885676E+001 -6.060750E+001  5.553348E+001 -6.042575E+001  5.389166E+001 -9.910180E-002 -3.896326E+001
 330.0000     -1.062557E-001 -4.004621E+001 -6.199297E+001  5.436038E+001 -6.192010E+001  5.446608E+001 -1.023672E-001 -4.015695E+001
 340.0000     -1.113786E-001 -4.123171E+001 -6.347739E+001  5.717377E+001 -6.355042E+001  5.528051E+001 -1.047203E-001 -4.136318E+001
 350.0000     -1.142763E-001 -4.242490E+001 -6.621600E+001  5.544720E+001 -6.563451E+001  5.676287E+001 -1.097628E-001 -4.254010E+001
 360.0000     -1.157619E-001 -4.359783E+001 -6.952700E+001  5.991740E+001 -6.897961E+001  7.333814E+001 -1.121565E-001 -4.373840E+001
 370.0000     -1.214617E-001 -4.477036E+001 -7.451778E+001  9.017528E+001 -7.469427E+001  7.817503E+001 -1.148410E-001 -4.492899E+001
 380.0000     -1.253292E-001 -4.595264E+001 -7.382044E+001  1.548529E+002 -7.642632E+001  1.587524E+002 -1.156526E-001 -4.612713E+001
 390.0000     -1.286682E-001 -4.713071E+001 -6.994938E+001 -1.705499E+002 -7.092163E+001 -1.698424E+002 -1.200636E-001 -4.730661E+001
 400.0000     -1.316199E-001 -4.832079E+001 -6.602132E+001 -1.564935E+002 -6.583253E+001 -1.591897E+002 -1.250256E-001 -4.849179E+001
 410.0000     -1.353770E-001 -4.950036E+001 -6.242964E+001 -1.555016E+002 -6.242376E+001 -1.523317E+002 -1.280708E-001 -4.968389E+001
 420.0000     -1.394845E-001 -5.066719E+001 -6.010956E+001 -1.532522E+002 -5.988255E+001 -1.515706E+002 -1.305148E-001 -5.086829E+001
 430.0000     -1.439939E-001 -5.182873E+001 -5.772219E+001 -1.517234E+002 -5.752654E+001 -1.517083E+002 -1.364744E-001 -5.205893E+001
 440.0000     -1.467849E-001 -5.299888E+001 -5.604696E+001 -1.513376E+002 -5.613994E+001 -1.518347E+002 -1.382425E-001 -5.322409E+001
 450.0000     -1.533252E-001 -5.417836E+001 -5.443260E+001 -1.525695E+002 -5.451849E+001 -1.525177E+002 -1.419976E-001 -5.440671E+001
 460.0000     -1.568976E-001 -5.533075E+001 -5.324372E+001 -1.536132E+002 -5.316853E+001 -1.533945E+002 -1.452810E-001 -5.558869E+001
 470.0000     -1.607163E-001 -5.649606E+001 -5.188300E+001 -1.540560E+002 -5.196293E+001 -1.537242E+002 -1.477365E-001 -5.675452E+001
 480.0000     -1.635908E-001 -5.765665E+001 -5.070724E+001 -1.540234E+002 -5.079378E+001 -1.544168E+002 -1.505630E-001 -5.792377E+001
 490.0000     -1.673878E-001 -5.883282E+001 -4.965754E+001 -1.556570E+002 -4.960066E+001 -1.552164E+002 -1.542737E-001 -5.909510E+001
 500.0000     -1.708363E-001 -5.998772E+001 -4.872058E+001 -1.562665E+002 -4.875714E+001 -1.562051E+002 -1.598819E-001 -6.025111E+001
 510.0000     -1.763723E-001 -6.114484E+001 -4.786678E+001 -1.573088E+002 -4.783869E+001 -1.577246E+002 -1.651673E-001 -6.140401E+001
 520.0000     -1.820071E-001 -6.229768E+001 -4.703460E+001 -1.581760E+002 -4.696917E+001 -1.578629E+002 -1.687533E-001 -6.256061E+001
 530.0000     -1.862458E-001 -6.344650E+001 -4.614158E+001 -1.591172E+002 -4.620623E+001 -1.590065E+002 -1.728713E-001 -6.372908E+001
 540.0000     -1.919708E-001 -6.459807E+001 -4.539160E+001 -1.602324E+002 -4.537656E+001 -1.600412E+002 -1.762403E-001 -6.487354E+001
 550.0000     -1.952089E-001 -6.572927E+001 -4.469068E+001 -1.610722E+002 -4.461680E+001 -1.614977E+002 -1.796534E-001 -6.604834E+001
 560.0000     -1.989808E-001 -6.688107E+001 -4.392806E+001 -1.623523E+002 -4.393604E+001 -1.622188E+002 -1.843851E-001 -6.720351E+001
 570.0000     -2.032915E-001 -6.802666E+001 -4.330850E+001 -1.633885E+002 -4.331644E+001 -1.632830E+002 -1.895140E-001 -6.836462E+001
 580.0000     -2.083969E-001 -6.916407E+001 -4.265521E+001 -1.641887E+002 -4.264018E+001 -1.645207E+002 -1.924227E-001 -6.951375E+001
 590.0000     -2.133580E-001 -7.032117E+001 -4.206749E+001 -1.655264E+002 -4.201777E+001 -1.653736E+002 -1.966541E-001 -7.067149E+001
 600.0000     -2.182284E-001 -7.145081E+001 -4.146284E+001 -1.664408E+002 -4.141817E+001 -1.664679E+002 -2.018900E-001 -7.181744E+001
 610.0000     -2.236219E-001 -7.257954E+001 -4.089509E+001 -1.675386E+002 -4.086369E+001 -1.677001E+002 -2.052061E-001 -7.296641E+001
 620.0000     -2.284715E-001 -7.373203E+001 -4.027713E+001 -1.684884E+002 -4.029588E+001 -1.685469E+002 -2.111444E-001 -7.411951E+001
 630.0000     -2.338644E-001 -7.486626E+001 -3.976304E+001 -1.696334E+002 -3.976439E+001 -1.696061E+002 -2.155398E-001 -7.528386E+001
 640.0000     -2.397097E-001 -7.599472E+001 -3.924714E+001 -1.709182E+002 -3.923853E+001 -1.707554E+002 -2.202579E-001 -7.642883E+001
 650.0000     -2.448561E-001 -7.713681E+001 -3.873432E+001 -1.718209E+002 -3.874665E+001 -1.719055E+002 -2.248008E-001 -7.757028E+001
 660.0000     -2.490618E-001 -7.826176E+001 -3.826057E+001 -1.728435E+002 -3.826229E+001 -1.728523E+002 -2.307224E-001 -7.870824E+001
 670.0000     -2.533683E-001 -7.939700E+001 -3.778038E+001 -1.740454E+002 -3.777759E+001 -1.740625E+002 -2.357498E-001 -7.983843E+001
 680.0000     -2.572734E-001 -8.051480E+001 -3.731822E+001 -1.750672E+002 -3.731435E+001 -1.751008E+002 -2.417203E-001 -8.097993E+001
 690.0000     -2.618505E-001 -8.164635E+001 -3.684479E+001 -1.761777E+002 -3.686415E+001 -1.761806E+002 -2.461565E-001 -8.211143E+001
 700.0000     -2.668461E-001 -8.276874E+001 -3.642574E+001 -1.771669E+002 -3.643744E+001 -1.772310E+002 -2.491999E-001 -8.324179E+001
 710.0000     -2.719990E-001 -8.388078E+001 -3.599589E+001 -1.784042E+002 -3.598019E+001 -1.783824E+002 -2.542464E-001 -8.438624E+001
 720.0000     -2.776138E-001 -8.501178E+001 -3.557356E+001 -1.794011E+002 -3.558116E+001 -1.795359E+002 -2.575335E-001 -8.551626E+001
 730.0000     -2.835718E-001 -8.614339E+001 -3.518497E+001  1.794729E+002 -3.517084E+001  1.794400E+002 -2.618297E-001 -8.664061E+001
 740.0000     -2.889124E-001 -8.728862E+001 -3.477789E+001  1.783508E+002 -3.478431E+001  1.784354E+002 -2.688053E-001 -8.778108E+001
 750.0000     -2.948631E-001 -8.840626E+001 -3.438678E+001  1.772902E+002 -3.437369E+001  1.772191E+002 -2.745427E-001 -8.892679E+001
 760.0000     -3.021020E-001 -8.954477E+001 -3.402142E+001  1.762165E+002 -3.401250E+001  1.760205E+002 -2.795076E-001 -9.005187E+001
 770.0000     -3.090903E-001 -9.064814E+001 -3.364563E+001  1.751794E+002 -3.364585E+001  1.751045E+002 -2.858014E-001 -9.119588E+001
 780.0000     -3.170457E-001 -9.176570E+001 -3.328477E+001  1.740696E+002 -3.328281E+001  1.739166E+002 -2.898224E-001 -9.234256E+001
 790.0000     -3.252384E-001 -9.290276E+001 -3.294093E+001  1.728873E+002 -3.293257E+001  1.727372E+002 -2.957442E-001 -9.348817E+001
 800.0000     -3.304732E-001 -9.402827E+001 -3.259678E+001  1.718495E+002 -3.258905E+001  1.716216E+002 -3.028265E-001 -9.462674E+001
 810.0000     -3.351114E-001 -9.515798E+001 -3.225434E+001  1.706805E+002 -3.225397E+001  1.705325E+002 -3.087882E-001 -9.576238E+001
 820.0000     -3.393269E-001 -9.628217E+001 -3.192347E+001  1.695536E+002 -3.190521E+001  1.693397E+002 -3.141522E-001 -9.689363E+001
 830.0000     -3.459133E-001 -9.740446E+001 -3.160504E+001  1.683895E+002 -3.158961E+001  1.682891E+002 -3.173586E-001 -9.803160E+001
 840.0000     -3.498072E-001 -9.853067E+001 -3.128138E+001  1.672679E+002 -3.127437E+001  1.672156E+002 -3.244317E-001 -9.915762E+001
 850.0000     -3.566860E-001 -9.965424E+001 -3.097046E+001  1.661580E+002 -3.096620E+001  1.660716E+002 -3.291445E-001 -1.002994E+002
 860.0000     -3.616121E-001 -1.007745E+002 -3.066695E+001  1.650192E+002 -3.065509E+001  1.650408E+002 -3.351216E-001 -1.014369E+002
 870.0000     -3.666849E-001 -1.018813E+002 -3.034901E+001  1.640117E+002 -3.035698E+001  1.639554E+002 -3.408988E-001 -1.025809E+002
 880.0000     -3.737540E-001 -1.030224E+002 -3.007381E+001  1.628869E+002 -3.006113E+001  1.628123E+002 -3.467945E-001 -1.037310E+002
 890.0000     -3.797135E-001 -1.041336E+002 -2.979296E+001  1.617965E+002 -2.977498E+001  1.616946E+002 -3.538203E-001 -1.048690E+002
 900.0000     -3.882768E-001 -1.052810E+002 -2.950653E+001  1.606861E+002 -2.950056E+001  1.606098E+002 -3.603964E-001 -1.060203E+002
 910.0000     -3.947787E-001 -1.064161E+002 -2.923628E+001  1.596131E+002 -2.921245E+001  1.595253E+002 -3.676175E-001 -1.071673E+002
 920.0000     -4.047380E-001 -1.075661E+002 -2.896666E+001  1.584544E+002 -2.895962E+001  1.584174E+002 -3.765167E-001 -1.083113E+002
 930.0000     -4.108369E-001 -1.087166E+002 -2.870399E+001  1.573271E+002 -2.868885E+001  1.571902E+002 -3.790388E-001 -1.094747E+002
 940.0000     -4.175013E-001 -1.098578E+002 -2.843204E+001  1.562480E+002 -2.842804E+001  1.560640E+002 -3.876629E-001 -1.106214E+002
 950.0000     -4.247948E-001 -1.110071E+002 -2.818322E+001  1.550732E+002 -2.816996E+001  1.549322E+002 -3.922947E-001 -1.117844E+002
 960.0000     -4.314711E-001 -1.121673E+002 -2.793102E+001  1.539869E+002 -2.792897E+001  1.538077E+002 -3.981746E-001 -1.129479E+002
 970.0000     -4.379466E-001 -1.133278E+002 -2.769153E+001  1.528524E+002 -2.767354E+001  1.526924E+002 -4.043836E-001 -1.141175E+002
 980.0000     -4.449340E-001 -1.144893E+002 -2.744628E+001  1.516767E+002 -2.743805E+001  1.516056E+002 -4.119667E-001 -1.152763E+002
 990.0000     -4.523592E-001 -1.156431E+002 -2.721168E+001  1.505710E+002 -2.720542E+001  1.504816E+002 -4.176003E-001 -1.164417E+002
1000.0000     -4.585342E-001 -1.167972E+002 -2.698438E+001  1.494065E+002 -2.698055E+001  1.492411E+002 -4.258802E-001 -1.176085E+002
1010.0000     -4.654998E-001 -1.179606E+002 -2.675770E+001  1.482906E+002 -2.675969E+001  1.481826E+002 -4.329484E-001 -1.187801E+002
1020.0000     -4.739538E-001 -1.191263E+002 -2.653166E+001  1.470935E+002 -2.653108E+001  1.470297E+002 -4.406178E-001 -1.199560E+002
1030.0000     -4.807259E-001 -1.202976E+002 -2.631624E+001  1.459911E+002 -2.631355E+001  1.458654E+002 -4.476863E-001 -1.211358E+002
1040.0000     -4.894337E-001 -1.214559E+002 -2.611010E+001  1.448373E+002 -2.610950E+001  1.447448E+002 -4.560039E-001 -1.223260E+002
1050.0000     -4.973702E-001 -1.226418E+002 -2.590794E+001  1.436978E+002 -2.590099E+001  1.435852E+002 -4.634366E-001 -1.235305E+002
1060.0000     -5.052026E-001 -1.238461E+002 -2.570857E+001  1.424965E+002 -2.570584E+001  1.423570E+002 -4.720467E-001 -1.247193E+002
1070.0000     -5.131826E-001 -1.250373E+002 -2.550884E+001  1.413622E+002 -2.550677E+001  1.412333E+002 -4.792297E-001 -1.259278E+002
1080.0000     -5.222837E-001 -1.262424E+002 -2.532193E+001  1.401804E+002 -2.531082E+001  1.400668E+002 -4.867230E-001 -1.271519E+002
1090.0000     -5.307541E-001 -1.274570E+002 -2.513756E+001  1.389935E+002 -2.512799E+001  1.389136E+002 -4.963867E-001 -1.283605E+002
1100.0000     -5.379419E-001 -1.286833E+002 -2.495039E+001  1.378384E+002 -2.495172E+001  1.377881E+002 -5.013021E-001 -1.295869E+002
1110.0000     -5.476176E-001 -1.299025E+002 -2.478007E+001  1.366529E+002 -2.477917E+001  1.365734E+002 -5.074648E-001 -1.308080E+002
1120.0000     -5.553893E-001 -1.311326E+002 -2.460495E+001  1.354925E+002 -2.460386E+001  1.354515E+002 -5.148457E-001 -1.320532E+002
1130.0000     -5.599070E-001 -1.323591E+002 -2.444041E+001  1.343296E+002 -2.443338E+001  1.342435E+002 -5.234108E-001 -1.332968E+002
1140.0000     -5.683812E-001 -1.335968E+002 -2.427777E+001  1.331393E+002 -2.428116E+001  1.330700E+002 -5.291250E-001 -1.345301E+002
1150.0000     -5.762703E-001 -1.348502E+002 -2.412570E+001  1.319502E+002 -2.412933E+001  1.318558E+002 -5.380202E-001 -1.358017E+002
1160.0000     -5.848989E-001 -1.361116E+002 -2.398201E+001  1.307024E+002 -2.397729E+001  1.306611E+002 -5.438116E-001 -1.370792E+002
1170.0000     -5.936289E-001 -1.373813E+002 -2.384097E+001  1.295396E+002 -2.383549E+001  1.294442E+002 -5.520081E-001 -1.383535E+002
1180.0000     -6.038819E-001 -1.386645E+002 -2.371298E+001  1.282997E+002 -2.370879E+001  1.282095E+002 -5.624989E-001 -1.396606E+002
1190.0000     -6.153149E-001 -1.399569E+002 -2.358646E+001  1.270181E+002 -2.358057E+001  1.269951E+002 -5.720314E-001 -1.409566E+002
1200.0000     -6.233873E-001 -1.412614E+002 -2.346528E+001  1.258205E+002 -2.346791E+001  1.257573E+002 -5.821065E-001 -1.422779E+002
1210.0000     -6.334251E-001 -1.425765E+002 -2.335583E+001  1.246110E+002 -2.336053E+001  1.245547E+002 -5.915201E-001 -1.436098E+002
1220.0000     -6.447005E-001 -1.438964E+002 -2.325725E+001  1.234153E+002 -2.325400E+001  1.232979E+002 -5.999341E-001 -1.449313E+002
1230.0000     -6.547043E-001 -1.452495E+002 -2.315970E+001  1.221351E+002 -2.315972E+001  1.220714E+002 -6.087146E-001 -1.462863E+002
1240.0000     -6.617226E-001 -1.466222E+002 -2.307541E+001  1.208667E+002 -2.307411E+001  1.208013E+002 -6.192126E-001 -1.476371E+002
1250.0000     -6.726386E-001 -1.479949E+002 -2.300278E+001  1.196515E+002 -2.299807E+001  1.195801E+002 -6.285461E-001 -1.490241E+002
1260.0000     -6.826778E-001 -1.493892E+002 -2.293275E+001  1.183794E+002 -2.293804E+001  1.183366E+002 -6.385682E-001 -1.504193E+002
1270.0000     -6.911381E-001 -1.507737E+002 -2.288126E+001  1.171117E+002 -2.288322E+001  1.170883E+002 -6.470940E-001 -1.518352E+002
1280.0000     -7.020225E-001 -1.522104E+002 -2.283738E+001  1.158617E+002 -2.284668E+001  1.158349E+002 -6.593337E-001 -1.532432E+002
1290.0000     -7.123125E-001 -1.536584E+002 -2.282336E+001  1.145589E+002 -2.281903E+001  1.145305E+002 -6.674989E-001 -1.546968E+002
1300.0000     -7.249798E-001 -1.551092E+002 -2.281279E+001  1.133053E+002 -2.280982E+001  1.132614E+002 -6.807468E-001 -1.561643E+002
1310.0000     -7.337985E-001 -1.565934E+002 -2.281956E+001  1.120322E+002 -2.281394E+001  1.120060E+002 -6.887295E-001 -1.576414E+002
1320.0000     -7.454228E-001 -1.581129E+002 -2.283261E+001  1.107515E+002 -2.283932E+001  1.107406E+002 -7.026817E-001 -1.591585E+002
1330.0000     -7.579764E-001 -1.596424E+002 -2.288200E+001  1.094725E+002 -2.288496E+001  1.094176E+002 -7.134501E-001 -1.606824E+002
1340.0000     -7.693038E-001 -1.611839E+002 -2.294596E+001  1.082576E+002 -2.293527E+001  1.081911E+002 -7.230610E-001 -1.622423E+002
1350.0000     -7.813013E-001 -1.627658E+002 -2.303420E+001  1.070091E+002 -2.302840E+001  1.069591E+002 -7.348593E-001 -1.638214E+002
1360.0000     -7.919796E-001 -1.643760E+002 -2.314575E+001  1.057719E+002 -2.314703E+001  1.056982E+002 -7.449707E-001 -1.654095E+002
1370.0000     -8.044358E-001 -1.660281E+002 -2.329816E+001  1.045783E+002 -2.329790E+001  1.045310E+002 -7.571637E-001 -1.670351E+002
1380.0000     -8.178363E-001 -1.676834E+002 -2.348638E+001  1.033960E+002 -2.348684E+001  1.033838E+002 -7.721390E-001 -1.686972E+002
1390.0000     -8.308735E-001 -1.693772E+002 -2.371156E+001  1.022802E+002 -2.371357E+001  1.022166E+002 -7.853358E-001 -1.703978E+002
1400.0000     -8.445792E-001 -1.711169E+002 -2.399071E+001  1.012470E+002 -2.398872E+001  1.012293E+002 -7.984397E-001 -1.721280E+002
1410.0000     -8.612001E-001 -1.729104E+002 -2.432155E+001  1.002798E+002 -2.432162E+001  1.002405E+002 -8.123060E-001 -1.738999E+002
1420.0000     -8.757170E-001 -1.747268E+002 -2.472581E+001  9.946295E+001 -2.472659E+001  9.944770E+001 -8.254788E-001 -1.757123E+002
1430.0000     -8.911354E-001 -1.766002E+002 -2.521338E+001  9.886398E+001 -2.520865E+001  9.879740E+001 -8.412343E-001 -1.775681E+002
1440.0000     -9.094811E-001 -1.785186E+002 -2.580298E+001  9.850944E+001 -2.579006E+001  9.846352E+001 -8.573990E-001 -1.794732E+002
1450.0000     -9.247055E-001  1.795211E+002 -2.651530E+001  9.857911E+001 -2.651824E+001  9.851746E+001 -8.754010E-001  1.785853E+002
1460.0000     -9.451313E-001  1.775122E+002 -2.738908E+001  9.928135E+001 -2.738460E+001  9.921501E+001 -8.922160E-001  1.765806E+002
