!
! Integrated Device Technology
! Corporate Headquarters
! 6024 Silver Creek Valley Road
! San Jose, CA 95138  USA
! Phone:      1-408-284-8200
! Toll Free:  1-800-223-1366
! Webpage:   http://www.idt.com/
! 
! Timing and RF Division
! 515 Groton Road, Suite 102
! Westford, MA 01886-6024
! 
! Device:      F2972
! Description: High Linearity Broadband SP2T
! Frequency:   0.005 - 10.000 GHz
! Package:     2x2 mm LQFN Plastic Package: 12 pin
! Ports:       3 RF, 3 DC
!              Pin  1  = GND
!              Pin  2  = RFC      = Port 3
!              Pin  3  = GND
!              Pin  4  = GND
!              Pin  5  = RF1      = Port 1
!              Pin  6  = GND
!              Pin  7  = VCTL
!              Pin  8  = EN
!              Pin  9  = VCC
!              Pin 10  = GND
!              Pin 11  = RF2      = Port 2
!              Pin 12  = GND
!		    EP      = GND
!
! State:        RF1 Path Selected
! Voltage:      VCC    = +3.3 V
!               EN     = +3.3 V (Logic HIGH)
!               VCTL   = +0.0 V (Logic LOW)
!
! Data:    The device was measured on the F2972 50 ohm EVKit
!          using a calibrated network analyzer.  
!          The Thru reference parh (J4 to J5) was removed from
! 		the data to produce the de-embedded results.
!          The reference plane is the edge of the RF pins.
!
! Misc:
!
! Date Measured:  2017-01-28
! Date:           2017-05-10 SJ
! Note: 
!   	Integrated Device Technology supplies this data as a sample
!	of measured data. 
!   	Data was taken at 25 degrees C.
!   	Integrated Device Technology reserves the right to change
! 	this data at anytime.
!
! 3 Port Network Data
! freq  dbS11  angS11  dbS12  angS12  dbS13  angS13  
!       dbS21  angS21  dbS22  angS22  dbS23  angS23  
!       dbS31  angS31  dbS32  angS32  dbS33  angS33  
!     
# HZ S DB R 50
           1000000       -29.3438497         14.3611968        -86.8304441         85.8934409       -0.252799072       -0.418102826
                       -73.940709        -13.2357324        -2.51265895         179.233454         -75.790966         13.3953769
                     -0.246291852       -0.348750654        -73.4069236        0.526167111        -30.3225792         20.8623025

          25997500       -31.1568436        0.108502366        -74.7328129         45.9047885       -0.272135554       -0.355078241
                      -74.8481362         47.3750926        -2.54511264         179.483327        -75.8080375         32.0994471
                     -0.253200854       -0.319418338        -76.0580287         30.8414932        -30.5757502         3.98540396

          50995000       -30.0339353         10.5400805        -70.6786389         65.4137195       -0.273506442       -0.588245886
                      -70.7014237         64.1137327        -2.55635288         179.074427        -73.8041321         49.4996196
                      -0.26180886       -0.613449603        -73.5153559         49.5658371        -30.1544565         7.32551156

          75992500       -30.0628263         3.88900063        -67.6227304         74.9225719       -0.277618826        -0.89267742
                      -67.4878086         73.5758338         -2.5692973         178.691127        -70.8634354         63.7049458
                     -0.263610627       -0.843417244        -71.0022106         62.5411088         -29.785758         8.58747405

         100990000       -30.1562125         11.7913577        -65.2032295          77.728707       -0.283354953        -1.10116184
                      -65.2093435         78.4746196        -2.58208529         178.275727        -68.9790336         69.2247356
                     -0.266083983        -1.12729551        -68.9969115         67.9697343        -29.6413204         9.20322613

         125987500       -29.1984854         10.5722356        -63.2475497         80.3785905       -0.280494324        -1.37371546
                      -63.2391023         81.0783107        -2.59031005         177.857768        -67.2544947         73.6247857
                     -0.272498948        -1.33519149         -67.284965         72.9469598        -29.3654902         12.5620847

         150985000       -30.5305537         8.51397274        -61.7215702         81.6575122        -0.28670901        -1.59885832
                      -61.6292079         81.5064356        -2.59467741         177.467453         -65.863926         76.1618645
                     -0.269507496        -1.57256365        -65.9812875         75.6598865        -29.6565521         11.2673493

         175982500       -29.2685959         16.3505624        -60.4004354         83.7120794       -0.284186489        -1.82438092
                      -60.3519648         83.4543958        -2.60129445         177.102391        -64.6167627         78.8231996
                     -0.275877399        -1.83732254        -64.6658138         79.0696201        -28.9603831         13.4404212

         200980000       -29.5005561         13.5079996        -59.2244189         84.3050786       -0.290258881        -2.08999933
                      -59.2645798         84.3985936         -2.6079488         176.745126        -63.4243619         80.6073473
                     -0.274752259        -2.08166899        -63.4463315         80.7235397        -28.7110194         15.4354791

         225977500       -29.1101276         11.9941293        -58.2387381         84.9421037       -0.295836127         -2.3233937
                      -58.1890296         84.7770552         -2.6116418         176.401585        -62.4662486         82.4935157
                     -0.277326098         -2.3048252        -62.5102373         82.7316994         -28.692454         17.6126322

         250975000       -28.3771378         16.2537609        -57.2477188         85.1086671       -0.286891962          -2.558563
                      -57.2435204         85.4154903        -2.61695145         176.083859        -61.6156073         83.6516313
                     -0.278163326        -2.53908621        -61.6260512         83.8039576        -28.8271024         18.1858527

         275972500       -28.5912964         18.8550091        -56.4451444         85.8624035       -0.290924519        -2.79794669
                      -56.4927702         86.0404744        -2.62029224         175.767392        -60.7807623          85.167003
                     -0.283562594        -2.80366546        -60.8222377         84.8012941        -28.8726766         18.4883838

         300970000       -28.9257251         19.4240661        -55.7111746          86.199506       -0.295296296         -3.0521825
                      -55.7097792         86.1527423         -2.6244905         175.480619        -60.0488195         86.1888983
                     -0.284620269        -3.04958251        -60.0276193         86.0832638        -28.5950641         18.4293962

         325967500       -28.9974207         18.1357869        -55.0433444          86.455592       -0.301593015        -3.28566839
                      -55.0052163         86.4830604         -2.6374817         175.146268        -59.2926834         86.9490092
                     -0.286810688        -3.29555845        -59.3895051         86.7032227        -28.3445763         18.7897301

         350965000       -28.7285211         16.5443338        -54.3795744         86.6510703       -0.300023404        -3.51183195
                       -54.348223         86.8122774        -2.64615785         174.791998        -58.7147554         87.8654192
                     -0.282690918        -3.51667661        -58.5792235         87.6030797        -28.1984503         20.4406926

         375962500       -28.2457934         15.1837229         -53.763511         86.9111582       -0.299224532        -3.76277402
                      -53.7232675         86.7532785        -2.65038331         174.441444        -58.0804506         88.3388151
                     -0.282111069        -3.74186441        -58.1052158         88.6358138        -28.3162271         21.7642128

         400960000       -27.7239575         14.6626815        -53.1629733         86.9215598       -0.298647228        -4.01664207
                      -53.1589723         87.0740816        -2.65482652         174.086175         -57.506178         89.0981373
                     -0.284290247        -3.98956262        -57.5555576         89.3812214        -28.3863702         21.6929336

         425957500       -27.4509579         16.2388138        -52.6276081          86.964248       -0.298679519        -4.26327501
                      -52.6233619         87.1335601        -2.66439971         173.720087        -57.0012705         90.1104996
                      -0.28923045        -4.23893596        -56.9610144         89.8968168        -28.3468779         20.5623402

         450955000       -27.3501624         18.9259851        -52.1572614         87.3443393       -0.298152142        -4.49534976
                       -52.121176         87.3603707        -2.66826578         173.368963        -56.4524426         90.5192286
                     -0.292430519        -4.46194337        -56.4639204         90.4224411        -28.1078964          20.261825

         475952500       -27.3597922         20.7446223        -51.6757201         87.3618467        -0.29858207        -4.71615121
                      -51.6657601         87.5317117        -2.67221589         173.026034        -55.9291333         91.3003336
                     -0.292533774        -4.70263928        -55.9445402         91.1253578        -27.9572518         20.7871454

         500950000       -27.5041507         21.3828441        -51.2346558         87.5608954       -0.297907746        -4.94785888
                      -51.2453083         87.6840878        -2.67233074         172.681246        -55.5123236         91.7961784
                     -0.290926235        -4.94049786         -55.480899         91.6922598        -28.0086459         21.4029643

         525947500       -27.6746478         19.8708652        -50.8122104         87.5725584       -0.301300314        -5.19375864
                      -50.7887019         87.6103501        -2.67616411         172.342172        -55.0901353         92.1758529
                     -0.292803002        -5.19934432        -55.0451652         92.1385335        -28.1327094         21.7722002

         550945000       -27.6310521         18.0688087        -50.4075493          87.308148       -0.304779993        -5.43795057
                      -50.4229057         87.4121282        -2.68163011          171.98228        -54.6428954         92.6360475
                     -0.295206011        -5.43919144        -54.5740379         92.5146173        -28.1310802         21.7635832

         575942500       -27.4094348         16.4508421         -50.006945         87.5741704       -0.306324973        -5.67876298
                       -50.016381         87.6733409         -2.6853589          171.63574        -54.1998305         93.3008214
                     -0.296029256        -5.66146003        -54.1945275         93.1356482        -28.1050516         20.7951809

         600940000       -27.1332127         16.2828161        -49.6487219         87.7030473       -0.305415148        -5.91856668
                      -49.6297961         87.6616834        -2.68581879         171.295137        -53.7961035         93.6058925
                     -0.294650864        -5.88357341        -53.7882654         93.4681527        -28.0409322         20.1493416

         625937500       -26.8176496         17.0977151        -49.2886753         87.6895402       -0.305623281        -6.16691187
                      -49.2680666         87.8854862        -2.68675191         171.004245        -53.4286311         93.8500671
                     -0.295024493        -6.13015863        -53.3917404         93.8248997        -27.8875885         19.8074559

         650935000       -26.6334767         18.5640049        -48.9482515         87.7492377        -0.30628676        -6.41153432
                      -48.9336445         87.9206009        -2.69420469         170.663966        -53.0204588         94.3812819
                     -0.296865763        -6.37463046        -53.0170434         94.4679136        -27.7947118         19.6013379

         675932500       -26.6156885         19.6670096        -48.6145371          87.930748       -0.308063778        -6.63723227
                      -48.6331976         87.9400467        -2.69955574         170.306728        -52.6487483         94.8315957
                     -0.301617385        -6.61831859         -52.669843         94.7340211        -27.6572692         18.7679663

         700930000       -26.7299783         20.9893986        -48.3171385         87.9667212       -0.308744984        -6.86392006
                      -48.2996741         87.9788208        -2.70325864         169.948793        -52.2989609         94.8767569
                     -0.302714837        -6.84632241        -52.2950279         95.1595056        -27.4296194          18.535406

         725927500       -26.9251661          20.517127         -48.004848          87.868136       -0.309477865        -7.09804318
                      -48.0103384         88.0696845        -2.70097126         169.612034         -51.944603         95.3399951
                     -0.301700794        -7.09009527        -51.9605309         95.3239159        -27.3267212         17.8659272

         750925000        -27.072532         19.4567799        -47.7219965         87.9663197       -0.309664834        -7.33741361
                      -47.7300897         88.1160358        -2.70112326         169.314416        -51.6228572         95.5685791
                     -0.301368486        -7.33670998        -51.6189963         95.6189574        -27.2603224         17.5061679

         775922500       -27.0720396         18.1332423        -47.4285037         87.9987916        -0.31237849        -7.57549696
                       -47.414706         88.0273529        -2.70294666         169.002772        -51.2962132         95.7742402
                     -0.304233237        -7.57093832        -51.3014239         95.9148196        -27.2010009         16.9749573

         800920000       -26.8687661         17.4325458        -47.1553946          88.069901       -0.314323219        -7.81448144
                      -47.1357899         88.1499943        -2.70524371         168.669035        -50.9765304         96.2120652
                     -0.305717354        -7.79965351        -50.9902646          96.108718        -27.1122361         16.5219626

         825917500       -26.6893652         16.6853417        -46.8781421         88.1274194       -0.315003728        -8.04709851
                      -46.8655633          88.258151        -2.70531606         168.304135        -50.6814532         96.3739177
                     -0.306620291        -8.02682779        -50.6845323         96.2928831        -27.0713727         15.1717878

         850915000       -26.5551664         17.3160805        -46.6128303         88.1713497       -0.313819503        -8.27398899
                      -46.6009071         88.3892348        -2.70112111          168.01485        -50.3948797         96.7089499
                     -0.307546314        -8.26297217         -50.364985         96.4700727        -26.9150589         14.4718476

         875912500        -26.583228         18.7848387         -46.364782         88.2009531       -0.315333298        -8.50614505
                      -46.3630054         88.3743241        -2.70186125         167.718611        -50.0866715         96.8362409
                     -0.308910652        -8.51293536        -50.0940736         96.8504968        -26.7344494         14.3142308

         900910000       -26.7405505         20.3881485        -46.1271255         88.3587949       -0.317439448        -8.73042482
                      -46.1320458          88.604008        -2.70212957         167.437763        -49.7978326         97.1989831
                     -0.310680636        -8.75354863        -49.8115827         96.8867685        -26.6219264         14.5306143

         925907500       -26.9415309         20.1345928        -45.8885814         88.4070532       -0.318597495        -8.96069906
                      -45.8778869          88.506276        -2.70558738         167.144231        -49.5282737         97.2059556
                     -0.312621951        -8.98334286        -49.5469406         97.1325109        -26.5445886         14.0077043

         950905000       -27.0379335         18.8595186        -45.6562808         88.4663838       -0.320061683        -9.19143494
                      -45.6406619         88.4379401        -2.70591053         166.871951        -49.2561487         97.4051924
                     -0.313092695        -9.20896207        -49.2616997         97.2601303        -26.4706159         13.3542126

         975902500       -26.9871014         16.6038838        -45.4296305          88.411212       -0.320833219        -9.44234206
                      -45.4047709         88.5675755        -2.71117109         166.546134        -48.9935699         97.3678141
                     -0.312242135        -9.45390455        -49.0243002          97.460174        -26.4597155         12.4504811

        1.0009e+09       -26.8343659         15.5508389         -45.197007         88.3943783       -0.321220315        -9.67180001
                      -45.1796807         88.6239341        -2.71018223         166.210067        -48.7489271         97.7559552
                     -0.312525715        -9.68996453        -48.7633909         97.6205813        -26.3665657         12.3765785

     1.0258975e+09       -26.6943717         15.4379613        -44.9728811         88.5219479       -0.323342462        -9.90475699
                      -44.9620913         88.6597874        -2.70706398          165.92438        -48.4956204         97.9212792
                     -0.314871061        -9.92690266        -48.5041307          97.795278        -26.2179292          12.609326

      1.050895e+09       -26.6335413         15.4779727        -44.7510771         88.5672688       -0.323704642        -10.1287047
                      -44.7460451         88.7813161        -2.70465211         165.656438        -48.2673833         98.1348734
                     -0.315932195        -10.1464015        -48.2444913         97.9752976        -26.1427123         12.3235967

     1.0758925e+09       -26.7593735         16.0302665        -44.5415093         88.6761486       -0.324270134        -10.3768107
                      -44.5340199         88.7914938        -2.70103935         165.401136         -48.020794         98.2165029
                     -0.317460187        -10.3886097        -48.0209386         98.1362658        -26.1922871          11.493694

       1.10089e+09       -26.8808687         16.7708162        -44.3409196         88.7282162        -0.32461523        -10.6042111
                      -44.3207231         88.8361198        -2.70214648          165.12585        -47.7925085         98.3192455
                      -0.31822422        -10.6247513        -47.7936752         98.2110393        -26.1595137         11.3106438

     1.1258875e+09       -26.9552421         16.5277553         -44.149797         88.7427289       -0.327877976        -10.8361284
                      -44.1300675         88.8971596        -2.70108187         164.812503         -47.560267         98.4794541
                     -0.320838356        -10.8666107         -47.571222         98.4261873        -26.1478111         11.5627233

      1.150885e+09       -27.0624589         15.9879632        -43.9448634          88.819153       -0.330547568         -11.053529
