!Mini-Circuits Laboratory
!S-Parameters
!Model:HFCN-1000+
!Run/Lot/Date Code: CS0100//N/A
!DATA FOR: UNIT# 1
!Fixture/SN/Due: N/A
!Connection: PORT-1 - pin<1>; PORT-2 - pin<3>    
!PORT EXTENSION IS DONE ON TEST BOARD(TB-270) 
!Created: 02-25-2013 at 10:37 AM

# MHZ S DB R 50
!Frequency        S11 dB  S11 DEG   S21 dB  S21 DEG   S12 dB  S12 DEG   S22 dB  S22 DEG
  10.0000     -5.070080E-002 -1.568830E+000 -6.416353E+001 -9.621556E+001 -6.700052E+001 -1.716163E+002 -4.774619E-002 -1.589094E+000
  20.0000     -4.656382E-002 -3.183388E+000 -7.241171E+001 -1.204461E+002 -9.675309E+001 -1.403715E+002 -5.333468E-002 -3.244481E+000
  30.0000     -4.360524E-002 -4.775080E+000 -9.466821E+001 -6.225477E+001 -8.186268E+001  1.483068E+002 -4.614350E-002 -4.847427E+000
  40.0000     -3.974737E-002 -6.350436E+000 -7.883099E+001  7.612486E+001 -7.780796E+001  1.022827E+002 -4.458380E-002 -6.455078E+000
  50.0000     -3.567820E-002 -7.971633E+000 -5.660988E+001  6.041070E+000 -6.153946E+001 -6.160621E+001 -4.675080E-002 -8.180997E+000
  60.0000     -4.249205E-002 -9.547031E+000 -7.633308E+001  8.838242E+001 -6.888415E+001  1.534998E+002 -4.366597E-002 -9.699053E+000
  70.0000     -3.811218E-002 -1.112532E+001 -7.247827E+001  7.225028E+001 -7.250195E+001  7.283167E+001 -4.160346E-002 -1.129154E+001
  80.0000     -3.760425E-002 -1.272818E+001 -7.141957E+001  6.269946E+001 -7.248454E+001  7.366396E+001 -4.038328E-002 -1.291227E+001
  90.0000     -3.812804E-002 -1.431605E+001 -7.165871E+001  9.151885E+001 -7.062176E+001  6.293080E+001 -3.872410E-002 -1.452464E+001
 100.0000     -3.726467E-002 -1.591329E+001 -6.908744E+001  7.354281E+001 -7.081210E+001  6.547510E+001 -3.761284E-002 -1.614758E+001
 110.0000     -3.699075E-002 -1.751481E+001 -7.145245E+001  7.209126E+001 -7.041447E+001  8.195945E+001 -3.947933E-002 -1.776265E+001
 120.0000     -3.676529E-002 -1.911837E+001 -6.972778E+001  6.696956E+001 -6.942336E+001  6.111093E+001 -4.058550E-002 -1.938515E+001
 130.0000     -3.846629E-002 -2.071016E+001 -6.780705E+001  6.993305E+001 -6.770831E+001  8.446054E+001 -4.140593E-002 -2.099514E+001
 140.0000     -3.908769E-002 -2.230361E+001 -6.785236E+001  6.614511E+001 -6.821698E+001  6.434951E+001 -4.247316E-002 -2.262331E+001
 150.0000     -3.900980E-002 -2.392208E+001 -6.624689E+001  5.247087E+001 -7.066343E+001  6.699327E+001 -4.167306E-002 -2.425129E+001
 160.0000     -3.919048E-002 -2.552551E+001 -6.666402E+001  7.306600E+001 -6.880058E+001  6.131436E+001 -4.261328E-002 -2.587171E+001
 170.0000     -3.827857E-002 -2.714324E+001 -6.692365E+001  6.158265E+001 -6.781106E+001  5.874548E+001 -4.284048E-002 -2.751014E+001
 180.0000     -3.997496E-002 -2.873479E+001 -6.659789E+001  6.619800E+001 -6.601741E+001  5.929491E+001 -4.342056E-002 -2.914783E+001
 190.0000     -4.235082E-002 -3.034745E+001 -6.575729E+001  6.380042E+001 -6.632056E+001  5.691566E+001 -4.514445E-002 -3.078191E+001
 200.0000     -4.485171E-002 -3.196343E+001 -6.516909E+001  6.089204E+001 -6.655561E+001  5.465032E+001 -4.499637E-002 -3.241398E+001
 210.0000     -4.682043E-002 -3.356849E+001 -6.524515E+001  5.445860E+001 -6.593900E+001  5.412119E+001 -4.626746E-002 -3.401839E+001
 220.0000     -4.803644E-002 -3.518166E+001 -6.504772E+001  5.459390E+001 -6.456092E+001  5.927878E+001 -4.893629E-002 -3.565664E+001
 230.0000     -4.843443E-002 -3.679973E+001 -6.541474E+001  5.109375E+001 -6.501269E+001  5.728226E+001 -4.963818E-002 -3.729433E+001
 240.0000     -4.726983E-002 -3.841407E+001 -6.446068E+001  5.145308E+001 -6.435756E+001  5.385433E+001 -5.244128E-002 -3.893810E+001
 250.0000     -5.264793E-002 -4.004275E+001 -6.302234E+001  5.670595E+001 -6.576672E+001  4.383992E+001 -5.431405E-002 -4.058142E+001
 260.0000     -5.800882E-002 -4.168373E+001 -6.342616E+001  4.862257E+001 -6.497486E+001  5.019897E+001 -5.858266E-002 -4.221151E+001
 270.0000     -5.962150E-002 -4.329909E+001 -6.404497E+001  5.097535E+001 -6.476231E+001  4.837878E+001 -6.057063E-002 -4.384202E+001
 280.0000     -6.494108E-002 -4.492270E+001 -6.392116E+001  4.224654E+001 -6.357877E+001  4.523608E+001 -6.100640E-002 -4.549769E+001
 290.0000     -6.315185E-002 -4.656284E+001 -6.336132E+001  4.050809E+001 -6.340459E+001  4.840049E+001 -6.476696E-002 -4.714487E+001
 300.0000     -6.553623E-002 -4.818031E+001 -6.436852E+001  5.230688E+001 -6.408093E+001  4.039227E+001 -6.715974E-002 -4.878978E+001
 310.0000     -6.984506E-002 -4.985626E+001 -6.333069E+001  4.303354E+001 -6.351791E+001  3.899030E+001 -7.059437E-002 -5.044064E+001
 320.0000     -7.223725E-002 -5.149180E+001 -6.289312E+001  4.257669E+001 -6.390845E+001  4.162642E+001 -7.230017E-002 -5.211988E+001
 330.0000     -7.396172E-002 -5.314053E+001 -6.344883E+001  3.774634E+001 -6.450439E+001  3.952507E+001 -7.705265E-002 -5.378216E+001
 340.0000     -7.949138E-002 -5.481054E+001 -6.362244E+001  3.633483E+001 -6.366838E+001  4.008099E+001 -8.131052E-002 -5.544551E+001
 350.0000     -8.474313E-002 -5.647477E+001 -6.294305E+001  3.823541E+001 -6.398917E+001  3.602188E+001 -8.418474E-002 -5.713963E+001
 360.0000     -8.759237E-002 -5.815401E+001 -6.358281E+001  3.701087E+001 -6.379337E+001  3.600658E+001 -8.528524E-002 -5.884706E+001
 370.0000     -8.926225E-002 -5.981433E+001 -6.440089E+001  3.440862E+001 -6.391914E+001  3.789846E+001 -9.090354E-002 -6.053054E+001
 380.0000     -9.348197E-002 -6.148238E+001 -6.388637E+001  3.174203E+001 -6.405389E+001  3.188562E+001 -9.477456E-002 -6.223345E+001
 390.0000     -9.624049E-002 -6.318964E+001 -6.445413E+001  3.336036E+001 -6.392600E+001  3.147776E+001 -9.812360E-002 -6.392518E+001
 400.0000     -1.014726E-001 -6.486755E+001 -6.583317E+001  3.018543E+001 -6.591817E+001  2.621939E+001 -1.038274E-001 -6.562630E+001
 410.0000     -1.107738E-001 -6.655431E+001 -6.610067E+001  3.322405E+001 -6.720457E+001  3.870420E+001 -1.076059E-001 -6.733497E+001
 420.0000     -1.148298E-001 -6.828361E+001 -6.703131E+001  2.957448E+001 -6.579054E+001  3.421479E+001 -1.139884E-001 -6.906995E+001
 430.0000     -1.189096E-001 -7.000589E+001 -6.717751E+001  3.130710E+001 -6.881281E+001  3.511894E+001 -1.164690E-001 -7.078885E+001
 440.0000     -1.217942E-001 -7.170961E+001 -6.850021E+001  3.686481E+001 -6.952631E+001  2.622553E+001 -1.238400E-001 -7.252506E+001
 450.0000     -1.297783E-001 -7.344399E+001 -7.052055E+001  4.761600E+001 -7.207938E+001  5.392965E+001 -1.286745E-001 -7.425152E+001
 460.0000     -1.342766E-001 -7.518175E+001 -7.246720E+001  5.671574E+001 -7.199284E+001  6.041470E+001 -1.362233E-001 -7.599277E+001
 470.0000     -1.404836E-001 -7.692142E+001 -7.729852E+001  9.032896E+001 -7.494453E+001  9.984838E+001 -1.405839E-001 -7.774236E+001
 480.0000     -1.462174E-001 -7.869323E+001 -7.400212E+001  1.401026E+002 -7.431339E+001  1.241825E+002 -1.439125E-001 -7.949303E+001
 490.0000     -1.533246E-001 -8.044192E+001 -7.001630E+001  1.485212E+002 -7.061195E+001  1.522732E+002 -1.521318E-001 -8.126276E+001
 500.0000     -1.594843E-001 -8.220129E+001 -6.696938E+001  1.621774E+002 -6.662908E+001  1.570910E+002 -1.581255E-001 -8.303500E+001
 510.0000     -1.690821E-001 -8.400455E+001 -6.424769E+001  1.640270E+002 -6.328116E+001  1.613985E+002 -1.663112E-001 -8.481701E+001
 520.0000     -1.723523E-001 -8.580104E+001 -6.098034E+001  1.662280E+002 -6.080448E+001  1.650591E+002 -1.696787E-001 -8.661599E+001
 530.0000     -1.826950E-001 -8.760442E+001 -5.874847E+001  1.655080E+002 -5.880684E+001  1.639769E+002 -1.778009E-001 -8.843082E+001
 540.0000     -1.886631E-001 -8.943320E+001 -5.660062E+001  1.650996E+002 -5.636558E+001  1.662977E+002 -1.827328E-001 -9.025652E+001
 550.0000     -1.953896E-001 -9.128148E+001 -5.475652E+001  1.654005E+002 -5.480154E+001  1.634483E+002 -1.902366E-001 -9.209542E+001
 560.0000     -2.023070E-001 -9.313308E+001 -5.312020E+001  1.651248E+002 -5.306881E+001  1.639079E+002 -2.003192E-001 -9.392243E+001
 570.0000     -2.130790E-001 -9.496998E+001 -5.128245E+001  1.630455E+002 -5.133891E+001  1.629479E+002 -2.064131E-001 -9.578405E+001
 580.0000     -2.211155E-001 -9.688110E+001 -4.990347E+001  1.611910E+002 -4.982482E+001  1.622220E+002 -2.145413E-001 -9.765060E+001
 590.0000     -2.264796E-001 -9.879559E+001 -4.849223E+001  1.607106E+002 -4.838793E+001  1.602080E+002 -2.225635E-001 -9.950569E+001
 600.0000     -2.396701E-001 -1.007031E+002 -4.698714E+001  1.587264E+002 -4.695207E+001  1.586162E+002 -2.298563E-001 -1.014016E+002
 610.0000     -2.469838E-001 -1.026308E+002 -4.570136E+001  1.566093E+002 -4.566692E+001  1.570126E+002 -2.394931E-001 -1.033251E+002
 620.0000     -2.576997E-001 -1.045936E+002 -4.426236E+001  1.549751E+002 -4.429705E+001  1.552329E+002 -2.462090E-001 -1.052740E+002
 630.0000     -2.722451E-001 -1.065773E+002 -4.308930E+001  1.531935E+002 -4.300653E+001  1.533967E+002 -2.613289E-001 -1.072383E+002
 640.0000     -2.852052E-001 -1.085971E+002 -4.179463E+001  1.516687E+002 -4.179100E+001  1.515144E+002 -2.725783E-001 -1.092037E+002
 650.0000     -2.916387E-001 -1.106317E+002 -4.054948E+001  1.498015E+002 -4.055413E+001  1.498832E+002 -2.831649E-001 -1.112021E+002
 660.0000     -3.060184E-001 -1.126721E+002 -3.936623E+001  1.475879E+002 -3.932099E+001  1.477970E+002 -2.962365E-001 -1.132120E+002
 670.0000     -3.175123E-001 -1.147849E+002 -3.815100E+001  1.458935E+002 -3.817276E+001  1.457822E+002 -3.034726E-001 -1.152730E+002
 680.0000     -3.322296E-001 -1.168936E+002 -3.699216E+001  1.436873E+002 -3.696200E+001  1.435741E+002 -3.134283E-001 -1.173512E+002
 690.0000     -3.444157E-001 -1.190368E+002 -3.586773E+001  1.417939E+002 -3.584445E+001  1.414820E+002 -3.287496E-001 -1.194448E+002
 700.0000     -3.589545E-001 -1.212418E+002 -3.471492E+001  1.394999E+002 -3.471850E+001  1.393428E+002 -3.431923E-001 -1.215832E+002
 710.0000     -3.730343E-001 -1.234331E+002 -3.359523E+001  1.375193E+002 -3.358719E+001  1.374180E+002 -3.553630E-001 -1.237379E+002
 720.0000     -3.846735E-001 -1.257103E+002 -3.249199E+001  1.351543E+002 -3.250126E+001  1.350735E+002 -3.687631E-001 -1.259572E+002
 730.0000     -4.041120E-001 -1.280344E+002 -3.139132E+001  1.329677E+002 -3.136067E+001  1.329615E+002 -3.781320E-001 -1.281723E+002
 740.0000     -4.201163E-001 -1.304062E+002 -3.031564E+001  1.306573E+002 -3.030226E+001  1.307054E+002 -3.966404E-001 -1.304305E+002
 750.0000     -4.381265E-001 -1.327985E+002 -2.923468E+001  1.282857E+002 -2.922373E+001  1.282516E+002 -4.137365E-001 -1.327933E+002
 760.0000     -4.573088E-001 -1.352397E+002 -2.816039E+001  1.259529E+002 -2.815857E+001  1.258465E+002 -4.316089E-001 -1.351724E+002
 770.0000     -4.734438E-001 -1.377710E+002 -2.709694E+001  1.234048E+002 -2.708946E+001  1.233594E+002 -4.497692E-001 -1.375751E+002
 780.0000     -4.986621E-001 -1.403377E+002 -2.603228E+001  1.208996E+002 -2.602615E+001  1.208241E+002 -4.701714E-001 -1.400474E+002
 790.0000     -5.243384E-001 -1.429898E+002 -2.498156E+001  1.182958E+002 -2.497809E+001  1.182010E+002 -4.930223E-001 -1.426010E+002
 800.0000     -5.537061E-001 -1.457277E+002 -2.392667E+001  1.155581E+002 -2.393125E+001  1.155536E+002 -5.165330E-001 -1.452057E+002
 810.0000     -5.797673E-001 -1.485570E+002 -2.288454E+001  1.127154E+002 -2.288340E+001  1.127363E+002 -5.451496E-001 -1.478974E+002
 820.0000     -6.138685E-001 -1.514811E+002 -2.184096E+001  1.098784E+002 -2.183965E+001  1.098559E+002 -5.761405E-001 -1.506577E+002
 830.0000     -6.528730E-001 -1.544715E+002 -2.080524E+001  1.069302E+002 -2.079283E+001  1.069016E+002 -6.116796E-001 -1.535291E+002
 840.0000     -6.924012E-001 -1.576057E+002 -1.976293E+001  1.038052E+002 -1.976199E+001  1.037925E+002 -6.535292E-001 -1.565056E+002
 850.0000     -7.440360E-001 -1.608650E+002 -1.872984E+001  1.005766E+002 -1.872848E+001  1.005266E+002 -6.993636E-001 -1.595981E+002
 860.0000     -7.986790E-001 -1.642814E+002 -1.769699E+001  9.717832E+001 -1.769031E+001  9.719307E+001 -7.519318E-001 -1.627972E+002
 870.0000     -8.660269E-001 -1.678517E+002 -1.666362E+001  9.366487E+001 -1.666434E+001  9.363664E+001 -8.140511E-001 -1.661104E+002
 880.0000     -9.373167E-001 -1.715842E+002 -1.563384E+001  8.995054E+001 -1.563310E+001  8.992720E+001 -8.868670E-001 -1.696031E+002
 890.0000     -1.031409E+000 -1.754865E+002 -1.461310E+001  8.607800E+001 -1.460752E+001  8.608014E+001 -9.709744E-001 -1.732186E+002
 900.0000     -1.134532E+000 -1.796328E+002 -1.359277E+001  8.196998E+001 -1.359184E+001  8.198087E+001 -1.071079E+000 -1.770152E+002
 910.0000     -1.254328E+000  1.760333E+002 -1.257382E+001  7.767014E+001 -1.257216E+001  7.765623E+001 -1.185826E+000  1.789571E+002
 920.0000     -1.407674E+000  1.714269E+002 -1.157056E+001  7.313885E+001 -1.157317E+001  7.315358E+001 -1.328257E+000  1.747863E+002
 930.0000     -1.592970E+000  1.665449E+002 -1.058812E+001  6.834168E+001 -1.058327E+001  6.830535E+001 -1.501686E+000  1.703725E+002
 940.0000     -1.812744E+000  1.613907E+002 -9.615902E+000  6.319539E+001 -9.612430E+000  6.319635E+001 -1.711394E+000  1.656871E+002
 950.0000     -2.081695E+000  1.558891E+002 -8.667667E+000  5.776988E+001 -8.667515E+000  5.773909E+001 -1.965557E+000  1.607532E+002
 960.0000     -2.405667E+000  1.501281E+002 -7.747327E+000  5.205711E+001 -7.746503E+000  5.206460E+001 -2.275232E+000  1.556097E+002
 970.0000     -2.805297E+000  1.440306E+002 -6.871473E+000  4.603757E+001 -6.872642E+000  4.603306E+001 -2.654911E+000  1.502399E+002
 980.0000     -3.285071E+000  1.376319E+002 -6.043117E+000  3.975121E+001 -6.043247E+000  3.974082E+001 -3.111534E+000  1.446465E+002
 990.0000     -3.860738E+000  1.309121E+002 -5.270683E+000  3.318274E+001 -5.269030E+000  3.315857E+001 -3.665878E+000  1.389328E+002
1000.0000     -4.555041E+000  1.239564E+002 -4.565152E+000  2.638078E+001 -4.565890E+000  2.636687E+001 -4.325593E+000  1.331111E+002
1010.0000     -5.379777E+000  1.168066E+002 -3.924170E+000  1.941262E+001 -3.930949E+000  1.940805E+001 -5.103405E+000  1.273208E+002
1020.0000     -6.349001E+000  1.095049E+002 -3.363723E+000  1.234308E+001 -3.366986E+000  1.235837E+001 -6.018463E+000  1.216594E+002
1030.0000     -7.484502E+000  1.021412E+002 -2.882521E+000  5.294417E+000 -2.879426E+000  5.287175E+000 -7.082012E+000  1.163194E+002
1040.0000     -8.807092E+000  9.472051E+001 -2.474297E+000 -1.699858E+000 -2.470187E+000 -1.695497E+000 -8.300103E+000  1.114491E+002
1050.0000     -1.033594E+001  8.734354E+001 -2.134435E+000 -8.563956E+000 -2.135629E+000 -8.573671E+000 -9.677332E+000  1.072305E+002
1060.0000     -1.210767E+001  7.994256E+001 -1.860844E+000 -1.523355E+001 -1.861368E+000 -1.524059E+001 -1.122978E+001  1.040276E+002
1070.0000     -1.418456E+001  7.246016E+001 -1.644948E+000 -2.165576E+001 -1.644984E+000 -2.166117E+001 -1.295957E+001  1.021256E+002
1080.0000     -1.665436E+001  6.468954E+001 -1.473114E+000 -2.781524E+001 -1.473502E+000 -2.782104E+001 -1.483967E+001  1.019888E+002
1090.0000     -1.972016E+001  5.588694E+001 -1.340242E+000 -3.366460E+001 -1.340805E+000 -3.369344E+001 -1.686793E+001  1.047275E+002
1100.0000     -2.377752E+001  4.468887E+001 -1.238522E+000 -3.926662E+001 -1.238321E+000 -3.927169E+001 -1.887501E+001  1.109961E+002
1110.0000     -2.971925E+001  2.378459E+001 -1.162758E+000 -4.458378E+001 -1.162446E+000 -4.456683E+001 -2.059067E+001  1.216120E+002
1120.0000     -3.553599E+001 -4.675282E+001 -1.102720E+000 -4.961199E+001 -1.102953E+000 -4.963071E+001 -2.158384E+001  1.350633E+002
1130.0000     -2.991522E+001 -1.036279E+002 -1.057616E+000 -5.441964E+001 -1.056898E+000 -5.442558E+001 -2.171918E+001  1.483987E+002
1140.0000     -2.576025E+001 -1.207759E+002 -1.021417E+000 -5.899799E+001 -1.021809E+000 -5.899758E+001 -2.118407E+001  1.587037E+002
1150.0000     -2.323224E+001 -1.300380E+002 -9.910326E-001 -6.334789E+001 -9.912053E-001 -6.337342E+001 -2.044842E+001  1.647647E+002
1160.0000     -2.156702E+001 -1.363592E+002 -9.663722E-001 -6.753303E+001 -9.658784E-001 -6.753005E+001 -1.975413E+001  1.683359E+002
1170.0000     -2.043677E+001 -1.417608E+002 -9.436557E-001 -7.153247E+001 -9.462312E-001 -7.154236E+001 -1.916371E+001  1.699635E+002
1180.0000     -1.963928E+001 -1.463819E+002 -9.227303E-001 -7.537624E+001 -9.255618E-001 -7.539228E+001 -1.871810E+001  1.701909E+002
1190.0000     -1.907142E+001 -1.506763E+002 -9.069934E-001 -7.909013E+001 -9.060516E-001 -7.910770E+001 -1.839932E+001  1.696569E+002
1200.0000     -1.871474E+001 -1.543754E+002 -8.890533E-001 -8.265854E+001 -8.891300E-001 -8.268442E+001 -1.819883E+001  1.684470E+002
1210.0000     -1.848460E+001 -1.579390E+002 -8.707270E-001 -8.611574E+001 -8.702307E-001 -8.613411E+001 -1.809006E+001  1.667879E+002
1220.0000     -1.837691E+001 -1.612929E+002 -8.535716E-001 -8.946703E+001 -8.534338E-001 -8.948890E+001 -1.806701E+001  1.651793E+002
1230.0000     -1.837695E+001 -1.644473E+002 -8.331800E-001 -9.273634E+001 -8.319236E-001 -9.272636E+001 -1.812606E+001  1.632004E+002
1240.0000     -1.848371E+001 -1.674543E+002 -8.137150E-001 -9.587566E+001 -8.146617E-001 -9.589993E+001 -1.828669E+001  1.611507E+002
1250.0000     -1.866264E+001 -1.703119E+002 -7.931023E-001 -9.897565E+001 -7.948451E-001 -9.897158E+001 -1.848792E+001  1.588320E+002
1260.0000     -1.890502E+001 -1.728345E+002 -7.777184E-001 -1.019571E+002 -7.758027E-001 -1.019781E+002 -1.881780E+001  1.566666E+002
1270.0000     -1.924979E+001 -1.751399E+002 -7.585052E-001 -1.048934E+002 -7.582809E-001 -1.048987E+002 -1.916786E+001  1.544836E+002
1280.0000     -1.964252E+001 -1.774611E+002 -7.419677E-001 -1.077574E+002 -7.397892E-001 -1.077510E+002 -1.963051E+001  1.523430E+002
1290.0000     -2.012066E+001 -1.794028E+002 -7.226543E-001 -1.105238E+002 -7.230032E-001 -1.105517E+002 -2.017444E+001  1.500670E+002
1300.0000     -2.065507E+001  1.788437E+002 -7.028345E-001 -1.132700E+002 -7.054979E-001 -1.132749E+002 -2.079167E+001  1.477610E+002
1310.0000     -2.131227E+001  1.772450E+002 -6.880571E-001 -1.159529E+002 -6.870412E-001 -1.159401E+002 -2.147788E+001  1.455031E+002
1320.0000     -2.202971E+001  1.764284E+002 -6.711605E-001 -1.185532E+002 -6.704674E-001 -1.185696E+002 -2.229591E+001  1.429820E+002
1330.0000     -2.284333E+001  1.755534E+002 -6.552243E-001 -1.211140E+002 -6.546286E-001 -1.211238E+002 -2.320553E+001  1.407803E+002
1340.0000     -2.380124E+001  1.756196E+002 -6.413791E-001 -1.236278E+002 -6.401039E-001 -1.236441E+002 -2.430872E+001  1.384445E+002
1350.0000     -2.491725E+001  1.762433E+002 -6.259069E-001 -1.261082E+002 -6.272905E-001 -1.261059E+002 -2.552057E+001  1.360150E+002
1360.0000     -2.606391E+001  1.779182E+002 -6.124865E-001 -1.285091E+002 -6.133770E-001 -1.285156E+002 -2.706205E+001  1.333712E+002
1370.0000     -2.745514E+001 -1.792478E+002 -6.002817E-001 -1.308603E+002 -6.009198E-001 -1.308772E+002 -2.901470E+001  1.304543E+002
1380.0000     -2.902593E+001 -1.733505E+002 -5.906782E-001 -1.332130E+002 -5.914223E-001 -1.332049E+002 -3.139084E+001  1.268687E+002
1390.0000     -3.056715E+001 -1.641959E+002 -5.789019E-001 -1.354906E+002 -5.809411E-001 -1.354863E+002 -3.495568E+001  1.234829E+002
1400.0000     -3.190023E+001 -1.503364E+002 -5.711308E-001 -1.377151E+002 -5.716156E-001 -1.377176E+002 -4.067057E+001  1.174056E+002
1410.0000     -3.246738E+001 -1.325409E+002 -5.618604E-001 -1.398956E+002 -5.611445E-001 -1.399144E+002 -5.585239E+001  3.732181E+001
1420.0000     -3.206930E+001 -1.144104E+002 -5.544100E-001 -1.420626E+002 -5.536976E-001 -1.420683E+002 -4.138150E+001 -4.498828E+001
1430.0000     -3.073569E+001 -1.002037E+002 -5.473470E-001 -1.441697E+002 -5.482421E-001 -1.441710E+002 -3.532343E+001 -5.421552E+001
1440.0000     -2.918812E+001 -9.112473E+001 -5.401704E-001 -1.462495E+002 -5.411198E-001 -1.462589E+002 -3.180950E+001 -5.827447E+001
1450.0000     -2.771102E+001 -8.467184E+001 -5.370305E-001 -1.482894E+002 -5.354575E-001 -1.483009E+002 -2.936378E+001 -6.098284E+001
