! Mini-Circuits
! S2P DATA File Format
! Type: High Pass LTCC Surface Mount Filter
! Model: HFCN-2100+   
! Note: All S Parameters are in dB deg format
! TEST CONDITIONS: INPUT POWER = 0dBm @Temperature = +25degC
! 401 Frequency points
!
# MHz S DB R 50
!    FREQ       dB(S11)   PHS(S11)  dB(S21)   PHS(S21)  dB(S12)   PHS(S12)  dB(S22)   PHS(S22) 
   50.000000     0.005    -6.774   -65.005    76.627   -80.088   135.700    -0.007    -6.117 
   70.000000     0.010    -9.773   -70.184    67.362   -87.200   -12.265    -0.010    -8.511 
   90.000000    -0.012   -12.249   -68.066    51.457   -72.340    40.908    -0.009   -11.011 
  110.000000    -0.024   -15.045   -69.080    42.341   -72.385    44.898    -0.030   -13.607 
  130.000000    -0.022   -17.663   -69.291    55.402   -71.994    73.676    -0.002   -15.996 
  150.000000    -0.021   -20.240   -68.560    81.403   -66.361    73.360    -0.027   -18.375 
  170.000000    -0.008   -22.998   -65.779    63.314   -63.979    74.245    -0.025   -20.972 
  190.000000    -0.016   -25.691   -63.849    68.175   -63.007    65.394    -0.030   -23.575 
  210.000000    -0.039   -28.219   -62.969    48.248   -62.679    62.748    -0.029   -25.875 
  230.000000    -0.021   -31.118   -63.286    62.433   -64.370    55.417    -0.021   -28.406 
  250.000000    -0.042   -33.776   -62.477    62.181   -62.381    50.389    -0.025   -30.775 
  270.000000    -0.041   -36.554   -62.077    45.466   -62.391    57.841    -0.050   -33.423 
  290.000000    -0.033   -39.255   -61.994    46.692   -61.358    51.478    -0.008   -35.760 
  310.000000    -0.034   -41.928   -60.848    52.355   -60.531    48.438    -0.045   -38.401 
  330.000000    -0.043   -44.707   -59.749    50.337   -59.700    49.571    -0.037   -40.765 
  350.000000    -0.055   -47.352   -59.608    44.459   -59.639    48.074    -0.042   -43.148 
  370.000000    -0.046   -50.126   -58.426    45.327   -58.879    39.512    -0.050   -45.912 
  390.000000    -0.051   -52.919   -58.849    37.846   -58.337    37.487    -0.034   -48.255 
  410.000000    -0.031   -55.549   -58.575    40.161   -58.611    36.650    -0.043   -50.881 
  430.000000    -0.050   -58.327   -58.090    32.995   -58.363    37.005    -0.060   -53.405 
  450.000000    -0.053   -60.938   -58.222    32.244   -57.902    30.509    -0.054   -55.872 
  470.000000    -0.083   -63.798   -58.070    23.552   -57.636    30.568    -0.047   -58.457 
  490.000000    -0.050   -66.630   -57.526    27.861   -57.201    26.708    -0.049   -60.949 
  510.000000    -0.067   -69.428   -57.345    21.947   -57.362    24.496    -0.097   -63.478 
  530.000000    -0.076   -72.165   -56.648    20.472   -56.915    21.171    -0.058   -66.195 
  550.000000    -0.076   -74.888   -57.185    17.479   -57.241    17.314    -0.045   -68.500 
  570.000000    -0.081   -77.700   -56.714    16.772   -57.060    16.008    -0.073   -71.202 
  590.000000    -0.091   -80.574   -56.620    11.308   -56.658    14.265    -0.084   -73.799 
  610.000000    -0.094   -83.317   -56.683    10.954   -56.358     8.596    -0.068   -76.402 
  630.000000    -0.092   -86.053   -56.376     7.178   -56.442     6.186    -0.080   -78.908 
  650.000000    -0.116   -88.955   -56.205     4.097   -56.405     4.228    -0.087   -81.616 
  670.000000    -0.097   -91.656   -56.135     3.026   -56.312     3.510    -0.095   -84.195 
  690.000000    -0.124   -94.461   -56.100    -0.418   -56.479    -0.227    -0.081   -86.792 
  710.000000    -0.109   -97.372   -56.124    -1.671   -56.480    -4.766    -0.097   -89.378 
  730.000000    -0.127  -100.311   -56.671    -8.738   -56.800    -6.816    -0.110   -92.105 
  750.000000    -0.122  -103.053   -57.072   -10.076   -56.839    -9.564    -0.122   -94.635 
  770.000000    -0.136  -105.983   -56.588   -12.332   -56.774   -11.830    -0.116   -97.327 
  790.000000    -0.135  -108.865   -57.370   -16.820   -56.881   -14.928    -0.124  -100.092 
  810.000000    -0.139  -111.873   -57.684   -18.432   -57.739   -19.372    -0.114  -102.787 
  830.000000    -0.173  -114.591   -57.637   -20.741   -57.966   -24.467    -0.125  -105.451 
  850.000000    -0.174  -117.530   -58.358   -29.817   -58.723   -27.319    -0.159  -108.165 
  870.000000    -0.146  -120.616   -59.705   -29.210   -59.758   -26.163    -0.135  -110.994 
  890.000000    -0.164  -123.424   -61.146   -30.330   -60.707   -30.473    -0.141  -113.595 
  910.000000    -0.189  -126.412   -61.946   -34.225   -61.836   -31.500    -0.160  -116.465 
  930.000000    -0.181  -129.433   -63.748   -36.315   -64.067   -35.883    -0.171  -119.257 
  950.000000    -0.208  -132.488   -66.734   -36.061   -65.987   -30.909    -0.164  -121.952 
  970.000000    -0.188  -135.468   -68.636   -29.136   -70.360   -42.306    -0.173  -124.722 
  990.000000    -0.213  -138.429   -81.940    -1.561   -75.693   -12.875    -0.187  -127.776 
 1010.000000    -0.219  -141.495   -73.514   105.918   -74.680   109.031    -0.193  -130.445 
 1030.000000    -0.214  -144.574   -67.352   112.896   -67.695   121.888    -0.199  -133.356 
 1050.000000    -0.223  -147.594   -62.770   119.925   -62.180   119.898    -0.198  -136.166 
 1070.000000    -0.228  -150.860   -58.878   117.387   -59.103   115.916    -0.208  -139.167 
 1090.000000    -0.220  -153.934   -56.582   111.908   -56.655   113.684    -0.217  -142.020 
 1110.000000    -0.234  -156.869   -54.572   111.480   -54.512   112.471    -0.236  -144.883 
 1130.000000    -0.245  -160.148   -52.606   110.599   -52.496   111.030    -0.232  -147.832 
 1150.000000    -0.263  -163.378   -50.587   108.127   -50.278   107.603    -0.220  -150.829 
 1170.000000    -0.295  -166.510   -48.697   104.403   -48.704   104.907    -0.247  -153.883 
 1190.000000    -0.281  -169.837   -47.220   100.945   -47.272   101.304    -0.264  -156.932 
 1210.000000    -0.291  -172.911   -45.811    98.898   -45.770    98.737    -0.259  -159.959 
 1230.000000    -0.305  -176.316   -44.395    96.433   -44.309    95.978    -0.269  -163.164 
 1250.000000    -0.315  -179.594   -42.856    93.274   -42.926    93.124    -0.287  -166.385 
 1270.000000    -0.311   177.076   -41.552    89.602   -41.596    89.507    -0.290  -169.472 
 1290.000000    -0.333   173.746   -40.336    85.834   -40.288    85.971    -0.285  -172.583 
 1310.000000    -0.343   170.290   -39.062    82.817   -39.076    82.728    -0.304  -175.857 
 1330.000000    -0.344   166.842   -37.789    79.171   -37.782    79.044    -0.327  -179.157 
 1350.000000    -0.339   163.315   -36.658    75.419   -36.683    75.706    -0.328   177.522 
 1370.000000    -0.365   159.904   -35.457    72.195   -35.521    71.889    -0.335   174.401 
 1390.000000    -0.378   156.230   -34.464    68.377   -34.394    68.413    -0.364   170.792 
 1410.000000    -0.371   152.718   -33.337    65.028   -33.339    64.889    -0.380   167.360 
 1430.000000    -0.396   149.077   -32.223    61.549   -32.235    61.400    -0.375   163.908 
 1450.000000    -0.413   145.438   -31.130    57.725   -31.097    57.800    -0.379   160.384 
 1470.000000    -0.436   141.747   -30.099    54.110   -30.118    54.035    -0.419   156.772 
 1490.000000    -0.461   137.862   -29.039    50.726   -29.002    50.550    -0.443   153.168 
 1510.000000    -0.460   134.075   -27.912    46.897   -27.903    46.836    -0.432   149.310 
 1530.000000    -0.459   130.166   -26.844    42.661   -26.822    42.756    -0.470   145.589 
 1550.000000    -0.484   126.076   -25.802    38.673   -25.800    38.789    -0.501   141.691 
 1570.000000    -0.497   122.221   -24.751    34.495   -24.747    34.577    -0.489   137.690 
 1590.000000    -0.535   117.951   -23.722    30.105   -23.711    30.191    -0.542   133.683 
 1610.000000    -0.548   113.855   -22.740    25.996   -22.717    25.838    -0.575   129.596 
 1630.000000    -0.608   109.567   -21.718    21.596   -21.677    21.472    -0.584   125.348 
 1650.000000    -0.619   105.106   -20.705    16.948   -20.701    16.845    -0.627   120.895 
 1670.000000    -0.632   100.685   -19.666    12.200   -19.666    12.325    -0.648   116.359 
 1690.000000    -0.684    96.161   -18.713     7.570   -18.684     7.563    -0.686   111.919 
 1710.000000    -0.705    91.380   -17.714     2.770   -17.720     2.752    -0.731   107.159 
 1730.000000    -0.778    86.531   -16.743    -2.236   -16.707    -2.490    -0.768   102.149 
 1750.000000    -0.829    81.536   -15.728    -7.584   -15.743    -7.434    -0.878    97.102 
 1770.000000    -0.901    76.351   -14.789   -12.595   -14.748   -12.967    -0.927    91.776 
 1790.000000    -0.973    71.082   -13.804   -18.233   -13.815   -18.090    -1.014    86.429 
 1810.000000    -1.072    65.582   -12.836   -23.670   -12.839   -23.950    -1.136    80.591 
 1830.000000    -1.176    59.978   -11.902   -29.740   -11.907   -29.792    -1.248    74.790 
 1850.000000    -1.338    54.280   -10.990   -35.811   -10.965   -35.834    -1.376    68.696 
 1870.000000    -1.486    48.241   -10.096   -42.162   -10.083   -42.219    -1.567    62.151 
 1890.000000    -1.661    41.984    -9.204   -48.731    -9.192   -48.605    -1.757    55.446 
 1910.000000    -1.874    35.567    -8.326   -55.478    -8.333   -55.704    -2.022    48.494 
 1930.000000    -2.139    28.862    -7.505   -62.630    -7.486   -62.693    -2.261    41.357 
 1950.000000    -2.462    22.162    -6.741   -69.968    -6.741   -69.890    -2.622    33.784 
 1970.000000    -2.809    15.305    -6.006   -77.191    -6.013   -77.325    -3.017    26.113 
 1990.000000    -3.240     8.489    -5.316   -84.744    -5.333   -84.943    -3.436    17.993 
 2010.000000    -3.738     1.343    -4.729   -92.568    -4.703   -92.552    -3.950     9.851 
 2030.000000    -4.287    -5.599    -4.122  -100.315    -4.144  -100.435    -4.528     1.426 
 2050.000000    -4.889   -12.670    -3.651  -108.355    -3.658  -108.360    -5.206    -7.118 
 2070.000000    -5.549   -19.264    -3.194  -116.091    -3.203  -116.232    -5.916   -15.719 
 2100.000000    -6.695   -29.124    -2.670  -127.601    -2.644  -127.685    -7.126   -28.831 
 2110.000000    -7.107   -32.227    -2.471  -131.443    -2.493  -131.394    -7.555   -33.276 
 2130.000000    -7.924   -38.196    -2.188  -138.779    -2.201  -138.900    -8.452   -41.944 
 2150.000000    -8.807   -43.727    -1.947  -146.187    -1.956  -146.185    -9.399   -50.909 
 2170.000000    -9.682   -49.117    -1.756  -153.310    -1.766  -153.315   -10.334   -59.957 
 2200.000000   -11.027   -56.046    -1.525  -163.545    -1.530  -163.646   -11.853   -73.182 
 2210.000000   -11.455   -57.915    -1.478  -166.860    -1.457  -166.926   -12.340   -77.779 
 2230.000000   -12.323   -62.145    -1.341  -173.319    -1.331  -173.409   -13.338   -87.249 
 2250.000000   -13.226   -65.825    -1.252  -179.655    -1.247  -179.678   -14.230   -95.988 
 2270.000000   -14.006   -69.632    -1.175   174.245    -1.159   174.292   -15.067  -105.710 
 2290.000000   -14.769   -73.124    -1.109   168.609    -1.117   168.432   -15.956  -114.376 
 2310.000000   -15.442   -76.083    -1.077   162.719    -1.048   162.701   -16.612  -123.714 
 2330.000000   -16.168   -78.773    -1.009   157.262    -1.006   157.276   -17.313  -132.850 
 2350.000000   -16.696   -82.296    -0.972   151.927    -0.987   151.733   -17.828  -141.570 
 2370.000000   -17.174   -85.960    -0.949   146.708    -0.921   146.544   -18.350  -149.997 
 2400.000000   -17.794   -91.824    -0.899   139.047    -0.923   139.164   -18.614  -161.316 
 2410.000000   -17.948   -93.049    -0.871   136.652    -0.903   136.541   -18.835  -164.817 
 2430.000000   -18.307   -97.309    -0.865   131.814    -0.869   131.790   -18.982  -171.424 
 2450.000000   -18.432  -101.719    -0.858   127.041    -0.836   126.980   -19.037  -177.320 
 2470.000000   -18.719  -106.387    -0.837   122.413    -0.815   122.426   -19.174   176.753 
 2500.000000   -18.953  -114.244    -0.792   115.487    -0.785   115.559   -19.034   169.873 
 2510.000000   -18.972  -116.914    -0.802   113.432    -0.796   113.496   -18.945   167.609 
 2530.000000   -19.133  -121.212    -0.780   109.060    -0.765   109.037   -18.999   164.474 
 2550.000000   -19.027  -127.751    -0.745   104.888    -0.761   104.882   -19.025   160.740 
 2570.000000   -19.045  -133.367    -0.760   100.699    -0.753   100.559   -18.781   157.018 
 2590.000000   -18.966  -138.146    -0.736    96.453    -0.755    96.598   -18.658   154.750 
 2610.000000   -18.804  -144.783    -0.753    92.433    -0.724    92.572   -18.537   151.563 
 2630.000000   -18.873  -150.843    -0.734    88.458    -0.714    88.472   -18.344   149.407 
 2650.000000   -18.698  -157.096    -0.716    84.500    -0.740    84.498   -18.291   146.675 
 2670.000000   -18.550  -162.116    -0.727    80.583    -0.713    80.445   -18.077   144.606 
 2690.000000   -18.313  -167.787    -0.732    76.983    -0.719    76.924   -17.915   141.810 
 2710.000000   -18.229  -173.582    -0.698    73.134    -0.704    73.001   -17.671   139.820 
 2730.000000   -17.969  -179.204    -0.717    69.330    -0.703    69.359   -17.542   137.971 
 2750.000000   -17.762   175.460    -0.692    65.815    -0.710    65.705   -17.344   135.316 
 2770.000000   -17.578   170.521    -0.683    62.220    -0.682    62.066   -17.031   133.396 
 2790.000000   -17.439   164.565    -0.676    58.825    -0.697    58.592   -16.839   131.566 
 2810.000000   -17.137   160.624    -0.694    55.069    -0.706    55.261   -16.693   129.431 
 2830.000000   -16.883   155.555    -0.684    51.636    -0.696    51.633   -16.539   127.236 
 2850.000000   -16.710   150.648    -0.689    48.311    -0.676    48.294   -16.373   125.171 
 2870.000000   -16.487   146.146    -0.714    44.904    -0.691    44.879   -16.150   122.768 
 2890.000000   -16.296   142.041    -0.689    41.607    -0.700    41.501   -16.016   119.908 
 2910.000000   -16.131   137.259    -0.682    38.210    -0.674    38.327   -15.855   118.138 
 2930.000000   -15.871   132.841    -0.696    35.121    -0.699    35.003   -15.637   115.539 
 2950.000000   -15.738   128.677    -0.680    31.839    -0.680    31.664   -15.467   113.877 
 2970.000000   -15.609   124.923    -0.698    28.552    -0.679    28.756   -15.311   111.774 
 2990.000000   -15.420   120.162    -0.689    25.599    -0.672    25.473   -15.200   109.050 
 3010.000000   -15.276   116.637    -0.685    22.394    -0.659    22.373   -15.048   106.944 
 3030.000000   -15.165   112.686    -0.681    19.301    -0.703    19.330   -14.896   104.726 
 3050.000000   -15.014   108.770    -0.696    16.103    -0.674    16.286   -14.801   102.713 
 3070.000000   -14.854   105.003    -0.717    13.194    -0.674    13.272   -14.619   100.312 
 3090.000000   -14.773   101.609    -0.683    10.195    -0.683    10.228   -14.549    97.953 
 3120.000000   -14.570    95.992    -0.712     5.767    -0.676     5.876   -14.425    94.451 
 3160.000000   -14.315    89.143    -0.684    -0.020    -0.697    -0.123   -14.202    89.633 
 3200.000000   -14.248    82.506    -0.717    -5.702    -0.690    -5.561   -14.052    85.440 
 3240.000000   -14.024    75.744    -0.692   -11.190    -0.691   -11.271   -13.933    80.898 
 3280.000000   -13.859    69.479    -0.721   -16.829    -0.713   -16.798   -13.799    76.487 
 3320.000000   -13.792    62.949    -0.695   -22.243    -0.718   -22.338   -13.771    72.106 
 3360.000000   -13.795    57.073    -0.725   -27.535    -0.725   -27.464   -13.717    67.605 
 3400.000000   -13.661    50.749    -0.695   -32.606    -0.707   -32.733   -13.674    63.248 
 3440.000000   -13.677    44.937    -0.705   -38.032    -0.691   -37.759   -13.665    58.457 
 3480.000000   -13.738    39.667    -0.706   -42.970    -0.697   -43.038   -13.702    54.216 
 3520.000000   -13.725    33.549    -0.714   -47.956    -0.697   -47.835   -13.705    49.768 
 3560.000000   -13.727    28.394    -0.670   -52.993    -0.696   -52.950   -13.757    45.825 
 3600.000000   -13.773    22.435    -0.693   -57.884    -0.649   -57.874   -13.816    41.192 
 3640.000000   -13.845    17.270    -0.678   -62.817    -0.706   -62.932   -13.925    37.276 
 3680.000000   -13.978    12.270    -0.703   -67.593    -0.692   -67.479   -13.957    32.917 
 3720.000000   -14.127     6.960    -0.666   -72.397    -0.667   -72.311   -14.161    28.575 
 3760.000000   -14.228     1.779    -0.677   -77.206    -0.648   -77.205   -14.264    24.580 
 3800.000000   -14.443    -3.360    -0.670   -81.694    -0.665   -81.742   -14.459    20.292 
 3840.000000   -14.562    -8.254    -0.648   -86.385    -0.653   -86.326   -14.557    16.736 
 3880.000000   -14.661   -13.624    -0.669   -90.928    -0.660   -91.034   -14.705    11.317 
 3920.000000   -15.040   -19.098    -0.678   -95.396    -0.652   -95.415   -15.136     6.994 
 3960.000000   -15.306   -23.202    -0.645  -100.087    -0.641  -100.131   -15.300     3.181 
 4000.000000   -15.525   -28.368    -0.653  -104.375    -0.635  -104.412   -15.553    -1.077 
 4040.000000   -15.885   -32.663    -0.617  -108.861    -0.625  -108.945   -15.881    -5.864 
 4080.000000   -16.161   -37.876    -0.648  -113.402    -0.630  -113.305   -16.226   -11.066 
 4120.000000   -16.625   -43.150    -0.646  -117.779    -0.659  -117.722   -16.550   -15.417 
 4160.000000   -17.269   -46.680    -0.641  -121.952    -0.651  -121.783   -17.175   -20.420 
 4200.000000   -17.699   -50.263    -0.612  -126.067    -0.615  -126.052   -17.717   -24.492 
 4240.000000   -18.212   -54.971    -0.595  -130.643    -0.580  -130.582   -18.211   -28.739 
 4280.000000   -18.814   -58.211    -0.585  -134.736    -0.618  -134.891   -18.758   -33.286 
 4320.000000   -19.399   -61.739    -0.571  -138.954    -0.556  -139.023   -19.462   -37.499 
 4360.000000   -19.919   -64.015    -0.596  -143.335    -0.552  -143.341   -19.962   -43.133 
 4400.000000   -20.751   -68.102    -0.594  -147.624    -0.574  -147.638   -20.760   -48.026 
 4440.000000   -21.692   -71.316    -0.578  -151.744    -0.554  -151.718   -21.629   -53.754 
 4480.000000   -22.697   -73.088    -0.590  -155.899    -0.558  -155.846   -22.224   -61.583 
 4520.000000   -23.450   -72.110    -0.556  -160.012    -0.553  -160.006   -23.461   -68.028 
 4560.000000   -24.183   -76.999    -0.573  -164.334    -0.552  -164.423   -24.282   -75.129 
 4600.000000   -26.099   -76.027    -0.592  -168.485    -0.588  -168.349   -25.477   -87.417 
 4640.000000   -27.490   -75.387    -0.589  -172.600    -0.597  -172.573   -26.065   -99.277 
 4680.000000   -29.457   -61.934    -0.589  -176.369    -0.579  -176.320   -27.551  -118.496 
 4720.000000   -29.885   -51.411    -0.580   179.558    -0.554   179.441   -28.670  -131.708 
 4760.000000   -30.018   -39.429    -0.570   175.350    -0.575   175.377   -29.155  -148.134 
 4800.000000   -30.636   -36.115    -0.593   170.887    -0.599   170.965   -28.060  -163.184 
 4840.000000   -30.370    -4.678    -0.656   167.539    -0.659   167.452   -25.813   175.531 
 4880.000000   -27.300    -0.797    -0.631   163.689    -0.622   163.515   -25.556   157.629 
 4920.000000   -25.473    -2.096    -0.617   159.622    -0.606   159.534   -24.546   149.583 
 4960.000000   -24.478    -0.341    -0.635   155.592    -0.632   155.443   -23.430   140.100 
 5000.000000   -23.356    -1.103    -0.638   151.523    -0.644   151.456   -22.216   133.300 
 5040.000000   -22.025    -1.324    -0.673   147.607    -0.658   147.541   -21.030   126.036 
 5080.000000   -21.093    -3.671    -0.700   143.692    -0.673   143.663   -20.112   120.039 
 5120.000000   -20.038    -5.789    -0.711   139.911    -0.680   139.703   -19.097   113.729 
 5160.000000   -19.256    -8.866    -0.692   135.949    -0.692   135.806   -18.379   108.970 
 5200.000000   -18.462   -10.462    -0.748   132.012    -0.732   131.886   -17.799   103.810 
