! Device:	HMC544A								
! Description:	GaAs MMIC SPDT Reflective Switch
! Package:	6-Lead Small Outline Transistor Package								
! Frequency:	DC -  4 GHz								
!								
! Ports:								
! RFC = Port 1								
! RF1 = Port 2								
! RF2 = Port 3								
!								
! State: RF1 Selected																
!								
! Control Voltages: 																
! A  = 0 V
! B  = 5 V
!
! Data:	Data was collected using a calibrated network analyzer with AFR software.
!	Fixtures were calculated using AFR and fixturing was applied to collect 
!	this Deembedded  S Parameter data of HMC544A.
!
! Note:	Analog Devices supplies this data as a sample of measured data at the package pin
!	for this product.  Your particular data for this product may vary.
!	Data was taken at 25 degrees C.
!	Analog Devices reserves the right to change this data at anytime.								
!
# Hz S  dB   R 50
10000000 -36.099632 -1.6401531 -0.24276322 -0.27453616 -66.635094 105.47031
-0.24016915 -0.21739778 -35.92802 -2.6873233 -66.546394 69.784889
-65.764069 86.429756 -65.816536 85.444084 -0.027531562 -0.40637344
17487500 -36.112305 -3.3367798 -0.23859169 -0.30389538 -61.117184 93.797661
-0.23827264 -0.29280713 -36.44273 -3.2004666 -61.572067 93.908699
-60.858677 90.47187 -60.560238 97.705521 -0.038445141 -0.58561325
24975000 -36.416466 -2.5933907 -0.23963112 -0.38339657 -56.836502 106.83447
-0.24135391 -0.39644149 -36.605778 -0.8988508 -56.59024 103.95242
-56.973934 106.53999 -57.246719 105.55889 -0.052889202 -0.71800768
32462500 -36.474388 0.3223494 -0.24281862 -0.4735404 -53.524609 102.33274
-0.24454147 -0.4779506 -36.33202 0.037965667 -54.187557 102.91611
-53.86515 102.03919 -53.898804 102.86453 -0.057595629 -0.84565645
39950000 -36.631596 5.4402494 -0.24242286 -0.52256781 -50.428322 102.66934
-0.24393006 -0.52689022 -36.249352 4.7235498 -50.969398 102.67039
-50.522446 102.56143 -50.87748 102.6702 -0.062421542 -0.94737625
47437500 -35.167873 7.3931541 -0.21883036 -0.60120022 -47.305599 76.655022
-0.22212568 -0.60113597 -34.810623 5.9004216 -47.563911 75.368057
-47.298988 76.076424 -47.519867 75.384003 -0.053842921 -1.002755
54925000 -36.173225 -0.19188359 -0.23595701 -0.86541158 -49.987434 88.833969
-0.23983897 -0.86755168 -35.719067 -0.042593639 -50.300179 89.228981
-50.239368 89.900017 -50.152718 89.973396 -0.052848261 -1.2847418
62412500 -36.412739 2.5188155 -0.24044873 -0.93678713 -48.423794 95.590263
-0.24283038 -0.93625408 -35.941986 2.22544 -48.779713 94.829773
-48.424408 95.257217 -48.705875 94.248619 -0.058827303 -1.4261804
69900000 -36.311378 3.891619 -0.23963127 -1.0213736 -47.332478 95.837303
-0.24146286 -1.0259688 -36.191833 4.3098979 -47.523067 95.78801
-47.158249 96.420906 -47.340694 95.451027 -0.058722749 -1.5592917
77387500 -36.381329 5.4341483 -0.24140212 -1.13687 -45.984943 96.390518
-0.24212964 -1.1291639 -36.133232 4.8882451 -46.332764 95.181908
-45.954704 95.848228 -46.353176 95.274078 -0.063010357 -1.7227931
84875000 -36.361298 5.6847043 -0.24337095 -1.234872 -44.993061 95.323769
-0.24392785 -1.2329652 -36.143997 5.2139525 -45.340324 94.404602
-44.943783 94.708702 -45.346622 94.442551 -0.064915046 -1.8664604
92362500 -36.394199 6.1877451 -0.24319415 -1.3290581 -44.084106 94.643417
-0.24482884 -1.3284246 -36.318127 6.1720452 -44.496758 94.264595
-44.043598 95.462448 -44.401382 93.926048 -0.064517975 -2.0072331
99850000 -36.431175 6.2892337 -0.2428346 -1.4303035 -43.384724 94.59922
-0.24400619 -1.4299191 -36.386223 7.375741 -43.713184 93.35537
-43.405739 94.475197 -43.783463 93.701569 -0.065160252 -2.1533399
107337500 -36.461811 7.2353888 -0.24400306 -1.5374738 -42.716702 94.012856
-0.24432226 -1.5345581 -36.401779 8.4238663 -43.012489 93.263908
-42.728508 94.199875 -43.010826 93.311714 -0.065176994 -2.3029022
114825000 -36.44199 8.2105255 -0.24380435 -1.6373869 -42.060921 93.898911
-0.24339998 -1.6364233 -36.282532 8.7819118 -42.370724 92.721771
-42.029385 93.628151 -42.392246 92.558853 -0.066868804 -2.4611042
122312500 -36.396839 9.1778364 -0.24354964 -1.7407186 -41.40583 93.200417
-0.24326259 -1.7435926 -36.175102 9.2703896 -41.74337 92.417847
-41.408077 93.42762 -41.758938 92.440971 -0.066795595 -2.6036558
129800000 -36.332287 9.8402796 -0.24506107 -1.8336323 -40.810074 93.089012
-0.24439976 -1.8381523 -36.107399 10.146658 -41.159744 91.956863
-40.804108 92.996437 -41.157501 92.160683 -0.066139027 -2.7416036
137287500 -36.260113 11.168776 -0.24361628 -1.9350895 -40.254723 92.494354
-0.24387351 -1.938019 -36.068432 11.281892 -40.604931 91.401672
-40.247696 92.481865 -40.602928 91.264412 -0.064861841 -2.8849347
144775000 -36.090118 12.675138 -0.24245088 -2.0262003 -39.65041 91.279526
-0.24320373 -2.0230992 -35.890217 12.613474 -40.022522 90.283142
-39.652794 91.503227 -40.002625 90.241249 -0.061657589 -3.0176353
152262500 -35.689957 13.723141 -0.23653129 -2.1184025 -39.2696 88.469551
-0.23764078 -2.1184108 -35.524635 13.490616 -39.632374 87.5923
-39.249626 88.555725 -39.641369 87.67923 -0.050560113 -3.1601582
159750000 -35.312355 10.464854 -0.22823611 -2.2798405 -39.101162 88.582489
-0.23064043 -2.2796276 -35.191032 9.9481668 -39.396225 87.466171
-39.104012 88.423714 -39.379749 87.562599 -0.056310713 -3.4015636
167237500 -35.876919 9.0337496 -0.239041 -2.4221346 -38.923634 89.498573
-0.24036925 -2.4230914 -35.820339 9.2152634 -39.226082 88.245316
-38.923431 89.374535 -39.225574 88.278709 -0.059690222 -3.5524487
174725000 -36.045006 10.170642 -0.24286191 -2.5147722 -38.522522 90.065514
-0.24348237 -2.519711 -36.080753 10.717015 -38.831085 88.776299
-38.509476 90.066223 -38.816734 88.765709 -0.063775986 -3.7030609
182212500 -36.126575 10.841941 -0.24382064 -2.61254 -38.099697 90.540062
-0.24430467 -2.609756 -36.164028 12.174547 -38.434269 89.173523
-38.104469 90.581421 -38.454094 89.21151 -0.065102533 -3.8399525
189700000 -36.104198 11.655093 -0.24288267 -2.7148473 -37.714199 90.289856
-0.24493156 -2.7127964 -36.278976 12.462047 -38.03289 88.887543
-37.716183 90.672615 -38.067116 88.800797 -0.065240614 -3.9989161
197187500 -36.148731 12.300317 -0.24428838 -2.8172469 -37.349373 90.029015
-0.24362545 -2.8193548 -36.261185 13.116549 -37.678165 88.857681
-37.352467 89.801567 -37.678596 88.524948 -0.066956744 -4.1378136
204675000 -36.157017 12.753028 -0.24541771 -2.914892 -36.974506 90.102562
-0.24486916 -2.917912 -36.264256 13.428727 -37.321957 88.347092
-36.990398 89.900963 -37.310543 88.383675 -0.066667661 -4.283287
212162500 -36.001553 12.824892 -0.245745 -3.0148878 -36.688702 89.679329
-0.24546455 -3.0170157 -36.218075 13.870391 -37.022144 87.993065
-36.634861 89.714729 -36.983799 88.190826 -0.066081636 -4.4471402
219650000 -35.986164 13.121947 -0.24539684 -3.1187551 -36.320503 89.79364
-0.24540374 -3.1262393 -36.114532 14.351933 -36.668346 88.110542
-36.325779 89.77729 -36.65144 88.316475 -0.066119768 -4.5966821
227137500 -35.959724 14.122833 -0.24516661 -3.2231991 -36.026573 89.703423
-0.24568698 -3.2244771 -36.035385 15.101857 -36.357937 87.838257
-36.052101 89.727684 -36.373493 87.923126 -0.066799589 -4.7484779
234625000 -35.902641 15.167436 -0.24356259 -3.3293664 -35.735958 89.485313
-0.24808162 -3.3356624 -35.928116 15.842492 -36.097607 87.580254
-35.756405 89.351089 -36.073296 87.63504 -0.066135406 -4.9026866
242112500 -35.748173 15.604129 -0.24534662 -3.42398 -35.4856 89.508644
-0.24787612 -3.4331694 -35.858219 16.391024 -35.822315 87.516762
-35.514889 89.516914 -35.815502 87.67733 -0.067073449 -5.0523653
249600000 -35.708881 16.69342 -0.24346155 -3.541049 -35.119793 89.41478
-0.24638392 -3.5405793 -35.735989 16.809919 -35.457664 87.538116
-35.109692 89.398788 -35.460323 87.726738 -0.064923525 -5.2266736
257087500 -35.783398 17.099926 -0.24584246 -3.6440115 -34.822037 89.157646
-0.24828254 -3.6425347 -35.583427 16.757566 -35.159935 87.024239
-34.827953 89.193031 -35.132957 86.797348 -0.068722568 -5.3725963
264575000 -35.729885 17.707739 -0.24619298 -3.7548823 -34.520039 88.749336
-0.24711572 -3.7546301 -35.579731 17.688648 -34.868824 86.826271
-34.500835 88.777527 -34.822437 86.687668 -0.066800654 -5.5343266
272062500 -35.611923 17.73727 -0.24631666 -3.8502038 -34.390285 87.12986
-0.24692023 -3.848757 -35.630539 18.070877 -34.719353 85.136673
-34.407887 87.085419 -34.703236 85.470825 -0.067290895 -5.7185416
279550000 -35.77454 17.278517 -0.24688393 -3.9556806 -34.243011 87.877251
-0.24770741 -3.9627399 -35.563435 17.672768 -34.528656 85.736687
-34.221317 87.951851 -34.524117 85.774948 -0.071381226 -5.8993325
287037500 -35.774536 17.938107 -0.24599791 -4.0665536 -33.976833 88.051857
-0.2478738 -4.0684381 -35.610252 17.505182 -34.29644 85.717239
-33.99165 88.034225 -34.290859 85.743729 -0.071602941 -6.0497394
294525000 -35.93343 17.631863 -0.24799757 -4.1670594 -33.757637 87.817802
-0.24966063 -4.1678176 -35.637245 17.853258 -34.058311 85.516083
-33.770145 87.764076 -34.055683 85.624893 -0.075076438 -6.1958241
302012500 -35.963493 17.691851 -0.24894653 -4.2706013 -33.530121 87.862312
-0.24928768 -4.2710013 -35.545944 17.450636 -33.841557 85.448586
-33.531811 87.852097 -33.843468 85.366867 -0.073176116 -6.3434491
309500000 -36.001087 18.649828 -0.24882399 -4.3837557 -33.306816 87.612167
-0.24950223 -4.3875113 -35.464668 17.486115 -33.607147 85.202881
-33.306297 87.476616 -33.600624 85.323769 -0.072741039 -6.4864755
316987500 -35.953999 18.930674 -0.24813278 -4.4955049 -33.089699 87.593552
-0.24910882 -4.4897423 -35.366974 17.211859 -33.40638 85.13205
-33.083073 87.730789 -33.414364 85.110321 -0.072736613 -6.6429172
324475000 -35.949127 19.271824 -0.24892439 -4.5957084 -32.87608 87.483315
-0.24844387 -4.5882044 -35.287621 17.601158 -33.191738 84.859596
-32.869247 87.530891 -33.204735 84.695961 -0.070716426 -6.7879829
331962500 -35.986794 20.511024 -0.24992168 -4.6961312 -32.64473 87.171089
-0.24928321 -4.7028351 -35.150703 18.296202 -32.98135 84.778191
-32.659187 87.193382 -32.986256 84.561264 -0.070470609 -6.9480233
339450000 -35.961304 20.923639 -0.24842902 -4.7941861 -32.477631 87.271797
-0.24974678 -4.8062935 -35.035156 18.816082 -32.789413 84.473495
-32.473057 87.166824 -32.768028 84.566589 -0.072394595 -7.1129303
346937500 -35.915558 21.569733 -0.24859533 -4.9104276 -32.270386 87.070869
-0.25117233 -4.90481 -34.96294 19.643902 -32.601913 84.318054
-32.259979 86.925751 -32.599911 84.285904 -0.073465638 -7.2796602
354425000 -35.872559 21.777531 -0.24997607 -5.0092559 -32.081463 86.80307
-0.25079891 -5.0178914 -34.944836 19.270763 -32.403141 84.088768
-32.074356 86.828484 -32.400196 84.108788 -0.074679062 -7.4264202
361912500 -35.821743 22.471514 -0.24919972 -5.1085186 -31.88023 86.869469
-0.25075072 -5.1123338 -34.906834 19.690062 -32.213737 83.992119
-31.898024 86.837059 -32.231987 83.992889 -0.074314371 -7.5860357
369400000 -35.856941 22.703873 -0.25172782 -5.2137027 -31.708599 86.697495
-0.25016844 -5.2212048 -34.876698 19.853886 -32.021187 83.845596
-31.71571 86.680946 -32.02961 83.927757 -0.075530343 -7.7615623
376887500 -35.918259 22.787668 -0.24913457 -5.3062263 -31.526455 86.504311
-0.24997687 -5.3148432 -34.875717 20.166491 -31.848063 83.580872
-31.531904 86.527451 -31.845476 83.499046 -0.07776542 -7.92451
384375000 -35.918262 23.349825 -0.24903886 -5.4123678 -31.344408 86.436729
-0.25132126 -5.4118361 -34.784195 20.386761 -31.67594 83.335609
-31.350424 86.368637 -31.670261 83.33268 -0.078723975 -8.079545
391862500 -35.883774 22.892977 -0.24944156 -5.5207419 -31.222145 86.036407
-0.25015831 -5.5245795 -34.76347 20.221615 -31.525625 82.969154
-31.214128 86.046646 -31.517969 83.100143 -0.079576634 -8.2456827
399350000 -35.939915 23.855797 -0.25097483 -5.6297898 -31.035982 86.092865
-0.25085416 -5.6294804 -34.738304 20.30242 -31.358923 82.877846
-31.0555 86.15583 -31.354576 82.94986 -0.079947636 -8.3980742
406837500 -35.946346 23.908966 -0.25187263 -5.7225075 -30.90312 85.967041
-0.25244066 -5.7378435 -34.64661 20.603111 -31.203344 82.648064
-30.889807 85.915939 -31.188131 82.811279 -0.080047756 -8.539259
414325000 -35.884758 24.534212 -0.25118104 -5.834971 -30.715813 85.867294
-0.25220174 -5.8405266 -34.535942 21.053511 -31.038347 82.460938
-30.717457 85.841362 -31.036388 82.496544 -0.077880882 -8.6840448
421812500 -35.851658 24.911161 -0.25230485 -5.9418993 -30.554071 85.756943
-0.25261104 -5.9448066 -34.43536 21.539799 -30.878904 82.314781
-30.566332 85.715012 -30.869837 82.361816 -0.077776395 -8.8365097
429300000 -35.737785 25.720877 -0.25026992 -6.0498796 -30.400669 85.69136
-0.25181025 -6.0525012 -34.310127 22.024412 -30.725719 82.284126
-30.408688 85.718384 -30.717844 82.233192 -0.073344655 -9.0011263
436787500 -35.634232 25.988188 -0.25136119 -6.1582341 -30.268843 85.652061
-0.25227913 -6.1553679 -34.274334 22.524044 -30.580276 82.116623
-30.262663 85.656792 -30.567842 82.170166 -0.075411834 -9.1647882
444275000 -35.540943 26.728315 -0.2511462 -6.2584524 -30.093136 85.573242
-0.25218651 -6.2621155 -34.176182 22.950441 -30.417982 81.954277
-30.10313 85.56855 -30.415855 81.890717 -0.077170894 -9.3130827
451762500 -35.453259 27.166424 -0.2511878 -6.3640227 -29.9561 85.325073
-0.25362352 -6.3701491 -34.268944 23.111599 -30.269421 81.653091
-29.95952 85.295776 -30.273882 81.676712 -0.080851451 -9.474371
459250000 -35.429577 27.270914 -0.25318235 -6.4712515 -29.826996 85.323265
-0.25349456 -6.4735618 -34.315556 24.067978 -30.138878 81.557816
-29.822084 85.319244 -30.140936 81.514404 -0.081929609 -9.6348362
466737500 -35.385895 27.720232 -0.25209293 -6.5761199 -29.671379 85.078987
-0.25469887 -6.5812573 -34.306332 24.485163 -29.99954 81.33532
-29.684889 85.07489 -29.994186 81.333832 -0.083496772 -9.7907562
474225000 -35.343338 28.208368 -0.25259647 -6.6765866 -29.53483 85.049828
-0.25396341 -6.6792464 -34.304161 24.575371 -29.859621 81.137527
-29.540874 84.983772 -29.862747 81.164352 -0.085429005 -9.9504156
481712500 -35.358257 28.721195 -0.25253433 -6.7739124 -29.403276 84.934547
-0.25520742 -6.7885818 -34.323589 25.155268 -29.728106 81.044487
-29.404482 84.938217 -29.727592 81.061386 -0.088293798 -10.105471
489200000 -35.256626 29.07394 -0.25273216 -6.8808126 -29.271917 84.814796
-0.25576621 -6.8884597 -34.319012 25.538601 -29.588335 80.901237
-29.268988 84.864922 -29.59297 80.853302 -0.088043936 -10.272012
496687500 -35.232525 29.847452 -0.25404677 -6.9810138 -29.128923 84.757622
-0.25671899 -6.9957919 -34.213482 25.783762 -29.462479 80.713959
-29.138222 84.721916 -29.45175 80.713577 -0.088519059 -10.435301
504175000 -35.152313 29.83637 -0.25453371 -7.0871029 -29.005838 84.564674
-0.25697955 -7.0923152 -34.087227 25.981056 -29.325489 80.556389
-29.010868 84.544601 -29.319874 80.474976 -0.087521017 -10.586654
511662500 -35.087742 30.666597 -0.25443044 -7.1874728 -28.869551 84.516205
-0.25642174 -7.1933899 -33.982697 26.595062 -29.19754 80.446747
-28.867228 84.503944 -29.188627 80.441536 -0.085798487 -10.742887
519150000 -34.926247 30.666956 -0.25697482 -7.3015757 -28.731722 84.415283
-0.25655833 -7.3011532 -33.818932 26.990667 -29.058416 80.231461
-28.739466 84.417519 -29.064835 80.296562 -0.084914677 -10.90544
526637500 -34.878738 31.624802 -0.25564155 -7.4104166 -28.603125 84.304512
-0.25547764 -7.410821 -33.662292 27.006374 -28.926405 80.063179
-28.604036 84.271477 -28.927429 80.088188 -0.081926063 -11.069826
534125000 -34.80344 32.002899 -0.25725088 -7.518301 -28.473711 84.197044
-0.25652063 -7.516408 -33.581181 26.907589 -28.800446 79.907059
-28.477917 84.132118 -28.797541 79.903435 -0.08374466 -11.229233
541612500 -34.740089 32.25845 -0.25547057 -7.616262 -28.346621 83.998192
-0.25658852 -7.6226516 -33.510784 27.41058 -28.682051 79.68718
-28.366631 83.999779 -28.67779 79.666946 -0.081838593 -11.399937
549100000 -34.748444 32.716602 -0.25804532 -7.7265601 -28.224201 83.887665
-0.25847813 -7.7329655 -33.481079 27.538906 -28.562988 79.447556
-28.224928 83.86908 -28.557398 79.512634 -0.084566019 -11.566249
556587500 -34.74231 33.022621 -0.25581357 -7.8329883 -28.112223 83.619629
-0.25855896 -7.8300419 -33.514606 27.497684 -28.45112 79.417191
-28.113716 83.708427 -28.444628 79.439751 -0.086048305 -11.734528
564075000 -34.829727 33.316071 -0.25840211 -7.9344654 -28.008629 83.64637
-0.25885969 -7.9401026 -33.52224 27.506832 -28.336664 79.156525
-28.014088 83.650436 -28.322609 79.246193 -0.08857394 -11.891083
571562500 -34.875004 33.659767 -0.25806189 -8.0363646 -27.888361 83.476959
-0.2584745 -8.0448151 -33.543377 27.391644 -28.213896 78.965866
-27.896553 83.467369 -28.212957 78.950127 -0.089448445 -12.048418
579050000 -34.971909 34.108608 -0.26001805 -8.1414633 -27.785021 83.394081
-0.2588715 -8.1476183 -33.541592 27.210737 -28.099468 78.745308
-27.778828 83.429214 -28.102819 78.767601 -0.089140095 -12.207823
586537500 -35.013454 33.878078 -0.26010114 -8.2487707 -27.668381 83.263741
-0.26012459 -8.2502308 -33.546989 27.463015 -27.986942 78.645592
-27.67037 83.268372 -27.995152 78.648239 -0.088949069 -12.366721
594025000 -35.021347 33.582253 -0.26024717 -8.35818 -27.552277 83.090973
-0.26023787 -8.3572912 -33.50256 27.117157 -27.883274 78.423172
-27.562628 83.100777 -27.879995 78.446571 -0.09069699 -12.532721
601512500 -35.09647 34.232227 -0.2593545 -8.4507351 -27.445551 83.051308
-0.26043716 -8.4586935 -33.433434 26.785223 -27.769089 78.293831
-27.438255 83.039284 -27.761911 78.31469 -0.089447066 -12.678767
609000000 -35.048668 33.918118 -0.26160535 -8.5628119 -27.324039 82.95211
-0.26065698 -8.5622149 -33.366531 26.622561 -27.65943 78.109901
-27.32641 82.961487 -27.651073 78.076241 -0.091998093 -12.843547
616487500 -35.041122 34.591499 -0.25981569 -8.6680508 -27.221342 82.775642
-0.26069903 -8.6664171 -33.215305 26.735012 -27.547682 77.910484
-27.226133 82.767929 -27.546854 77.907906 -0.090237468 -12.996953
623975000 -35.02179 34.715763 -0.26043627 -8.7757759 -27.108648 82.747681
-0.26055098 -8.7783699 -33.147305 26.293617 -27.439079 77.767303
-27.107109 82.714607 -27.441452 77.719872 -0.090773284 -13.154902
631462500 -34.893272 35.002201 -0.26175368 -8.881072 -27.001104 82.65387
-0.26218221 -8.8828163 -33.131702 26.756304 -27.337038 77.653679
-27.003096 82.624573 -27.33017 77.611641 -0.092141747 -13.32563
638950000 -34.867058 35.947563 -0.26174164 -8.9857912 -26.890932 82.572823
-0.26096204 -8.9912271 -33.005188 26.576097 -27.227961 77.425377
-26.895334 82.56852 -27.224724 77.46479 -0.091479667 -13.486962
646437500 -34.886223 36.330704 -0.26140103 -9.089426 -26.789118 82.412621
-0.26225877 -9.0923586 -32.935322 26.825666 -27.130924 77.268936
-26.780993 82.398277 -27.126015 77.256821 -0.090854794 -13.645214
653925000 -34.80579 36.960861 -0.26104984 -9.1972389 -26.682783 82.256874
-0.26239261 -9.2045183 -32.891998 26.664164 -27.036861 77.122826
-26.675911 82.266434 -27.034458 77.14415 -0.092363477 -13.809457
661412500 -34.774342 37.167938 -0.26105005 -9.2981434 -26.586603 81.970123
-0.26295951 -9.3019199 -32.940781 26.728287 -26.929882 77.037239
-26.587618 81.964844 -26.921389 77.055542 -0.092234679 -13.974851
668900000 -34.841763 36.806488 -0.26298171 -9.3994331 -26.514742 81.887962
-0.26390418 -9.4020338 -33.019924 27.037687 -26.811144 76.782234
-26.523663 81.878548 -26.815432 76.793198 -0.095232271 -14.154829
676387500 -34.944122 37.109116 -0.26352224 -9.5025883 -26.423023 81.798393
-0.26558793 -9.5081501 -33.000717 26.70768 -26.721592 76.522041
-26.421682 81.824478 -26.710884 76.541153 -0.09961658 -14.312287
683875000 -34.964088 37.210388 -0.26225987 -9.6115808 -26.326832 81.771622
-0.26376119 -9.6145554 -33.047279 27.050791 -26.63603 76.362877
-26.332794 81.720573 -26.630671 76.338531 -0.10045396 -14.473523
691362500 -34.993687 37.536201 -0.26145446 -9.7149944 -26.233837 81.616646
-0.26301846 -9.722167 -32.956921 27.059067 -26.537655 76.129768
-26.232395 81.646828 -26.53956 76.119926 -0.10144343 -14.623586
