! Device:	HMC544A								
! Description:	GaAs MMIC SPDT Reflective Switch
! Package:	6-Lead Small Outline Transistor Package								
! Frequency:	DC -  4 GHz								
!								
! Ports:								
! RFC = Port 1								
! RF1 = Port 2								
! RF2 = Port 3								
!								
! State: RF2 Selected																
!								
! Control Voltages: 																
! A  = 5 V
! B  = 0 V
!
! Data:	Data was collected using a calibrated network analyzer with AFR software.
!	Fixtures were calculated using AFR and fixturing was applied to collect 
!	this Deembedded  S Parameter data of HMC544A.
!
! Note:	Analog Devices supplies this data as a sample of measured data at the package pin
!	for this product.  Your particular data for this product may vary.
!	Data was taken at 25 degrees C.
!	Analog Devices reserves the right to change this data at anytime.								
!
# Hz S  dB   R 50
10000000 -35.647057 -3.301676 -68.251114 119.2999 -0.24716842 -0.26623526
-66.892387 87.148087 -0.025324682 -0.42416066 -62.220871 96.673988
-0.24218754 -0.23013271 -66.616776 101.67489 -36.1437 -1.3747128
17487500 -36.26405 -1.7939565 -61.076988 103.24318 -0.24285617 -0.30003422
-60.479633 95.488945 -0.037328769 -0.60923988 -60.574802 98.449287
-0.24052487 -0.31083176 -61.369617 103.31201 -36.445599 -2.3578389
24975000 -36.312027 1.0157315 -57.021893 105.42096 -0.24446207 -0.3767446
-56.952908 103.52487 -0.048979644 -0.78146255 -57.341156 103.35171
-0.24256329 -0.37680531 -57.341255 102.21839 -36.687256 -0.83503801
32462500 -36.453629 2.274775 -53.734306 103.10728 -0.24590194 -0.47049177
-53.521885 100.83666 -0.057030588 -0.92977256 -54.150028 104.06544
-0.24238718 -0.46857852 -54.317402 102.57238 -36.490288 0.75062996
39950000 -36.467457 6.5807772 -51.167805 103.51427 -0.24656749 -0.5120582
-51.006859 102.60276 -0.063261643 -1.055479 -51.406555 102.70275
-0.24269073 -0.51123434 -51.321968 103.05477 -36.484058 5.0026255
47437500 -35.647366 10.493794 -47.948689 95.463905 -0.23596302 -0.5488646
-47.886211 94.784233 -0.051372781 -1.0905195 -48.165295 95.577972
-0.23176628 -0.55776715 -48.269768 95.573273 -35.683815 8.6877537
54925000 -35.800793 1.6581821 -49.939568 86.154007 -0.23569401 -0.82603383
-50.074196 86.263283 -0.057504043 -1.387832 -50.378426 85.196274
-0.23317637 -0.82845157 -50.242767 86.002647 -35.743221 1.299522
62412500 -36.116341 3.2494736 -48.371391 95.747047 -0.24163045 -0.90959263
-48.338566 95.357346 -0.06309256 -1.5359303 -48.772053 95.575119
-0.24219154 -0.90139717 -48.826191 93.827934 -36.21452 3.2457013
69900000 -36.234322 5.4508862 -46.952007 95.880066 -0.24044648 -0.98600632
-47.082119 96.63205 -0.061771672 -1.690501 -47.264339 94.830132
-0.23937649 -0.98664784 -47.468338 95.650612 -36.34288 5.5988622
77387500 -36.226002 5.2676578 -45.892166 95.917374 -0.24337363 -1.0906943
-45.950855 95.935349 -0.067861244 -1.8483664 -46.223961 95.558113
-0.24177024 -1.0766219 -46.235229 95.769981 -36.311298 6.7947702
84875000 -36.238853 6.9544811 -44.960415 94.555313 -0.2453761 -1.1793917
-44.939342 94.92382 -0.069006942 -2.0205567 -45.277103 94.186592
-0.24269083 -1.1766502 -45.272125 94.315933 -36.320885 7.3868923
92362500 -36.37505 7.8903832 -44.021851 95.461578 -0.24476139 -1.2756523
-44.042828 95.085739 -0.066753812 -2.1746128 -44.410778 94.701675
-0.24392891 -1.2686898 -44.358288 94.060059 -36.406845 8.4830818
99850000 -36.332481 8.9792929 -43.317448 94.52343 -0.24461493 -1.3635043
-43.293808 94.316727 -0.067184925 -2.346525 -43.624294 93.564232
-0.24317385 -1.3631617 -43.61758 93.566902 -36.513897 9.8198624
107337500 -36.339188 10.133276 -42.600697 93.96534 -0.24429101 -1.4614207
-42.592403 94.190971 -0.068063781 -2.5191581 -42.904766 93.06781
-0.2431059 -1.4663728 -42.92532 93.164345 -36.488544 11.42564
114825000 -36.246632 11.037483 -41.962753 93.320442 -0.24386202 -1.5643092
-41.964432 93.375282 -0.067427404 -2.6868265 -42.255161 92.175484
-0.24280326 -1.569932 -42.264999 92.402496 -36.375286 12.040482
122312500 -36.072823 12.228558 -41.321613 92.986183 -0.2452006 -1.663852
-41.339916 92.927071 -0.068160214 -2.8502352 -41.637589 92.096252
-0.24256095 -1.6601402 -41.682236 92.219238 -36.343754 12.677181
129800000 -35.899124 13.823359 -40.677315 92.613045 -0.24460971 -1.7449998
-40.670025 92.305885 -0.068610378 -3.0036204 -41.000973 91.609741
-0.24391143 -1.7479681 -41.019413 91.263145 -36.280266 13.382602
137287500 -35.544376 14.818377 -39.982044 90.806168 -0.24131601 -1.8269745
-39.984333 90.662529 -0.067487076 -3.1418474 -40.32185 89.757385
-0.24031779 -1.8247064 -40.305965 89.738243 -36.03273 15.25571
144775000 -35.031548 11.184221 -40.026527 85.609894 -0.23145303 -1.9840249
-40.03426 85.416557 -0.061736438 -3.3200865 -40.356071 84.603828
-0.22971894 -1.9844071 -40.369564 84.442657 -35.565014 11.378021
152262500 -35.669712 10.250051 -39.967667 89.766907 -0.24106471 -2.1189482
-39.950287 89.941467 -0.065488294 -3.4908583 -40.296555 88.513618
-0.23872285 -2.1040106 -40.307201 88.616898 -36.064198 11.507745
159750000 -35.797329 11.730549 -39.474186 91.10051 -0.24424924 -2.1989002
-39.451218 90.95652 -0.067284733 -3.6344662 -39.772446 89.826637
-0.24223201 -2.1981673 -39.794617 89.802223 -36.132523 12.917441
167237500 -35.820797 12.900184 -38.924374 92.553719 -0.24352731 -2.2943935
-38.913277 92.537704 -0.059572402 -3.7992001 -39.240242 91.442902
-0.24303503 -2.2963085 -39.243988 91.495361 -36.084026 13.945751
174725000 -35.85894 13.638652 -38.277977 90.909348 -0.24625394 -2.3957033
-38.289745 90.973022 -0.067868203 -4.0307078 -38.600182 89.637016
-0.24431169 -2.3920782 -38.595196 89.784981 -36.162827 14.975984
182212500 -35.912487 14.272357 -37.959095 91.051849 -0.24432445 -2.4885221
-37.945477 90.763 -0.069881946 -4.1804285 -38.260479 89.365044
-0.24427147 -2.483695 -38.285328 89.496811 -36.153725 16.978525
189700000 -35.953552 14.95645 -37.57856 90.595856 -0.24404411 -2.586108
-37.591915 90.31443 -0.070812285 -4.3522387 -37.894672 89.048775
-0.24407341 -2.5807343 -37.895176 89.14212 -36.206402 17.391983
197187500 -35.880856 15.217286 -37.256771 90.255203 -0.24534123 -2.6853147
-37.256996 90.087372 -0.071719117 -4.5245156 -37.585773 88.700752
-0.24646871 -2.6821876 -37.571857 88.699089 -36.191433 18.703478
204675000 -35.688496 16.662695 -36.872639 89.979996 -0.24595869 -2.7758644
-36.889923 89.881638 -0.071796089 -4.6922212 -37.248734 88.521286
-0.24572609 -2.782182 -37.251099 88.442154 -36.209381 19.56282
212162500 -35.642708 17.553843 -36.589676 89.682381 -0.24629065 -2.8746862
-36.582195 89.54216 -0.070537232 -4.8643117 -36.888531 88.108742
-0.24477695 -2.871443 -36.918869 88.167343 -36.185196 20.182194
219650000 -35.429916 18.494518 -36.239269 89.672554 -0.24650845 -2.9701033
-36.227802 89.692047 -0.069918707 -5.0351982 -36.566067 88.009125
-0.24472378 -2.968106 -36.577873 88.052765 -36.074425 21.331099
227137500 -35.096657 19.281996 -35.889271 89.294861 -0.24255474 -3.055548
-35.883495 89.293503 -0.071580976 -5.1977725 -36.196396 87.457123
-0.24433902 -3.0547302 -36.216099 87.626678 -35.950016 22.719198
234625000 -34.937233 16.280621 -35.680386 88.291382 -0.2394336 -3.1988151
-35.702095 88.256989 -0.0697641 -5.3615532 -36.005569 86.467438
-0.23939422 -3.2038994 -36.001217 86.398788 -35.821316 20.400543
242112500 -35.188404 17.981709 -35.445503 88.474457 -0.24416041 -3.3081994
-35.45335 88.611679 -0.070794046 -5.5226436 -35.780098 86.66037
-0.24335086 -3.2970974 -35.782619 86.64592 -36.052937 20.90588
249600000 -35.127831 17.964701 -35.181721 88.320351 -0.24543509 -3.4046431
-35.167183 88.32415 -0.070690237 -5.6916432 -35.518433 86.420967
-0.24452457 -3.4001908 -35.519291 86.49379 -35.988842 22.273331
257087500 -35.116333 19.554626 -34.942764 88.593048 -0.24808815 -3.5033789
-34.922787 88.228806 -0.074993424 -5.8648477 -35.254116 86.354057
-0.24568473 -3.4953101 -35.281521 86.441956 -35.809761 21.794914
264575000 -35.176292 19.695389 -34.672256 88.419174 -0.24806735 -3.6012673
-34.651146 88.448898 -0.073506474 -6.0292845 -34.992409 86.427635
-0.2449031 -3.5959589 -34.97221 86.496269 -35.734474 22.79006
272062500 -35.300201 20.057655 -34.438103 88.022301 -0.24846548 -3.6916161
-34.454163 88.248482 -0.073128447 -6.1891479 -34.777931 86.124947
-0.2464921 -3.689702 -34.770092 85.905739 -35.766232 23.530722
279550000 -35.309464 20.492039 -34.189205 88.022842 -0.24956214 -3.789392
-34.195374 88.093132 -0.07498727 -6.4241118 -34.509258 86.105919
-0.24612197 -3.7844346 -34.469891 85.988968 -35.627052 23.658651
287037500 -35.319824 21.067051 -33.947979 88.125175 -0.2489583 -3.8896289
-33.951035 87.877869 -0.078351609 -6.5947971 -34.253593 85.65667
-0.24583307 -3.8912604 -34.267517 85.642731 -35.643955 23.905613
294525000 -35.236427 21.852703 -33.741955 87.655174 -0.25134534 -3.9831626
-33.74192 87.569008 -0.077024981 -6.7733798 -34.035656 85.503197
-0.24735226 -3.989604 -34.053322 85.423996 -35.652775 24.699257
302012500 -35.162228 22.442408 -33.512566 87.615311 -0.24870411 -4.0878763
-33.473392 87.673508 -0.077128932 -6.9446497 -33.844093 85.388519
-0.24919048 -4.0888815 -33.844658 85.443977 -35.552048 25.29109
309500000 -35.122078 22.595295 -33.302052 87.240356 -0.2513364 -4.1926293
-33.300549 87.364815 -0.07721553 -7.1164088 -33.60704 85.16684
-0.24838956 -4.1893001 -33.59288 84.979584 -35.518944 25.821901
316987500 -35.107693 22.974257 -33.075638 87.41494 -0.24958356 -4.2930412
-33.086132 87.555969 -0.076813653 -7.2821217 -33.404469 84.797562
-0.24829434 -4.2989531 -33.405811 84.90432 -35.501823 26.018293
324475000 -35.03088 23.535666 -32.884876 87.203423 -0.24860822 -4.3909135
-32.865185 87.286049 -0.075723693 -7.4420881 -33.176453 84.748695
-0.24872479 -4.3999391 -33.179939 84.712601 -35.448887 26.417824
331962500 -34.896389 23.548069 -32.63921 87.055138 -0.25122532 -4.4979129
-32.653347 87.062927 -0.076649196 -7.5988212 -32.982025 84.604813
-0.2479077 -4.493587 -32.985542 84.548355 -35.375183 27.347994
339450000 -34.823044 24.11582 -32.479912 86.963127 -0.25048295 -4.5951495
-32.451138 87.012177 -0.076615907 -7.7706022 -32.776859 84.238762
-0.24778131 -4.5899506 -32.806145 84.361015 -35.348083 27.280056
346937500 -34.817905 23.973457 -32.262913 86.848961 -0.25061259 -4.6985664
-32.259506 86.622208 -0.078323975 -7.9322042 -32.601578 84.103554
-0.24780235 -4.6923356 -32.600231 84.217125 -35.282799 28.116199
354425000 -34.75909 24.565947 -32.067532 86.589386 -0.25184762 -4.802074
-32.06303 86.520531 -0.079743333 -8.0973854 -32.414478 84.024513
-0.24872628 -4.7957401 -32.402531 83.996605 -35.301052 27.903019
361912500 -34.795036 24.758337 -31.900066 86.482834 -0.25192109 -4.8895793
-31.892979 86.573128 -0.080017552 -8.264451 -32.214554 83.831558
-0.24919699 -4.8823795 -32.21896 83.803146 -35.262722 28.352583
369400000 -34.820019 24.531637 -31.717798 86.453247 -0.25157145 -4.9925437
-31.708393 86.434906 -0.081000201 -8.4325876 -32.042198 83.625343
-0.25172955 -4.9888849 -32.04673 83.63414 -35.240433 28.729965
376887500 -34.836369 25.269772 -31.532288 86.283875 -0.25197601 -5.0783687
-31.525537 86.319359 -0.079807557 -8.607892 -31.863956 83.526886
-0.25041562 -5.075531 -31.872858 83.533783 -35.162464 29.04995
384375000 -34.824638 25.49198 -31.364529 86.203354 -0.25105235 -5.1840739
-31.356977 86.115433 -0.079525724 -8.7809715 -31.666052 83.192619
-0.24889052 -5.182385 -31.672312 83.213959 -35.150028 29.112965
391862500 -34.890732 25.578476 -31.17613 86.097115 -0.254044 -5.2819653
-31.189398 86.026901 -0.08094734 -8.9587727 -31.520647 83.019806
-0.24997036 -5.2812381 -31.513767 83.015968 -35.093735 30.074017
399350000 -34.76857 25.902763 -31.016531 85.945274 -0.2514759 -5.3850479
-31.017752 85.906509 -0.081225768 -9.1322222 -31.354582 82.887215
-0.25201416 -5.3821435 -31.351667 82.853096 -35.086422 30.462399
406837500 -34.659878 26.313299 -30.852436 85.706833 -0.25171959 -5.4773369
-30.849812 85.659897 -0.08183042 -9.2908678 -31.182558 82.533134
-0.25250998 -5.4760022 -31.176315 82.670471 -35.049557 30.711243
414325000 -34.471794 26.495495 -30.66692 85.464355 -0.25172213 -5.5768094
-30.657753 85.377861 -0.079373136 -9.4374838 -31.014223 82.279015
-0.25265539 -5.5765638 -31.009109 82.359154 -35.026066 31.45311
421812500 -34.31683 26.377518 -30.559484 85.284096 -0.25360215 -5.6856189
-30.562128 85.293678 -0.08144325 -9.6158171 -30.874136 82.116676
-0.25309181 -5.6835852 -30.88768 82.048096 -34.936321 31.727913
429300000 -34.249882 26.270548 -30.412794 85.28817 -0.24960901 -5.7841334
-30.396065 85.355026 -0.078491755 -9.7706985 -30.72669 82.079979
-0.25280413 -5.7845488 -30.739199 82.064362 -34.884735 32.113491
436787500 -34.224823 26.475588 -30.254038 85.378792 -0.25094298 -5.8876505
-30.259909 85.322121 -0.081123166 -9.9219208 -30.575809 81.936409
-0.25256404 -5.8866005 -30.589064 82.032402 -34.844208 32.234989
444275000 -34.176136 26.821867 -30.092464 85.213966 -0.25185099 -5.9849081
-30.09446 85.232262 -0.082475148 -10.080021 -30.417818 81.789124
-0.25343439 -5.9829674 -30.43339 81.817055 -34.74979 32.559734
451762500 -34.135033 26.952583 -29.952959 84.935173 -0.25183406 -6.0841126
-29.955261 85.030586 -0.084285572 -10.241909 -30.283871 81.528786
-0.25476873 -6.0856895 -30.283821 81.544075 -34.818813 32.594826
459250000 -34.10667 27.405617 -29.809261 85.004501 -0.25297499 -6.1896367
-29.815786 84.986473 -0.088188149 -10.416107 -30.13868 81.462463
-0.25547272 -6.1878099 -30.140636 81.489334 -34.823956 33.599388
466737500 -34.143578 27.771496 -29.67506 84.744675 -0.25327808 -6.2904587
-29.673428 84.782341 -0.088345163 -10.588268 -29.998123 81.14463
-0.25436661 -6.2822156 -30.006594 81.186974 -34.775269 33.911213
474225000 -34.165779 28.422216 -29.52894 84.722137 -0.25364089 -6.3852997
-29.526581 84.675362 -0.08877632 -10.759192 -29.853825 81.042213
-0.25531936 -6.3815064 -29.861528 81.048073 -34.738335 34.36594
481712500 -34.043507 28.949299 -29.377558 84.602158 -0.25552076 -6.4772277
-29.384632 84.582932 -0.091254905 -10.922412 -29.718052 80.884895
-0.25646731 -6.4798179 -29.71674 80.925133 -34.723759 35.491451
489200000 -33.93713 28.891127 -29.25754 84.261627 -0.25299332 -6.5808086
-29.264595 84.272377 -0.087465815 -11.102866 -29.58489 80.661575
-0.25521052 -6.5756583 -29.591747 80.661171 -34.689068 35.970325
496687500 -33.906139 28.939871 -29.128876 84.263664 -0.25585222 -6.6836071
-29.136545 84.276268 -0.089641474 -11.281349 -29.471649 80.530396
-0.25669268 -6.6780291 -29.464725 80.589249 -34.629143 36.590919
504175000 -33.828125 29.83736 -28.993935 84.09333 -0.25724685 -6.7785182
-29.001177 84.147881 -0.088004023 -11.454678 -29.332088 80.31794
-0.25462937 -6.7824397 -29.335619 80.357132 -34.533772 36.710262
511662500 -33.649498 30.06094 -28.872452 84.117874 -0.25619799 -6.8823009
-28.872902 84.122971 -0.088390723 -11.629283 -29.199556 80.264481
-0.25657439 -6.8692303 -29.207247 80.264206 -34.500805 37.528694
519150000 -33.603302 30.507471 -28.748919 84.036346 -0.25507581 -6.9825487
-28.74852 84.038155 -0.088689804 -11.788546 -29.065941 80.103638
-0.25695524 -6.9741635 -29.076626 80.094315 -34.3433 37.910976
526637500 -33.476513 30.047806 -28.609112 83.841759 -0.2568951 -7.0887861
-28.609066 83.910187 -0.088031873 -11.953792 -28.94458 79.858902
-0.25534886 -7.0777111 -28.942999 79.894524 -34.262306 37.988655
534125000 -33.425911 30.666515 -28.478809 83.77845 -0.25892937 -7.1854606
-28.474802 83.722153 -0.08678323 -12.109158 -28.809479 79.77903
-0.25508952 -7.1813564 -28.809084 79.749207 -34.177208 37.412071
541612500 -33.417789 31.152657 -28.357805 83.610512 -0.25627577 -7.2872896
-28.36418 83.6548 -0.084509082 -12.280991 -28.694408 79.511131
-0.25630903 -7.2818851 -28.69088 79.538589 -34.107758 37.545204
549100000 -33.450035 31.232109 -28.225658 83.481468 -0.25812003 -7.3907504
-28.236998 83.430283 -0.088105686 -12.458655 -28.568792 79.310776
-0.25902873 -7.3820052 -28.572027 79.307419 -34.077717 37.485176
556587500 -33.479721 31.631327 -28.118505 83.413589 -0.25943047 -7.4840302
-28.120916 83.38047 -0.089025393 -12.634651 -28.462458 79.206238
-0.25753194 -7.4823632 -28.458344 79.188492 -34.032677 37.641171
564075000 -33.544323 32.16798 -28.008652 83.309853 -0.25872207 -7.5818491
-28.002724 83.281143 -0.092178203 -12.810346 -28.336742 79.05352
-0.25888753 -7.5812759 -28.341181 79.075294 -33.948761 37.651196
571562500 -33.583241 32.571014 -27.883224 83.077278 -0.26002276 -7.6823688
-27.882004 83.128021 -0.091576613 -12.993391 -28.221325 78.804146
-0.25681171 -7.6771421 -28.226564 78.775002 -33.930073 37.964123
579050000 -33.518578 32.531029 -27.765945 82.957809 -0.26135382 -7.7910814
-27.780275 82.992142 -0.093435779 -13.177742 -28.119146 78.586937
-0.25798374 -7.7785745 -28.118942 78.61541 -33.903473 38.229538
586537500 -33.521469 32.752975 -27.659317 82.874191 -0.26073113 -7.8870234
-27.664265 82.865074 -0.091680087 -13.366173 -27.990032 78.484459
-0.25959253 -7.8810248 -28.003292 78.491264 -33.928398 39.176521
594025000 -33.556175 33.162273 -27.556805 82.71962 -0.26106218 -7.9837742
-27.560566 82.678505 -0.091243625 -13.542014 -27.888317 78.282265
-0.25911498 -7.9813862 -27.899023 78.256493 -33.892136 39.336571
601512500 -33.468971 32.741257 -27.441456 82.656631 -0.25928992 -8.0805464
-27.440359 82.628464 -0.092499733 -13.711625 -27.774902 78.10022
-0.26057836 -8.0758791 -27.783783 78.163605 -33.854511 39.583275
609000000 -33.427582 32.990738 -27.325298 82.521309 -0.26284501 -8.1837568
-27.324354 82.505432 -0.092032924 -13.881967 -27.673962 77.8964
-0.26070252 -8.1841164 -27.671379 77.916092 -33.911884 39.78656
616487500 -33.318058 32.828133 -27.218885 82.309387 -0.26164454 -8.2819443
-27.227968 82.29982 -0.090706371 -14.042902 -27.563213 77.707458
-0.2615926 -8.28337 -27.56432 77.691803 -33.861034 39.938255
623975000 -33.225113 32.821861 -27.116455 82.26667 -0.26226088 -8.3817978
-27.118826 82.241592 -0.092118002 -14.204947 -27.456848 77.564224
-0.26182267 -8.3795643 -27.459867 77.552223 -33.846519 39.844276
631462500 -33.213451 33.058765 -27.011333 82.227005 -0.26206747 -8.4859152
-27.016443 82.204124 -0.091032639 -14.364633 -27.355391 77.421066
-0.26339751 -8.4756708 -27.354391 77.418388 -33.881943 39.913521
638950000 -33.151054 32.651268 -26.896347 82.190712 -0.26079911 -8.5855503
-26.906479 82.208572 -0.092494637 -14.52202 -27.239313 77.344635
-0.2642653 -8.5765848 -27.244844 77.359261 -33.782608 39.483887
646437500 -33.08596 32.583881 -26.790289 82.027374 -0.2617538 -8.6843052
-26.798138 82.01516 -0.096330591 -14.682851 -27.136564 77.126984
-0.26267394 -8.6770124 -27.139444 77.16024 -33.73317 39.357052
653925000 -33.1558 32.926418 -26.690893 81.893845 -0.26394415 -8.7843275
-26.691809 81.850029 -0.09632922 -14.847135 -27.039854 76.914505
-0.26317036 -8.7802219 -27.039682 76.998894 -33.721691 39.258362
661412500 -33.08403 32.820427 -26.590782 81.673691 -0.26247963 -8.8820715
-26.582766 81.679108 -0.096507154 -15.018138 -26.935658 76.715797
-0.25964403 -8.8769464 -26.934109 76.741661 -33.699562 39.454021
668900000 -33.216377 32.898247 -26.508083 81.583069 -0.26079455 -8.9876919
-26.513605 81.569969 -0.097791426 -15.202181 -26.848007 76.526161
-0.26184171 -8.9809618 -26.85186 76.538132 -33.727741 39.746441
676387500 -33.183792 33.100636 -26.417603 81.450417 -0.26523492 -9.092926
-26.418003 81.429016 -0.10118749 -15.38812 -26.753014 76.369423
-0.26324591 -9.0775852 -26.754139 76.376053 -33.739777 39.879772
683875000 -33.252102 33.609795 -26.31926 81.34124 -0.26319942 -9.1912518
-26.321123 81.358383 -0.10150497 -15.56678 -26.664354 76.194069
-0.26418182 -9.1795349 -26.666553 76.211197 -33.745132 40.442455
691362500 -33.186745 33.848087 -26.223738 81.162247 -0.26271859 -9.2854967
-26.226376 81.157661 -0.10200851 -15.743364 -26.567961 75.975945
-0.26376572 -9.279768 -26.569237 75.997803 -33.676193 40.726856
698850000 -33.099274 33.793308 -26.130903 81.078522 -0.26477244 -9.3898926
-26.129177 81.071602 -0.10242705 -15.908621 -26.472128 75.802139
-0.26418892 -9.3773184 -26.474634 75.820892 -33.703239 41.371723
706337500 -33.002579 33.831661 -26.034122 80.954063 -0.26346767 -9.4804049
