! Device:	HMC544A								
! Description:	GaAs MMIC SPDT Reflective Switch
! Package:	6-Lead Small Outline Transistor Package								
! Frequency:	DC -  4 GHz								
!								
! Ports:								
! RFC = Port 1								
! RF1 = Port 2								
! RF2 = Port 3								
!								
! State: Undefined																
!								
! Control Voltages: 																
! A  = 5 V
! B  = 5 V
!
! Data:	Data was collected using a calibrated network analyzer with AFR software.
!	Fixtures were calculated using AFR and fixturing was applied to collect 
!	this Deembedded  S Parameter data of HMC544A.
!
! Note:	Analog Devices supplies this data as a sample of measured data at the package pin
!	for this product.  Your particular data for this product may vary.
!	Data was taken at 25 degrees C.
!	Analog Devices reserves the right to change this data at anytime.								
!
# Hz S  dB   R 50
10000000 -10.009612 179.88925 -3.7167473 -0.21528456 -3.723429 -0.19513126
-3.7138534 -0.1502896 -10.851904 179.81189 -4.1225457 -0.27450484
-3.7181454 -0.13202642 -4.1117611 -0.27963215 -10.831131 179.71622
17487500 -9.9963274 179.82939 -3.7144866 -0.21218222 -3.717108 -0.23864019
-3.7173157 -0.19197318 -10.830376 179.58049 -4.1185985 -0.34750161
-3.7122884 -0.22173817 -4.1087089 -0.35384738 -10.82865 179.54295
24975000 -9.993639 179.65196 -3.7151561 -0.26591986 -3.7175145 -0.29102468
-3.7140503 -0.26457319 -10.831746 179.23866 -4.1179562 -0.45926753
-3.7140651 -0.29476652 -4.112247 -0.4558993 -10.821856 179.28304
32462500 -9.9958096 179.46683 -3.7143898 -0.33838463 -3.7171268 -0.35934258
-3.7170475 -0.343227 -10.843154 178.97896 -4.1131692 -0.58856666
-3.7128191 -0.34310198 -4.1087842 -0.58094734 -10.831594 178.99696
39950000 -9.9971914 179.13519 -3.7108493 -0.35328165 -3.7159626 -0.35928622
-3.7107737 -0.34836739 -10.851205 178.52115 -4.1104217 -0.64578068
-3.7090521 -0.34868369 -4.104938 -0.64538634 -10.834474 178.5625
47437500 -10.038083 179.41266 -3.6918228 -0.63630325 -3.6986012 -0.62700218
-3.6946898 -0.63559628 -10.897619 178.69778 -4.0924263 -0.98505843
-3.6925185 -0.63175648 -4.0846872 -0.99247807 -10.880769 178.74849
54925000 -10.013219 179.17949 -3.7089899 -0.71241075 -3.7105742 -0.69427651
-3.7109978 -0.69912654 -10.870356 178.29924 -4.1040502 -1.0926561
-3.7108428 -0.68765521 -4.0994444 -1.0994197 -10.844959 178.36357
62412500 -10.005891 179.01205 -3.7127187 -0.76642108 -3.7166491 -0.7491107
-3.7153928 -0.76129115 -10.861956 178.0179 -4.1099734 -1.2209026
-3.7158551 -0.73282826 -4.1052032 -1.2132456 -10.840137 178.04762
69900000 -10.002381 178.87656 -3.710726 -0.84853995 -3.7100317 -0.82230711
-3.7129028 -0.84496391 -10.850412 177.7493 -4.1086025 -1.3211162
-3.7102923 -0.81559795 -4.1066961 -1.3206888 -10.834932 177.80946
77387500 -9.9997034 178.74342 -3.7124434 -0.93811208 -3.7121358 -0.90409315
-3.7133901 -0.94176066 -10.849701 177.5433 -4.1092176 -1.4653394
-3.7124805 -0.88378513 -4.1079774 -1.4505922 -10.834003 177.55002
84875000 -10.003518 178.61732 -3.7135625 -1.0129766 -3.7130709 -0.97222567
-3.7146626 -1.0182403 -10.852016 177.29663 -4.1098056 -1.5902793
-3.7118797 -0.98369402 -4.107513 -1.5976814 -10.831344 177.34109
92362500 -9.9969397 178.53075 -3.7119334 -1.0944201 -3.711194 -1.0585413
-3.7137389 -1.0971469 -10.843396 177.061 -4.1106462 -1.7254117
-3.7107944 -1.0597492 -4.1083069 -1.7219003 -10.829289 177.13361
99850000 -9.9926224 178.41428 -3.7115226 -1.1736542 -3.7112906 -1.141802
-3.7133744 -1.1748314 -10.839389 176.8343 -4.1118755 -1.8541706
-3.7101543 -1.1458381 -4.1086912 -1.8512669 -10.823622 176.90852
107337500 -9.9895496 178.28395 -3.7110863 -1.2693299 -3.7100151 -1.2290663
-3.7128546 -1.26638 -10.839166 176.57231 -4.1121936 -1.986468
-3.7098298 -1.2306447 -4.1107697 -1.9885402 -10.821327 176.63541
114825000 -9.9905167 178.14325 -3.710959 -1.3497694 -3.7101789 -1.3161662
-3.7120762 -1.3455504 -10.842435 176.33315 -4.1111832 -2.127152
-3.7106383 -1.3139412 -4.1106405 -2.127918 -10.822286 176.37703
122312500 -9.9926758 178.00705 -3.7091906 -1.4291782 -3.7109687 -1.3904679
-3.7106066 -1.4271218 -10.850285 176.08047 -4.1121044 -2.2632773
-3.7098868 -1.3837075 -4.1093516 -2.2609546 -10.82461 176.15123
129800000 -9.9975891 177.86494 -3.7094004 -1.4923609 -3.711102 -1.4646747
-3.7110624 -1.4956421 -10.853803 175.80762 -4.1119761 -2.4018064
-3.7103631 -1.4660335 -4.1098895 -2.3970721 -10.825055 175.93274
137287500 -10.000191 177.73239 -3.7070637 -1.5824568 -3.7105865 -1.5386133
-3.7083607 -1.5816816 -10.856239 175.54327 -4.1127872 -2.5317466
-3.71035 -1.537413 -4.1111221 -2.5300896 -10.827522 175.65379
144775000 -10.003509 177.5753 -3.7053699 -1.6585923 -3.7085783 -1.600481
-3.7071722 -1.6547624 -10.861691 175.25296 -4.1112599 -2.6632607
-3.7079756 -1.6024382 -4.1091461 -2.6642625 -10.830522 175.39598
152262500 -10.013659 177.41087 -3.6992426 -1.7317095 -3.7021182 -1.6682652
-3.7011495 -1.7382033 -10.870381 174.96822 -4.1055512 -2.7862749
-3.7014818 -1.659327 -4.1021476 -2.7744234 -10.844337 175.1021
159750000 -10.032827 177.44417 -3.6917737 -1.8821255 -3.6955767 -1.8081754
-3.6941493 -1.8829885 -10.886641 174.85852 -4.0980029 -2.9877291
-3.6943929 -1.8100855 -4.0940037 -2.9864531 -10.860543 175.01318
167237500 -10.01283 177.42731 -3.7014816 -2.0093353 -3.7029271 -1.9385469
-3.7033782 -2.0114739 -10.86459 174.73007 -4.1050892 -3.1653206
-3.7026441 -1.936802 -4.1030374 -3.1668835 -10.842714 174.86899
174725000 -10.003552 177.29608 -3.7063813 -2.0832446 -3.7078462 -2.0090191
-3.7082791 -2.0876291 -10.850088 174.48071 -4.1097531 -3.2951839
-3.7069018 -2.0125716 -4.1072531 -3.290921 -10.830714 174.61586
182212500 -9.9962835 177.17259 -3.707166 -2.1677151 -3.7073553 -2.0890064
-3.7096922 -2.1610832 -10.841221 174.2265 -4.1111341 -3.4080977
-3.7087634 -2.0922098 -4.1095629 -3.4146919 -10.821747 174.34407
189700000 -9.9921932 177.0529 -3.7072029 -2.2421548 -3.7057765 -2.1696811
-3.7111142 -2.2495923 -10.83561 174.03006 -4.1129956 -3.5534639
-3.7073102 -2.1591499 -4.1106048 -3.5476341 -10.821959 174.10614
197187500 -9.9926367 176.93156 -3.7050085 -2.3406143 -3.7069392 -2.253777
-3.7094357 -2.3386884 -10.834458 173.77982 -4.112401 -3.6795917
-3.7080183 -2.248297 -4.1098576 -3.6833503 -10.814024 173.8793
204675000 -9.9945526 176.80513 -3.7056806 -2.3959801 -3.7092018 -2.3238323
-3.7078497 -2.4022336 -10.836225 173.55428 -4.1147838 -3.8132472
-3.7083726 -2.3327329 -4.1120849 -3.8192096 -10.814146 173.6387
212162500 -9.9990788 176.69209 -3.7087367 -2.4793289 -3.7082961 -2.4171808
-3.711365 -2.4865701 -10.841631 173.33189 -4.1149483 -3.9550929
-3.7085874 -2.4121006 -4.1128078 -3.9481423 -10.815866 173.42676
219650000 -10.003185 176.56119 -3.7074707 -2.5657625 -3.7119751 -2.5046329
-3.7107215 -2.5717559 -10.844275 173.08435 -4.1170173 -4.0883636
-3.7097921 -2.5000665 -4.1131821 -4.078434 -10.811401 173.18671
227137500 -10.003395 176.4286 -3.7064803 -2.6615012 -3.7122767 -2.5848637
-3.7098036 -2.6643033 -10.849095 172.83607 -4.116631 -4.217083
-3.7138889 -2.5808322 -4.1147604 -4.2162905 -10.806902 172.95793
234625000 -10.005676 176.29462 -3.7059348 -2.7620211 -3.7116029 -2.661634
-3.7107637 -2.7603991 -10.850826 172.61079 -4.1173286 -4.3510003
-3.7120154 -2.6593692 -4.112123 -4.3489876 -10.806534 172.70358
242112500 -10.006668 176.1546 -3.7074449 -2.8247764 -3.7120242 -2.7492585
-3.7105823 -2.8381298 -10.849102 172.34752 -4.1179833 -4.4908929
-3.7110059 -2.7509263 -4.1137013 -4.4782848 -10.809998 172.50818
249600000 -10.009686 176.00374 -3.7065392 -2.9212978 -3.7127829 -2.8234129
-3.7100747 -2.9209676 -10.852568 172.08847 -4.1176691 -4.6104217
-3.7135189 -2.818079 -4.1131635 -4.6117668 -10.807588 172.23235
257087500 -10.014625 175.88342 -3.7057934 -3.0114887 -3.715538 -2.914139
-3.7098587 -3.0058045 -10.861406 171.85051 -4.1157069 -4.7597542
-3.7139101 -2.9004834 -4.1086078 -4.7512503 -10.818122 172.03604
264575000 -10.014959 175.77214 -3.705858 -3.0922222 -3.7109849 -2.9862368
-3.7082794 -3.0971866 -10.85357 171.62369 -4.1116843 -4.8847828
-3.7088485 -2.9958329 -4.1086802 -4.885973 -10.818048 171.7867
272062500 -10.007962 175.70799 -3.7071984 -3.211271 -3.7106242 -3.0891664
-3.7094946 -3.2041273 -10.848557 171.47057 -4.1124043 -5.0269279
-3.7098913 -3.0982165 -4.1093664 -5.0321579 -10.814091 171.64191
279550000 -10.003696 175.63091 -3.7102749 -3.2852554 -3.7131827 -3.1792672
-3.7125077 -3.2923222 -10.84608 171.28633 -4.1122146 -5.171032
-3.7135847 -3.1709754 -4.1099219 -5.1550779 -10.810785 171.42854
287037500 -9.9988785 175.54538 -3.7094889 -3.3758802 -3.7112334 -3.2575896
-3.7130933 -3.3730049 -10.843499 171.06963 -4.1130795 -5.3073621
-3.7109995 -3.2475512 -4.1082101 -5.3053808 -10.805861 171.20537
294525000 -9.9968777 175.41513 -3.7097456 -3.4507051 -3.7155113 -3.3479612
-3.7124028 -3.4461858 -10.844305 170.84947 -4.1146474 -5.4346628
-3.7137835 -3.3566093 -4.1098509 -5.4423919 -10.801388 171.01321
302012500 -9.9968681 175.31715 -3.7100151 -3.5283921 -3.7144179 -3.4293642
-3.712908 -3.525574 -10.849401 170.63899 -4.1143813 -5.5676274
-3.7167933 -3.434108 -4.112102 -5.5713673 -10.804592 170.79205
309500000 -9.995285 175.19737 -3.7097011 -3.6259494 -3.7184839 -3.5276086
-3.7111695 -3.6258202 -10.854033 170.40816 -4.1151309 -5.7172799
-3.7173889 -3.5190625 -4.1108384 -5.704464 -10.797935 170.53523
316987500 -9.9951372 175.07513 -3.7077687 -3.7156622 -3.7155554 -3.6134007
-3.7103159 -3.7044599 -10.859527 170.18901 -4.1134043 -5.8558373
-3.7184517 -3.6044731 -4.1117334 -5.8576012 -10.799459 170.31708
324475000 -9.9951429 174.93997 -3.7084806 -3.7988467 -3.7165663 -3.6829453
-3.7091148 -3.7919388 -10.862078 169.92822 -4.1138315 -5.9822731
-3.7170398 -3.6949286 -4.1119838 -5.9931955 -10.803605 170.09488
331962500 -9.9976368 174.80518 -3.7081888 -3.8901901 -3.7198448 -3.7706785
-3.7090948 -3.8885472 -10.86997 169.68227 -4.1158471 -6.1146808
-3.7189133 -3.7663064 -4.1118455 -6.112042 -10.799269 169.84285
339450000 -9.9990711 174.69226 -3.7075417 -3.9630756 -3.7198234 -3.8467331
-3.7105567 -3.9718642 -10.871037 169.42374 -4.1138315 -6.2546182
-3.7208626 -3.837106 -4.1118317 -6.2370687 -10.797619 169.64134
346937500 -9.9977312 174.56856 -3.7079213 -4.0679693 -3.7198155 -3.9323397
-3.7099955 -4.068377 -10.871636 169.19896 -4.1132221 -6.3778248
-3.7200749 -3.9270759 -4.1113739 -6.3753958 -10.792091 169.38997
354425000 -9.9970055 174.44824 -3.7081723 -4.1450415 -3.7192922 -4.0049682
-3.7097156 -4.1470642 -10.870944 168.96338 -4.1143317 -6.5289264
-3.7199688 -3.9973938 -4.1116271 -6.5154819 -10.792661 169.1929
361912500 -10.002275 174.38077 -3.7079751 -4.2372551 -3.7184701 -4.0849915
-3.7092266 -4.2339315 -10.870156 168.72977 -4.1123867 -6.6635456
-3.7180912 -4.084146 -4.1088309 -6.6619186 -10.79321 168.97549
369400000 -9.9963102 174.29674 -3.7103329 -4.3254032 -3.7202585 -4.1795783
-3.710485 -4.3316264 -10.868419 168.51001 -4.1127381 -6.8058372
-3.7214622 -4.1728868 -4.1123266 -6.7958202 -10.78979 168.77237
376887500 -9.9912758 174.21094 -3.7089553 -4.4095178 -3.7205548 -4.2558289
-3.7104883 -4.4094553 -10.862416 168.30202 -4.1124201 -6.9398422
-3.720088 -4.2472825 -4.1094527 -6.9279709 -10.786638 168.57283
384375000 -9.986515 174.1144 -3.7081516 -4.4900756 -3.7225814 -4.3364358
-3.7125931 -4.4866924 -10.860985 168.07813 -4.1142721 -7.0756574
-3.7202735 -4.3373423 -4.1075644 -7.0798817 -10.782263 168.34935
391862500 -9.9882011 174.01207 -3.7092714 -4.5711069 -3.7222819 -4.4144087
-3.710767 -4.5769801 -10.866074 167.8596 -4.1136012 -7.2144489
-3.719243 -4.4117651 -4.1109447 -7.199523 -10.78121 168.10941
399350000 -9.9844742 173.90996 -3.7092848 -4.6682916 -3.7209685 -4.5040579
-3.7107928 -4.6721487 -10.868727 167.63814 -4.1140718 -7.3612885
-3.7220957 -4.499588 -4.1124029 -7.3558006 -10.776675 167.89505
406837500 -9.9869795 173.80257 -3.7096276 -4.734283 -3.7228935 -4.5866246
-3.7111521 -4.7481894 -10.873636 167.38599 -4.115015 -7.5034566
-3.7231624 -4.5831361 -4.1130314 -7.4858565 -10.775279 167.68196
414325000 -9.9890432 173.66541 -3.7072864 -4.8273902 -3.7229648 -4.668098
-3.7097995 -4.8304796 -10.878835 167.11786 -4.1155243 -7.6441302
-3.7244856 -4.6626697 -4.1142502 -7.6334085 -10.773029 167.43327
421812500 -9.9931688 173.54459 -3.708708 -4.9133511 -3.7271254 -4.7495365
-3.7076397 -4.9179039 -10.88486 166.86002 -4.1174755 -7.7744637
-3.7252955 -4.7505288 -4.1154647 -7.7712569 -10.774607 167.20016
429300000 -9.9945221 173.41476 -3.7069054 -5.0082288 -3.7241549 -4.8300118
-3.7080672 -5.0170956 -10.885226 166.59494 -4.1144714 -7.9104872
-3.7263827 -4.8253202 -4.1140604 -7.9023871 -10.769978 166.97073
436787500 -9.998435 173.29858 -3.7086849 -5.0982747 -3.7252579 -4.9072757
-3.7097902 -5.1024384 -10.884161 166.35423 -4.1167297 -8.0384169
-3.7264752 -4.9115982 -4.1154394 -8.0415249 -10.770954 166.7493
444275000 -9.9986572 173.1651 -3.7085965 -5.1890602 -3.7264535 -4.9851656
-3.7102809 -5.1941528 -10.884586 166.09943 -4.117137 -8.1749611
-3.7271585 -4.9835906 -4.1147504 -8.1734514 -10.770743 166.50728
451762500 -10.000505 173.05443 -3.7084286 -5.2726345 -3.7266152 -5.0642419
-3.7087221 -5.2784772 -10.877057 165.89592 -4.1160469 -8.3198414
-3.7278321 -5.0664792 -4.1158342 -8.3140793 -10.768712 166.31195
459250000 -9.999897 172.94002 -3.710371 -5.3728833 -3.7268677 -5.1614504
-3.7098968 -5.3705463 -10.86995 165.66287 -4.1174879 -8.4605112
-3.7281392 -5.1553545 -4.1180453 -8.4541416 -10.760291 166.08318
466737500 -9.9962549 172.83121 -3.70981 -5.4598947 -3.7272594 -5.2386303
-3.7114897 -5.4642997 -10.865337 165.45808 -4.1190124 -8.5887184
-3.7267008 -5.228878 -4.1152925 -8.5761538 -10.758107 165.88091
474225000 -9.9948139 172.70732 -3.7115908 -5.5468216 -3.7271519 -5.3226657
-3.7123563 -5.5488834 -10.860463 165.26128 -4.1176763 -8.7211809
-3.7265596 -5.3158555 -4.1164336 -8.7099504 -10.753916 165.6848
481712500 -9.9942532 172.59052 -3.7102559 -5.6232176 -3.7293222 -5.4025249
-3.7121139 -5.6344476 -10.855927 165.0361 -4.1203837 -8.8499193
-3.7277222 -5.4040923 -4.1178269 -8.8374519 -10.748401 165.4577
489200000 -9.9955864 172.45802 -3.7107689 -5.7109385 -3.7281601 -5.4854436
-3.7117546 -5.7249351 -10.853927 164.82088 -4.1196065 -8.9826937
-3.7265987 -5.4868531 -4.1169286 -8.9738407 -10.744775 165.24716
496687500 -9.9960651 172.33928 -3.7109115 -5.8010564 -3.730478 -5.5693417
-3.7122328 -5.8094268 -10.857464 164.59804 -4.121418 -9.1161404
-3.7296336 -5.5638604 -4.1173062 -9.0953531 -10.740137 165.02751
504175000 -9.9996939 172.20642 -3.7085629 -5.8759341 -3.7259758 -5.6539102
-3.7129426 -5.883172 -10.864297 164.33525 -4.1205068 -9.245471
-3.7270749 -5.6526971 -4.1167712 -9.2336893 -10.744308 164.80432
511662500 -10.000017 172.08353 -3.7066679 -5.9748859 -3.7273536 -5.7484083
-3.7086794 -5.9791727 -10.866406 164.10551 -4.1197062 -9.3819685
-3.7299154 -5.737226 -4.1173 -9.3697786 -10.737209 164.58362
519150000 -10.001536 171.94139 -3.7084603 -6.0683227 -3.7270803 -5.8353972
-3.7107165 -6.0719309 -10.871035 163.83321 -4.1223726 -9.5082264
-3.7283266 -5.8222761 -4.1182675 -9.4911766 -10.740892 164.34239
526637500 -10.004737 171.79887 -3.7062716 -6.1698074 -3.7296605 -5.9142127
-3.7102156 -6.1742921 -10.877983 163.56494 -4.1200156 -9.6507702
-3.7305846 -5.9043365 -4.1167226 -9.6331406 -10.738958 164.10533
534125000 -10.005836 171.67299 -3.7094455 -6.254405 -3.7314467 -5.989994
-3.7098832 -6.2596765 -10.881764 163.32664 -4.1204972 -9.7847681
-3.7290776 -5.9894471 -4.1177492 -9.7789135 -10.746114 163.88074
541612500 -10.001221 171.56711 -3.7078774 -6.3462844 -3.7290463 -6.0773902
-3.7087741 -6.347033 -10.88188 163.08498 -4.120903 -9.9173727
-3.7277553 -6.0736465 -4.1182365 -9.906661 -10.747467 163.67017
549100000 -9.9980507 171.45854 -3.7093477 -6.435925 -3.7308078 -6.1582475
-3.710237 -6.4404764 -10.88066 162.87488 -4.1207275 -10.052794
-3.7292979 -6.1515942 -4.1197948 -10.042067 -10.747124 163.46857
556587500 -9.9983635 171.35153 -3.709774 -6.522953 -3.7320433 -6.2404275
-3.7141807 -6.533339 -10.872417 162.68631 -4.1223812 -10.185557
-3.7310948 -6.2451563 -4.1159058 -10.174807 -10.747734 163.26216
564075000 -9.9905043 171.26994 -3.7115538 -6.6123133 -3.7310848 -6.3273621
-3.7134373 -6.6144485 -10.868299 162.47079 -4.1207108 -10.321642
-3.7314692 -6.3177414 -4.1181231 -10.311273 -10.742945 163.06126
571562500 -9.9862928 171.17003 -3.7116113 -6.6939306 -3.7317543 -6.4151649
-3.7123842 -6.6991782 -10.866419 162.28471 -4.1212568 -10.457372
-3.7302175 -6.4086366 -4.1168656 -10.446609 -10.742046 162.84772
579050000 -9.9842052 171.07678 -3.7119839 -6.7792239 -3.7352896 -6.5044475
-3.7122507 -6.788898 -10.869956 162.08937 -4.1204152 -10.603755
-3.7333229 -6.4909592 -4.118814 -10.577661 -10.738129 162.63464
586537500 -9.9840107 170.99042 -3.7119055 -6.8658338 -3.7329991 -6.5902739
-3.7117791 -6.8679881 -10.867271 161.88997 -4.1208386 -10.728525
-3.734199 -6.5829148 -4.1207523 -10.721651 -10.729484 162.44006
594025000 -9.9827986 170.89952 -3.7122252 -6.956182 -3.7329748 -6.6754112
-3.7115622 -6.9518628 -10.86943 161.69214 -4.1209579 -10.862963
-3.7331419 -6.6651597 -4.1203246 -10.858354 -10.730801 162.24289
601512500 -9.9802151 170.81149 -3.709197 -7.0294123 -3.7338178 -6.7522216
-3.7114043 -7.0406771 -10.875734 161.47722 -4.1209064 -11.001126
-3.7351809 -6.7385917 -4.1205773 -10.982601 -10.723539 162.03455
609000000 -9.9833927 170.6993 -3.7109084 -7.1196089 -3.7362714 -6.8363457
-3.7128289 -7.1136918 -10.881438 161.24411 -4.1260762 -11.136376
-3.7338822 -6.8319159 -4.1212535 -11.139608 -10.723753 161.83972
616487500 -9.9837046 170.60188 -3.7085807 -7.2093954 -3.7362735 -6.91997
-3.7096012 -7.208241 -10.888159 160.98264 -4.1221032 -11.267368
-3.7366405 -6.9155822 -4.1221328 -11.268825 -10.720671 161.62007
623975000 -9.9841938 170.46909 -3.7096078 -7.293323 -3.7387941 -6.9977765
-3.7090948 -7.2924342 -10.896047 160.73422 -4.123467 -11.41612
-3.7372525 -6.9920893 -4.1224766 -11.40764 -10.719666 161.4086
631462500 -9.9854956 170.33635 -3.7099948 -7.378284 -3.7387741 -7.0776792
-3.7114875 -7.3840194 -10.890098 160.49884 -4.1238451 -11.563187
-3.7389092 -7.0666566 -4.1220365 -11.545 -10.716149 161.19133
638950000 -9.9873028 170.20908 -3.712486 -7.4717712 -3.7400134 -7.1438251
-3.7103333 -7.478539 -10.89482 160.24974 -4.120821 -11.697495
-3.7395523 -7.1323404 -4.1217737 -11.675457 -10.717042 160.96399
646437500 -9.9921618 170.1041 -3.7096705 -7.5561719 -3.7398529 -7.2314405
-3.7108445 -7.5544429 -10.89533 159.99652 -4.1217828 -11.829445
-3.7392073 -7.2158279 -4.1215615 -11.817293 -10.716371 160.75723
653925000 -9.9886665 170.04639 -3.7100749 -7.654541 -3.7388377 -7.318367
-3.7108572 -7.6615291 -10.892941 159.78943 -4.119297 -11.963223
-3.7400682 -7.3116136 -4.1181574 -11.954432 -10.712345 160.57526
661412500 -9.9815683 169.95126 -3.7107072 -7.7483459 -3.7419679 -7.3942518
-3.7110972 -7.7519584 -10.889819 159.5932 -4.1212358 -12.109145
-3.7400856 -7.3846006 -4.1190586 -12.095448 -10.710097 160.36716
668900000 -9.9796305 169.8723 -3.712347 -7.8264422 -3.741539 -7.4791741
-3.7143335 -7.8308668 -10.882299 159.431 -4.121273 -12.239065
-3.7416356 -7.4669251 -4.1212664 -12.224993 -10.704984 160.18022
676387500 -9.97756 169.78326 -3.7124107 -7.9031849 -3.7442706 -7.5673633
-3.7133765 -7.911222 -10.883487 159.23051 -4.1233478 -12.382028
-3.7424326 -7.5506787 -4.1193628 -12.361922 -10.701663 159.9969
683875000 -9.9689741 169.69254 -3.7116656 -7.994915 -3.7420201 -7.6533132
-3.7124929 -8.0049181 -10.874356 159.01974 -4.1220069 -12.520186
-3.7414517 -7.6448431 -4.1204629 -12.502394 -10.693746 159.79222
691362500 -9.9693909 169.58871 -3.7098389 -8.0808783 -3.7426162 -7.7391405
-3.7128203 -8.0869846 -10.877844 158.78922 -4.1204953 -12.65659
-3.7423337 -7.7284136 -4.1192122 -12.640021 -10.690489 159.57582
698850000 -9.9695892 169.48981 -3.7109134 -8.1691313 -3.7444403 -7.8249569
