! Device:	HMC544A								
! Description:	GaAs MMIC SPDT Reflective Switch
! Package:	6-Lead Small Outline Transistor Package								
! Frequency:	DC -  4 GHz								
!								
! Ports:								
! RFC = Port 1								
! RF1 = Port 2								
! RF2 = Port 3								
!								
! State: Undefined																
!								
! Control Voltages: 																
! A  = 0 V
! B  = 0 V
!
! Data:	Data was collected using a calibrated network analyzer with AFR software.
!	Fixtures were calculated using AFR and fixturing was applied to collect 
!	this Deembedded  S Parameter data of HMC544A.
!
! Note:	Analog Devices supplies this data as a sample of measured data at the package pin
!	for this product.  Your particular data for this product may vary.
!	Data was taken at 25 degrees C.
!	Analog Devices reserves the right to change this data at anytime.								
!
# Hz S  dB   R 50
10000000 -9.9591541 179.94525 -3.7102582 -0.18751003 -3.7143226 -0.17948084
-3.7120314 -0.16528879 -10.732149 179.81721 -4.0842991 -0.24320664
-3.7125943 -0.16897239 -4.0786023 -0.23909441 -10.712176 179.76958
17487500 -9.9503841 179.78491 -3.7091274 -0.19855635 -3.7135401 -0.23505822
-3.7118547 -0.19791988 -10.714124 179.54539 -4.080071 -0.3445923
-3.7106798 -0.24179502 -4.0734172 -0.36204389 -10.714725 179.53926
24975000 -9.9483585 179.62219 -3.7083459 -0.26669276 -3.7133915 -0.30327374
-3.711319 -0.27395427 -10.717181 179.21263 -4.0817728 -0.48810789
-3.711833 -0.3122232 -4.0793452 -0.47126859 -10.707225 179.24815
32462500 -9.9494219 179.43282 -3.7101116 -0.34930155 -3.7133837 -0.36926529
-3.7127986 -0.35348165 -10.724447 178.96078 -4.0807824 -0.61168838
-3.7116587 -0.3699711 -4.0758834 -0.60467052 -10.713886 178.9747
39950000 -9.9473667 179.21318 -3.7059104 -0.40047535 -3.7129796 -0.41439909
-3.7084816 -0.4066931 -10.731266 178.61835 -4.0782967 -0.71488565
-3.7094467 -0.39897493 -4.0728693 -0.69748455 -10.719833 178.62488
47437500 -9.991003 179.3145 -3.6852527 -0.60341972 -3.693089 -0.59199291
-3.6906517 -0.61411178 -10.781503 178.62244 -4.0590596 -0.95882964
-3.6905138 -0.59790134 -4.0506768 -0.96262681 -10.762914 178.61079
54925000 -9.9639263 179.25052 -3.7023101 -0.74558985 -3.7057967 -0.72717315
-3.7066495 -0.74267113 -10.75123 178.37315 -4.069346 -1.1278906
-3.7069221 -0.72444677 -4.0648198 -1.1338531 -10.732736 178.41496
62412500 -9.9563951 179.04602 -3.7080309 -0.79227114 -3.7123177 -0.7746374
-3.7119648 -0.78096241 -10.742861 178.05759 -4.0770836 -1.2449523
-3.7134154 -0.75272232 -4.0740471 -1.236578 -10.719471 178.10027
69900000 -9.9529486 178.87813 -3.707443 -0.85843313 -3.7087831 -0.83860654
-3.7119963 -0.85694236 -10.728152 177.7636 -4.077333 -1.3510034
-3.7100306 -0.8401134 -4.073626 -1.3438084 -10.71998 177.82114
77387500 -9.9516859 178.72603 -3.7081516 -0.95993179 -3.7100041 -0.93551981
-3.7123499 -0.95858878 -10.732234 177.53587 -4.0780311 -1.4924655
-3.7129214 -0.90656763 -4.0765958 -1.4711599 -10.721009 177.54086
84875000 -9.9593458 178.5957 -3.710963 -1.0248618 -3.7116387 -0.99144006
-3.7131138 -1.0282769 -10.737493 177.26045 -4.0789728 -1.6194183
-3.7130601 -0.9913215 -4.0766015 -1.6130565 -10.721536 177.30621
92362500 -9.9528646 178.48152 -3.709065 -1.1098139 -3.7100666 -1.0805272
-3.7123532 -1.1072696 -10.731474 177.02382 -4.0802894 -1.7528703
-3.7110279 -1.070708 -4.07724 -1.7398176 -10.721078 177.05898
99850000 -9.9539604 178.36134 -3.7077296 -1.1859945 -3.7111828 -1.1651417
-3.7112238 -1.1909404 -10.730774 176.79121 -4.083106 -1.8767229
-3.709856 -1.1644911 -4.0786638 -1.8668898 -10.720093 176.81987
107337500 -9.9515219 178.22635 -3.7085776 -1.2820661 -3.7100928 -1.2487154
-3.7100821 -1.2794375 -10.731699 176.52736 -4.0828214 -2.0097785
-3.7100487 -1.2430755 -4.0791335 -2.0058973 -10.718818 176.57083
114825000 -9.9513311 178.10019 -3.7083509 -1.3599213 -3.7090857 -1.3289506
-3.7090023 -1.3602076 -10.73523 176.29916 -4.080399 -2.1445129
-3.7102487 -1.3291436 -4.0802417 -2.1478343 -10.720274 176.33696
122312500 -9.9515934 177.95616 -3.7060916 -1.4385687 -3.7093356 -1.4066285
-3.7076602 -1.4382012 -10.739963 176.04358 -4.0820913 -2.280421
-3.7092655 -1.4017352 -4.0802112 -2.2776656 -10.718474 176.10245
129800000 -9.9543209 177.8154 -3.7042642 -1.4906019 -3.7086492 -1.4727907
-3.7064302 -1.4936497 -10.743082 175.7657 -4.0814376 -2.4089627
-3.7085652 -1.4719268 -4.0790048 -2.4073887 -10.718885 175.85869
137287500 -9.9711571 177.63736 -3.6960104 -1.564906 -3.701375 -1.5362436
-3.6982677 -1.5651522 -10.758283 175.4709 -4.0748534 -2.5258029
-3.7024183 -1.5306675 -4.0736637 -2.5170157 -10.732794 175.56473
144775000 -9.9807234 177.77386 -3.6904736 -1.7720233 -3.6971393 -1.7363131
-3.6934719 -1.7713323 -10.771176 175.4725 -4.0716906 -2.7868063
-3.6975837 -1.7306819 -4.0686331 -2.7862351 -10.74351 175.59155
152262500 -9.9568691 177.64711 -3.7009282 -1.8586487 -3.7071159 -1.8087255
-3.7046351 -1.8611472 -10.746192 175.22256 -4.0802054 -2.9233973
-3.7083008 -1.7957873 -4.0772371 -2.9109392 -10.722519 175.32675
159750000 -9.9546413 177.50215 -3.7035382 -1.9267509 -3.7094734 -1.8618757
-3.7084577 -1.9277682 -10.741552 174.94832 -4.0821376 -3.0432997
-3.7119627 -1.8585083 -4.0793591 -3.0398054 -10.719067 175.0536
167237500 -9.9534664 177.37137 -3.7050066 -2.002213 -3.7092292 -1.9397618
-3.7091575 -2.0044334 -10.738119 174.69354 -4.0823231 -3.1707356
-3.7118182 -1.9404523 -4.0800724 -3.1689827 -10.718569 174.79684
174725000 -9.953517 177.23981 -3.7062116 -2.0872257 -3.7099864 -2.0202558
-3.7095251 -2.0907345 -10.733504 174.45085 -4.0837088 -3.3067458
-3.7121611 -2.0194957 -4.081789 -3.3015773 -10.717644 174.54066
182212500 -9.9525013 177.11674 -3.7057467 -2.1701605 -3.7085509 -2.0980368
-3.709286 -2.1735072 -10.728883 174.2068 -4.0840316 -3.4305506
-3.712235 -2.1011577 -4.0825586 -3.4297893 -10.7154 174.2755
189700000 -9.9509621 177.00378 -3.706295 -2.2564833 -3.7070322 -2.1814001
-3.7104659 -2.2635853 -10.728197 173.99628 -4.0862942 -3.5738096
-3.7092175 -2.1773686 -4.083118 -3.5645957 -10.715015 174.04388
197187500 -9.953639 176.88486 -3.7066004 -2.3495061 -3.7084551 -2.2781355
-3.7089925 -2.3555982 -10.729004 173.74942 -4.0859928 -3.7094557
-3.7109787 -2.2665226 -4.0843439 -3.6957386 -10.711483 173.80246
204675000 -9.9555798 176.75381 -3.7063179 -2.417558 -3.7091269 -2.3532562
-3.7076015 -2.4215744 -10.729339 173.52223 -4.0855365 -3.8427007
-3.711194 -2.3501151 -4.0850701 -3.8376255 -10.706067 173.56528
212162500 -9.9593039 176.64313 -3.7072051 -2.4969907 -3.707788 -2.441937
-3.710638 -2.5014026 -10.729589 173.28619 -4.0875773 -3.9767847
-3.7115598 -2.435976 -4.0850196 -3.9663613 -10.70668 173.35466
219650000 -9.9602423 176.5108 -3.7068372 -2.5813475 -3.7116909 -2.5265591
-3.7099171 -2.5888243 -10.730717 173.04123 -4.0891824 -4.1083651
-3.7104917 -2.5214753 -4.0851655 -4.1032591 -10.702164 173.12724
227137500 -9.9613152 176.37041 -3.705318 -2.662575 -3.7134798 -2.6039708
-3.7094374 -2.671514 -10.735362 172.81355 -4.089385 -4.2328968
-3.7156918 -2.6070638 -4.0875797 -4.2289677 -10.69506 172.90123
234625000 -9.9622364 176.22221 -3.7033005 -2.7583873 -3.7111077 -2.6702185
-3.708421 -2.7589462 -10.735616 172.56836 -4.0884695 -4.3587971
-3.7138672 -2.6677034 -4.0838585 -4.3566809 -10.69507 172.64093
242112500 -9.975812 176.1024 -3.7008674 -2.8424332 -3.7072825 -2.7635229
-3.7044199 -2.846154 -10.743546 172.35583 -4.0848799 -4.5121865
-3.7079096 -2.7668571 -4.0809445 -4.5032821 -10.706953 172.46689
249600000 -9.9741783 176.06096 -3.7004185 -2.9736929 -3.7102859 -2.8816903
-3.7042432 -2.9716637 -10.744436 172.17302 -4.0854878 -4.6689849
-3.7106919 -2.8750231 -4.0818295 -4.6697178 -10.704502 172.29028
257087500 -9.9679031 175.95743 -3.704818 -3.0428669 -3.7153049 -2.9727142
-3.7055256 -3.0565634 -10.746716 171.94554 -4.0855775 -4.821095
-3.7128766 -2.9614296 -4.0818887 -4.7982883 -10.709092 172.11687
264575000 -9.964386 175.83839 -3.7075198 -3.1482913 -3.7136893 -3.0534289
-3.7100687 -3.1571984 -10.740169 171.70947 -4.0862889 -4.9442039
-3.7156248 -3.0565665 -4.0826883 -4.9362946 -10.702784 171.853
272062500 -9.9631796 175.72273 -3.7070737 -3.2415712 -3.715255 -3.1241851
-3.7116311 -3.2409344 -10.739088 171.5009 -4.0892262 -5.0634532
-3.7164097 -3.1328354 -4.0843539 -5.0802917 -10.702097 171.62361
279550000 -9.9590845 175.63814 -3.7104368 -3.3181996 -3.7153473 -3.2071869
-3.7126248 -3.3163805 -10.740192 171.28864 -4.0870695 -5.2015691
-3.7169099 -3.2060101 -4.0847716 -5.1930127 -10.704919 171.41876
287037500 -9.9629116 175.51416 -3.7094319 -3.4116807 -3.7148998 -3.293144
-3.7138648 -3.4090462 -10.737603 171.0607 -4.0871768 -5.3472095
-3.714792 -3.293644 -4.0827646 -5.3486867 -10.702971 171.18404
294525000 -9.9615841 175.41743 -3.7090828 -3.4802239 -3.7164109 -3.3903296
-3.7119479 -3.4806144 -10.738894 170.82564 -4.0884271 -5.475018
-3.7157052 -3.3921142 -4.0833621 -5.4785938 -10.697665 170.98181
302012500 -9.9605217 175.29713 -3.7088425 -3.5630705 -3.7177002 -3.4799151
-3.7131884 -3.5673683 -10.742023 170.62213 -4.0872779 -5.6049433
-3.7202094 -3.4781263 -4.085609 -5.6101184 -10.699553 170.74832
309500000 -9.9588547 175.17807 -3.7096007 -3.6625297 -3.7193084 -3.5620337
-3.7120354 -3.6652708 -10.744805 170.38028 -4.0878663 -5.7441502
-3.7190757 -3.5618019 -4.0845776 -5.745399 -10.693093 170.50697
316987500 -9.9556952 175.04706 -3.7087533 -3.7470827 -3.7193208 -3.6456831
-3.7127769 -3.749341 -10.747337 170.17763 -4.0874429 -5.8853946
-3.7217336 -3.6541986 -4.0855675 -5.8886967 -10.693519 170.28535
324475000 -9.9541349 174.94794 -3.7088535 -3.831202 -3.7193575 -3.7311919
-3.7090311 -3.8182857 -10.748488 169.9393 -4.08671 -6.0206943
-3.7201941 -3.7329199 -4.0850387 -6.0315504 -10.691185 170.07162
331962500 -9.953248 174.80368 -3.7081218 -3.920028 -3.7230191 -3.8119149
-3.7100377 -3.922019 -10.755164 169.72507 -4.0881281 -6.1576233
-3.722425 -3.8084402 -4.0856991 -6.1484766 -10.685433 169.85802
339450000 -9.9520702 174.69565 -3.7075751 -3.9988773 -3.7239358 -3.8911619
-3.7114921 -4.0029163 -10.753014 169.49361 -4.0873151 -6.2981877
-3.72244 -3.88185 -4.0835834 -6.2767391 -10.682481 169.66078
346937500 -9.9488487 174.58443 -3.7071798 -4.1012821 -3.7229795 -3.9794924
-3.710505 -4.0983534 -10.749565 169.27814 -4.0860796 -6.4272461
-3.7236087 -3.9731698 -4.0837255 -6.4162173 -10.677871 169.43855
354425000 -9.9456911 174.47461 -3.7079773 -4.1802287 -3.7234232 -4.052649
-3.7112663 -4.1857829 -10.752378 169.0592 -4.0872154 -6.5777454
-3.7234318 -4.0390506 -4.0839357 -6.566555 -10.677417 169.23949
361912500 -9.9456081 174.36089 -3.7080598 -4.2629476 -3.7234712 -4.1148362
-3.7113373 -4.2604303 -10.751433 168.80818 -4.0875726 -6.7048659
-3.7243309 -4.1129537 -4.083775 -6.7050982 -10.676835 168.9966
369400000 -9.9486065 174.29881 -3.7107289 -4.3602624 -3.7221127 -4.2158022
-3.7099576 -4.3615909 -10.755591 168.58931 -4.0859981 -6.8514361
-3.7235823 -4.2087197 -4.0873494 -6.8373208 -10.680087 168.78979
376887500 -9.9464054 174.2079 -3.7088726 -4.445724 -3.723753 -4.2875714
-3.7114265 -4.442987 -10.754719 168.35574 -4.0860438 -6.9767337
-3.7243655 -4.2915301 -4.0850568 -6.979228 -10.677851 168.56427
384375000 -9.944787 174.11667 -3.7090025 -4.526947 -3.725239 -4.3802552
-3.7121933 -4.5239115 -10.755451 168.10992 -4.0893264 -7.1256566
-3.7232392 -4.3765259 -4.0824084 -7.1233439 -10.677379 168.33736
391862500 -9.9475489 174.00784 -3.7102485 -4.6175513 -3.7271059 -4.4550061
-3.7148564 -4.6176848 -10.758413 167.88045 -4.0907707 -7.2580342
-3.7260184 -4.4573445 -4.0847321 -7.2466693 -10.673769 168.08928
399350000 -9.946907 173.89905 -3.7093999 -4.7018313 -3.7248065 -4.5467243
-3.7125409 -4.7064223 -10.762806 167.63184 -4.0882277 -7.4006834
-3.7267804 -4.5455852 -4.0879645 -7.3952723 -10.670085 167.86107
406837500 -9.9492645 173.80315 -3.7108781 -4.7725415 -3.7268391 -4.624361
-3.7113607 -4.782053 -10.764482 167.38484 -4.0892258 -7.5344014
-3.7274275 -4.6239381 -4.0881724 -7.5283027 -10.670591 167.65181
414325000 -9.9530468 173.67244 -3.7093236 -4.8625998 -3.7256808 -4.7127028
-3.7101202 -4.8611231 -10.768117 167.12007 -4.089077 -7.6793098
-3.7278523 -4.706131 -4.0894384 -7.6713681 -10.666717 167.41377
421812500 -9.9538517 173.54391 -3.7099297 -4.9499602 -3.7307923 -4.7898822
-3.70906 -4.9489121 -10.769994 166.86363 -4.0911222 -7.80933
-3.728934 -4.7919025 -4.0907774 -7.8098879 -10.665841 167.1956
429300000 -9.9549713 173.42909 -3.7054579 -5.0491605 -3.7276306 -4.8752737
-3.7070856 -5.0498195 -10.773518 166.64796 -4.0879841 -7.9505682
-3.7288685 -4.8720665 -4.0877175 -7.9450092 -10.660369 166.98215
436787500 -9.9517679 173.31778 -3.7089779 -5.1460099 -3.7296712 -4.9588366
-3.7104857 -5.1412067 -10.764646 166.42796 -4.090344 -8.0864372
-3.7307904 -4.9567375 -4.0892391 -8.0903158 -10.655315 166.77953
444275000 -9.9513741 173.17857 -3.7094791 -5.2268581 -3.7310185 -5.0335274
-3.7105076 -5.2341628 -10.764339 166.18327 -4.0904574 -8.2248373
-3.7313995 -5.0341263 -4.0875759 -8.2170382 -10.656233 166.54346
451762500 -9.9531126 173.06696 -3.710263 -5.3142858 -3.7301257 -5.1112914
-3.7102749 -5.3119788 -10.760331 165.98207 -4.0896411 -8.3694553
-3.7329681 -5.1124253 -4.0895915 -8.3663759 -10.652594 166.34882
459250000 -9.9527111 172.94247 -3.7118053 -5.4099331 -3.7319577 -5.2056298
-3.711297 -5.4055285 -10.754832 165.7464 -4.0910563 -8.5059814
-3.7331789 -5.1946421 -4.091857 -8.502944 -10.64765 166.1185
466737500 -9.9519901 172.82343 -3.7113969 -5.5002747 -3.7301667 -5.2816477
-3.7124925 -5.5030704 -10.754313 165.5359 -4.0927591 -8.6343889
-3.7315438 -5.2738962 -4.0899348 -8.6254063 -10.647216 165.90292
474225000 -9.9518709 172.69742 -3.7125294 -5.5858665 -3.7313409 -5.3604245
-3.7147028 -5.5882511 -10.75322 165.31737 -4.0932212 -8.7681799
-3.7314143 -5.3568864 -4.0911455 -8.7630291 -10.64678 165.6935
481712500 -9.9540405 172.57657 -3.711678 -5.6636648 -3.733367 -5.444468
-3.713789 -5.672461 -10.751695 165.07167 -4.0952096 -8.8994331
-3.7332413 -5.4398899 -4.0918245 -8.8877716 -10.64273 165.4498
489200000 -9.9593344 172.435 -3.7116883 -5.7511215 -3.7310677 -5.525012
-3.7150371 -5.7598939 -10.751053 164.83755 -4.0941911 -9.0274057
-3.7328446 -5.5232596 -4.0919199 -9.0220251 -10.638409 165.23015
496687500 -9.9658337 172.33325 -3.7100871 -5.846314 -3.7318876 -5.614996
-3.7124035 -5.8571405 -10.757424 164.62381 -4.0942769 -9.1634054
-3.732219 -5.6080832 -4.090713 -9.1461697 -10.638192 165.00221
504175000 -9.9616489 172.23924 -3.7088189 -5.9359097 -3.7296486 -5.7092223
-3.7139876 -5.9372292 -10.759511 164.37006 -4.0949197 -9.3001461
-3.7308352 -5.707314 -4.0905566 -9.286582 -10.638887 164.80032
511662500 -9.9593296 172.10103 -3.7089102 -6.0242558 -3.7308195 -5.8022757
-3.7115982 -6.0261879 -10.756948 164.13438 -4.0949492 -9.4304056
-3.735214 -5.7922082 -4.0927882 -9.4193888 -10.627696 164.58609
519150000 -9.9600906 171.97139 -3.7106044 -6.1134305 -3.732713 -5.8839455
-3.712647 -6.1137977 -10.758772 163.87512 -4.0965729 -9.5556316
-3.7321529 -5.873909 -4.0938039 -9.5397415 -10.632108 164.36996
526637500 -9.9616671 171.82808 -3.7092319 -6.2149572 -3.7347119 -5.9680605
-3.7099972 -6.215992 -10.761477 163.63223 -4.0953298 -9.6990881
-3.7345035 -5.9536233 -4.0928574 -9.6837244 -10.627918 164.14757
534125000 -9.9600649 171.70709 -3.7098694 -6.2980804 -3.7374613 -6.0442748
-3.7116275 -6.2968998 -10.762889 163.40956 -4.096983 -9.8321276
-3.7358632 -6.0388541 -4.0914755 -9.8303804 -10.634028 163.93657
541612500 -9.9577265 171.57599 -3.7096429 -6.3902965 -3.7320998 -6.1330171
-3.7129817 -6.3949738 -10.760959 163.19273 -4.0932274 -9.9708433
-3.7357528 -6.1254749 -4.0924239 -9.9637966 -10.634312 163.73624
549100000 -9.9526997 171.47357 -3.7109718 -6.4808154 -3.7345016 -6.2160306
-3.7130566 -6.4820871 -10.762064 162.97076 -4.0945625 -10.112928
-3.7356489 -6.2013211 -4.0922565 -10.097646 -10.635397 163.51926
556587500 -9.9507189 171.36914 -3.7095907 -6.5720158 -3.7372503 -6.28792
-3.714746 -6.5698605 -10.756572 162.78871 -4.0960546 -10.237226
-3.7357695 -6.2880635 -4.0904469 -10.236573 -10.634992 163.32393
564075000 -9.9459534 171.26962 -3.7123492 -6.6568451 -3.7354515 -6.3770885
-3.7148817 -6.6596246 -10.75701 162.58138 -4.0938559 -10.377471
-3.7374589 -6.3694572 -4.0928774 -10.365455 -10.634805 163.1087
571562500 -9.9416475 171.17824 -3.7112556 -6.7422729 -3.7359297 -6.457829
-3.7142489 -6.7410321 -10.760708 162.37323 -4.0960312 -10.510425
-3.7361305 -6.4510765 -4.0926495 -10.50683 -10.635558 162.88464
579050000 -9.9437704 171.07895 -3.7136192 -6.8271117 -3.7388439 -6.5494375
-3.714323 -6.8309374 -10.764476 162.1617 -4.0951004 -10.654954
-3.7393067 -6.5375834 -4.0946994 -10.634462 -10.632574 162.65379
586537500 -9.9440651 170.99367 -3.7137175 -6.9178867 -3.7385454 -6.6359267
-3.7136874 -6.9124761 -10.763671 161.93681 -4.0954428 -10.77986
-3.7403162 -6.63024 -4.0965466 -10.775496 -10.625678 162.4492
594025000 -9.9418955 170.90642 -3.7129719 -7.0008349 -3.737031 -6.7268877
-3.7139664 -7.0062017 -10.766161 161.74059 -4.0969515 -10.916152
-3.7374692 -6.7182417 -4.0958042 -10.907934 -10.62604 162.24617
601512500 -9.9401999 170.81754 -3.7116699 -7.0844979 -3.7376912 -6.7993693
-3.7132201 -7.0860701 -10.769481 161.51042 -4.0960379 -11.049745
-3.7403693 -6.7912116 -4.0949192 -11.035923 -10.618342 162.03552
609000000 -9.9426012 170.71545 -3.7140296 -7.1686006 -3.7386079 -6.8859816
-3.7147365 -7.1580911 -10.772579 161.27327 -4.0984359 -11.184407
-3.7391183 -6.8816214 -4.09517 -11.191752 -10.614573 161.8443
616487500 -9.9441252 170.6165 -3.7118354 -7.256978 -3.7392848 -6.9747348
-3.7120514 -7.256865 -10.778142 161.03096 -4.0971351 -11.322297
-3.7431493 -6.9694839 -4.0963259 -11.321788 -10.609203 161.64075
623975000 -9.9403582 170.50438 -3.7117095 -7.3425822 -3.7428601 -7.0516448
-3.7115324 -7.3425603 -10.78167 160.80507 -4.0977693 -11.464623
-3.7432356 -7.0505843 -4.0946984 -11.462259 -10.606286 161.46465
631462500 -9.9422321 170.37865 -3.7126687 -7.428442 -3.7419662 -7.1331673
-3.71369 -7.4325418 -10.774559 160.58902 -4.0970016 -11.611773
-3.7438135 -7.1208768 -4.0963035 -11.601143 -10.602265 161.27171
638950000 -9.9392157 170.25879 -3.7142713 -7.5198078 -3.7440741 -7.2067795
-3.713866 -7.5300512 -10.778629 160.36032 -4.0957937 -11.758465
-3.746588 -7.1926441 -4.0962605 -11.735334 -10.604115 161.05214
646437500 -9.9362955 170.14516 -3.7127528 -7.6110182 -3.7449288 -7.2844534
-3.7133746 -7.6087503 -10.778793 160.12466 -4.0961785 -11.889101
-3.7470117 -7.2720623 -4.0943832 -11.874691 -10.599895 160.85269
653925000 -9.9362106 170.01431 -3.713912 -7.7022381 -3.7453859 -7.3548322
-3.7154517 -7.7054935 -10.777213 159.92236 -4.0963635 -12.024806
-3.7475271 -7.3459668 -4.0944166 -12.014412 -10.601713 160.64415
661412500 -9.9436855 169.92416 -3.7118275 -7.7859392 -3.7444906 -7.4362245
-3.7132804 -7.7848463 -10.776545 159.70178 -4.0976853 -12.162564
-3.7449934 -7.4205403 -4.093771 -12.15205 -10.603685 160.42203
668900000 -9.9396429 169.88838 -3.7142184 -7.8798628 -3.7446725 -7.5329604
-3.7148867 -7.8793454 -10.775759 159.52458 -4.0972633 -12.303608
-3.7448537 -7.5223932 -4.0964193 -12.288964 -10.59956 160.23473
676387500 -9.9375906 169.80157 -3.7149 -7.9564643 -3.7484345 -7.6180387
-3.7168508 -7.9599514 -10.779082 159.3042 -4.099823 -12.442421
-3.7476118 -7.6061826 -4.096149 -12.424998 -10.596101 160.03682
683875000 -9.9320717 169.70377 -3.7132435 -8.0479622 -3.7458155 -7.7066255
-3.7146637 -8.0548391 -10.77016 159.09097 -4.0978928 -12.575418
-3.7469728 -7.6954036 -4.0962205 -12.566407 -10.591252 159.83234
691362500 -9.9320784 169.6071 -3.711302 -8.1294813 -3.7456129 -7.7914238
-3.7147591 -8.1364393 -10.773816 158.84424 -4.0979567 -12.7113
-3.7481637 -7.7800784 -4.0942788 -12.698708 -10.586333 159.60367
698850000 -9.9315319 169.51085 -3.7124603 -8.2255774 -3.7491832 -7.8795524
-3.7115262 -8.2216167 -10.77564 158.60503 -4.0990281 -12.850822
-3.7486348 -7.8657408 -4.0983329 -12.838895 -10.581179 159.39247
706337500 -9.9318838 169.39793 -3.710531 -8.3084736 -3.7494338 -7.9522414
-3.711359 -8.3105965 -10.776033 158.36815 -4.0991192 -12.97744
-3.7488503 -7.9484673 -4.0962892 -12.972186 -10.577357 159.19162
