! Mini-Circuits								
! S2P DATA File Format								
! Type: LOW PASS FILTER								
! Model: LFCG-2250+							
! All S Parameters are in dB     deg format								
! TEST CONDITIONS: INPUT POWER = 0 dBm @ Temperature = +25deg C
# MHz S dB R 50
!Frequency        S11 dB  S11 DEG   S21 dB  S21 DEG   S12 dB  S12 DEG   S22 dB  S22 DEG
  10.0000     -4.491008E+001  3.291888E+001 -8.598500E-002 -1.235206E+000 -8.739861E-002 -1.254779E+000 -3.837511E+001  9.165126E+001
  13.0000     -4.382923E+001  1.980455E+001 -9.539545E-002 -1.396146E+000 -9.813693E-002 -1.404190E+000 -3.886947E+001  5.947499E+001
  16.0000     -4.379011E+001  1.340197E+001 -9.720213E-002 -1.589904E+000 -9.960987E-002 -1.596427E+000 -3.950720E+001  4.151648E+001
  19.0000     -4.403665E+001  7.807518E+000 -9.823991E-002 -1.799834E+000 -1.001294E-001 -1.805727E+000 -4.030172E+001  2.881786E+001
  20.0000     -4.416358E+001  8.165891E+000 -9.597864E-002 -1.881963E+000 -9.859864E-002 -1.891238E+000 -4.057817E+001  2.927372E+001
  40.0000     -4.361356E+001  6.842947E+000 -1.011483E-001 -3.555687E+000 -1.028207E-001 -3.552813E+000 -4.002230E+001  2.794968E+000
  60.0000     -4.237332E+001 -4.019488E-001 -1.081877E-001 -5.165148E+000 -1.093687E-001 -5.162358E+000 -4.138450E+001 -9.324954E+000
  80.0000     -4.184177E+001 -8.194574E+000 -1.136209E-001 -6.797649E+000 -1.154279E-001 -6.796405E+000 -4.135050E+001 -1.000857E+001
 100.0000     -4.110793E+001 -1.447363E+001 -1.197343E-001 -8.426403E+000 -1.211095E-001 -8.421408E+000 -3.985961E+001 -9.079958E+000
 120.0000     -4.078133E+001 -2.296519E+001 -1.249699E-001 -1.004898E+001 -1.265051E-001 -1.004688E+001 -3.794677E+001 -1.519577E+001
 140.0000     -4.047774E+001 -2.968635E+001 -1.297423E-001 -1.166620E+001 -1.314897E-001 -1.166577E+001 -3.676875E+001 -2.375350E+001
 160.0000     -4.009864E+001 -3.783802E+001 -1.339606E-001 -1.328376E+001 -1.359382E-001 -1.328441E+001 -3.602785E+001 -3.052855E+001
 180.0000     -3.986773E+001 -4.573020E+001 -1.376199E-001 -1.490297E+001 -1.396653E-001 -1.490253E+001 -3.546922E+001 -3.513296E+001
 200.0000     -3.947942E+001 -5.345995E+001 -1.429510E-001 -1.652456E+001 -1.423872E-001 -1.651876E+001 -3.488771E+001 -3.795155E+001
 220.0000     -3.915372E+001 -6.170797E+001 -1.457820E-001 -1.814345E+001 -1.475118E-001 -1.814253E+001 -3.401751E+001 -4.005360E+001
 240.0000     -3.873666E+001 -6.934464E+001 -1.499916E-001 -1.976330E+001 -1.512986E-001 -1.976708E+001 -3.311861E+001 -4.341103E+001
 260.0000     -3.829239E+001 -7.731958E+001 -1.542427E-001 -2.138685E+001 -1.561741E-001 -2.138282E+001 -3.237720E+001 -4.704302E+001
 280.0000     -3.786304E+001 -8.440594E+001 -1.576662E-001 -2.300350E+001 -1.595291E-001 -2.300302E+001 -3.172371E+001 -5.068703E+001
 300.0000     -3.740075E+001 -9.215828E+001 -1.614380E-001 -2.462625E+001 -1.631253E-001 -2.462008E+001 -3.121569E+001 -5.343085E+001
 320.0000     -3.689791E+001 -1.000495E+002 -1.655043E-001 -2.625068E+001 -1.670392E-001 -2.625197E+001 -3.066372E+001 -5.521339E+001
 340.0000     -3.634084E+001 -1.069931E+002 -1.687379E-001 -2.787676E+001 -1.705841E-001 -2.787773E+001 -3.001155E+001 -5.713419E+001
 360.0000     -3.574411E+001 -1.136219E+002 -1.733337E-001 -2.950829E+001 -1.740373E-001 -2.950848E+001 -2.939579E+001 -5.954822E+001
 380.0000     -3.509527E+001 -1.197191E+002 -1.767260E-001 -3.114058E+001 -1.789530E-001 -3.113967E+001 -2.886781E+001 -6.200076E+001
 400.0000     -3.447298E+001 -1.258794E+002 -1.800374E-001 -3.277491E+001 -1.833811E-001 -3.277441E+001 -2.840003E+001 -6.439466E+001
 420.0000     -3.383365E+001 -1.313484E+002 -1.846245E-001 -3.441035E+001 -1.868564E-001 -3.440707E+001 -2.795962E+001 -6.620211E+001
 440.0000     -3.321765E+001 -1.367713E+002 -1.893976E-001 -3.605023E+001 -1.914057E-001 -3.605128E+001 -2.750950E+001 -6.778086E+001
 460.0000     -3.264632E+001 -1.420016E+002 -1.927301E-001 -3.769484E+001 -1.949030E-001 -3.769766E+001 -2.704594E+001 -6.934885E+001
 480.0000     -3.204505E+001 -1.467865E+002 -1.966576E-001 -3.934109E+001 -1.992541E-001 -3.934219E+001 -2.659239E+001 -7.121461E+001
 500.0000     -3.148756E+001 -1.514821E+002 -2.018787E-001 -4.099305E+001 -2.035040E-001 -4.099296E+001 -2.618591E+001 -7.330813E+001
 520.0000     -3.096134E+001 -1.558389E+002 -2.043776E-001 -4.264410E+001 -2.070005E-001 -4.264985E+001 -2.584140E+001 -7.514856E+001
 540.0000     -3.039669E+001 -1.597445E+002 -2.093047E-001 -4.430548E+001 -2.101446E-001 -4.430758E+001 -2.549108E+001 -7.678677E+001
 560.0000     -2.986868E+001 -1.637420E+002 -2.137880E-001 -4.597108E+001 -2.151108E-001 -4.597374E+001 -2.513409E+001 -7.833969E+001
 580.0000     -2.934925E+001 -1.672933E+002 -2.177014E-001 -4.764151E+001 -2.198734E-001 -4.763914E+001 -2.477801E+001 -7.997258E+001
 600.0000     -2.884869E+001 -1.709361E+002 -2.226411E-001 -4.931262E+001 -2.243512E-001 -4.931438E+001 -2.442985E+001 -8.164565E+001
 620.0000     -2.835509E+001 -1.744497E+002 -2.270271E-001 -5.098873E+001 -2.292438E-001 -5.099068E+001 -2.412306E+001 -8.339141E+001
 640.0000     -2.787928E+001 -1.779146E+002 -2.316663E-001 -5.267180E+001 -2.339704E-001 -5.267298E+001 -2.383366E+001 -8.499210E+001
 660.0000     -2.742205E+001  1.787792E+002 -2.359459E-001 -5.436136E+001 -2.386017E-001 -5.436766E+001 -2.354404E+001 -8.657478E+001
 680.0000     -2.698747E+001  1.755388E+002 -2.409920E-001 -5.606038E+001 -2.430932E-001 -5.606154E+001 -2.326386E+001 -8.809101E+001
 700.0000     -2.656873E+001  1.723488E+002 -2.458114E-001 -5.776105E+001 -2.483704E-001 -5.776549E+001 -2.297545E+001 -8.964185E+001
 720.0000     -2.616899E+001  1.694203E+002 -2.512151E-001 -5.946570E+001 -2.537415E-001 -5.946799E+001 -2.271105E+001 -9.136279E+001
 740.0000     -2.577475E+001  1.664996E+002 -2.561022E-001 -6.117960E+001 -2.585171E-001 -6.118476E+001 -2.248408E+001 -9.297884E+001
 760.0000     -2.541411E+001  1.636341E+002 -2.614892E-001 -6.289883E+001 -2.633280E-001 -6.290313E+001 -2.225662E+001 -9.447517E+001
 780.0000     -2.507497E+001  1.608626E+002 -2.662649E-001 -6.462450E+001 -2.684904E-001 -6.463168E+001 -2.203613E+001 -9.594624E+001
 800.0000     -2.473628E+001  1.581206E+002 -2.715037E-001 -6.636219E+001 -2.745611E-001 -6.636625E+001 -2.180989E+001 -9.742023E+001
 820.0000     -2.441199E+001  1.553932E+002 -2.770666E-001 -6.810872E+001 -2.797571E-001 -6.811098E+001 -2.159213E+001 -9.896481E+001
 840.0000     -2.409140E+001  1.526307E+002 -2.830864E-001 -6.985580E+001 -2.846812E-001 -6.986131E+001 -2.139666E+001 -1.005870E+002
 860.0000     -2.379286E+001  1.499852E+002 -2.883534E-001 -7.161184E+001 -2.908953E-001 -7.161716E+001 -2.121695E+001 -1.021737E+002
 880.0000     -2.350519E+001  1.473645E+002 -2.934576E-001 -7.337945E+001 -2.961339E-001 -7.338415E+001 -2.105004E+001 -1.037645E+002
 900.0000     -2.322435E+001  1.447672E+002 -2.998271E-001 -7.515394E+001 -3.014715E-001 -7.515923E+001 -2.088713E+001 -1.052633E+002
 920.0000     -2.296009E+001  1.422163E+002 -3.049802E-001 -7.693896E+001 -3.076494E-001 -7.694206E+001 -2.071873E+001 -1.067929E+002
 940.0000     -2.271928E+001  1.396397E+002 -3.107851E-001 -7.873326E+001 -3.136119E-001 -7.873424E+001 -2.056830E+001 -1.083718E+002
 960.0000     -2.249083E+001  1.371187E+002 -3.169981E-001 -8.052952E+001 -3.184886E-001 -8.053688E+001 -2.043464E+001 -1.099580E+002
 980.0000     -2.227061E+001  1.346249E+002 -3.231153E-001 -8.234145E+001 -3.245091E-001 -8.234835E+001 -2.031196E+001 -1.115251E+002
1000.0000     -2.205830E+001  1.321201E+002 -3.280346E-001 -8.416695E+001 -3.302234E-001 -8.417056E+001 -2.019660E+001 -1.131205E+002
1020.0000     -2.186212E+001  1.295605E+002 -3.334696E-001 -8.599564E+001 -3.357759E-001 -8.600407E+001 -2.008952E+001 -1.146848E+002
1040.0000     -2.167622E+001  1.271794E+002 -3.394500E-001 -8.784068E+001 -3.417043E-001 -8.785222E+001 -1.998485E+001 -1.162738E+002
1060.0000     -2.149945E+001  1.247825E+002 -3.451292E-001 -8.969616E+001 -3.473328E-001 -8.970700E+001 -1.989111E+001 -1.179187E+002
1080.0000     -2.133776E+001  1.223675E+002 -3.512973E-001 -9.156275E+001 -3.537194E-001 -9.157476E+001 -1.981614E+001 -1.196094E+002
1100.0000     -2.118497E+001  1.200244E+002 -3.571577E-001 -9.344492E+001 -3.597111E-001 -9.345142E+001 -1.975978E+001 -1.212934E+002
1120.0000     -2.104946E+001  1.176695E+002 -3.631786E-001 -9.533749E+001 -3.654879E-001 -9.534569E+001 -1.970591E+001 -1.228585E+002
1140.0000     -2.092331E+001  1.152615E+002 -3.691252E-001 -9.724158E+001 -3.711358E-001 -9.725197E+001 -1.964277E+001 -1.245232E+002
1160.0000     -2.080602E+001  1.128761E+002 -3.754960E-001 -9.916090E+001 -3.774533E-001 -9.917044E+001 -1.960002E+001 -1.262456E+002
1180.0000     -2.070088E+001  1.105149E+002 -3.814342E-001 -1.010973E+002 -3.839938E-001 -1.011038E+002 -1.957244E+001 -1.279349E+002
1200.0000     -2.060534E+001  1.081414E+002 -3.868761E-001 -1.030414E+002 -3.899138E-001 -1.030513E+002 -1.955659E+001 -1.296563E+002
1220.0000     -2.052374E+001  1.057940E+002 -3.926401E-001 -1.050035E+002 -3.952876E-001 -1.050150E+002 -1.955073E+001 -1.314011E+002
1240.0000     -2.045374E+001  1.034763E+002 -3.991267E-001 -1.069842E+002 -4.007546E-001 -1.069946E+002 -1.955764E+001 -1.330762E+002
1260.0000     -2.040119E+001  1.011219E+002 -4.050726E-001 -1.089822E+002 -4.070713E-001 -1.089908E+002 -1.957623E+001 -1.348626E+002
1280.0000     -2.036089E+001  9.877697E+001 -4.106224E-001 -1.109960E+002 -4.137036E-001 -1.110032E+002 -1.960901E+001 -1.366798E+002
1300.0000     -2.033855E+001  9.643623E+001 -4.167946E-001 -1.130231E+002 -4.190507E-001 -1.130350E+002 -1.965132E+001 -1.385203E+002
1320.0000     -2.032259E+001  9.409607E+001 -4.229977E-001 -1.150716E+002 -4.252540E-001 -1.150834E+002 -1.971633E+001 -1.403383E+002
1340.0000     -2.031743E+001  9.174540E+001 -4.281004E-001 -1.171426E+002 -4.308762E-001 -1.171485E+002 -1.978585E+001 -1.421054E+002
1360.0000     -2.032681E+001  8.938364E+001 -4.348063E-001 -1.192318E+002 -4.362820E-001 -1.192363E+002 -1.986084E+001 -1.439582E+002
1380.0000     -2.035255E+001  8.702274E+001 -4.401499E-001 -1.213368E+002 -4.427551E-001 -1.213443E+002 -1.995378E+001 -1.458418E+002
1400.0000     -2.038884E+001  8.473092E+001 -4.462478E-001 -1.234681E+002 -4.493106E-001 -1.234744E+002 -2.007027E+001 -1.478158E+002
1420.0000     -2.044783E+001  8.239874E+001 -4.523641E-001 -1.256172E+002 -4.555353E-001 -1.256272E+002 -2.021114E+001 -1.497584E+002
1440.0000     -2.052624E+001  8.005966E+001 -4.589689E-001 -1.277930E+002 -4.606551E-001 -1.278027E+002 -2.036484E+001 -1.517189E+002
1460.0000     -2.061884E+001  7.772712E+001 -4.644752E-001 -1.299952E+002 -4.670788E-001 -1.299997E+002 -2.053536E+001 -1.537061E+002
1480.0000     -2.073333E+001  7.539400E+001 -4.703502E-001 -1.322173E+002 -4.732506E-001 -1.322243E+002 -2.072602E+001 -1.556884E+002
1500.0000     -2.085289E+001  7.303868E+001 -4.770166E-001 -1.344654E+002 -4.796880E-001 -1.344739E+002 -2.091897E+001 -1.577508E+002
1520.0000     -2.099664E+001  7.068472E+001 -4.833813E-001 -1.367393E+002 -4.862142E-001 -1.367470E+002 -2.114575E+001 -1.598573E+002
1540.0000     -2.115795E+001  6.833779E+001 -4.904807E-001 -1.390432E+002 -4.932548E-001 -1.390523E+002 -2.140695E+001 -1.619668E+002
1560.0000     -2.133777E+001  6.600094E+001 -4.971019E-001 -1.413750E+002 -4.999451E-001 -1.413828E+002 -2.167929E+001 -1.640692E+002
1580.0000     -2.155190E+001  6.366206E+001 -5.036905E-001 -1.437353E+002 -5.066416E-001 -1.437445E+002 -2.197856E+001 -1.662707E+002
1600.0000     -2.178025E+001  6.134735E+001 -5.114488E-001 -1.461289E+002 -5.137035E-001 -1.461396E+002 -2.232762E+001 -1.684691E+002
1620.0000     -2.204531E+001  5.904723E+001 -5.179562E-001 -1.485554E+002 -5.212252E-001 -1.485654E+002 -2.269064E+001 -1.706919E+002
1640.0000     -2.233690E+001  5.672595E+001 -5.261258E-001 -1.510159E+002 -5.290558E-001 -1.510257E+002 -2.309679E+001 -1.730293E+002
1660.0000     -2.265008E+001  5.442349E+001 -5.348320E-001 -1.535091E+002 -5.368121E-001 -1.535197E+002 -2.354422E+001 -1.754063E+002
1680.0000     -2.299060E+001  5.210036E+001 -5.425671E-001 -1.560402E+002 -5.454801E-001 -1.560492E+002 -2.403836E+001 -1.777769E+002
1700.0000     -2.336053E+001  4.983449E+001 -5.512831E-001 -1.586069E+002 -5.544677E-001 -1.586144E+002 -2.456523E+001  1.797572E+002
1720.0000     -2.376707E+001  4.754938E+001 -5.607138E-001 -1.612110E+002 -5.632735E-001 -1.612219E+002 -2.514035E+001  1.771997E+002
1740.0000     -2.421287E+001  4.535376E+001 -5.704034E-001 -1.638630E+002 -5.733529E-001 -1.638685E+002 -2.579434E+001  1.745377E+002
1760.0000     -2.470746E+001  4.324611E+001 -5.803903E-001 -1.665535E+002 -5.833397E-001 -1.665602E+002 -2.651164E+001  1.718391E+002
1780.0000     -2.524899E+001  4.104485E+001 -5.912575E-001 -1.692856E+002 -5.937567E-001 -1.692940E+002 -2.729866E+001  1.690975E+002
1800.0000     -2.586246E+001  3.900681E+001 -6.025495E-001 -1.720665E+002 -6.052735E-001 -1.720738E+002 -2.817979E+001  1.662367E+002
1820.0000     -2.649904E+001  3.704030E+001 -6.143953E-001 -1.748944E+002 -6.174235E-001 -1.749049E+002 -2.916933E+001  1.633363E+002
1840.0000     -2.721072E+001  3.517738E+001 -6.274634E-001 -1.777761E+002 -6.307033E-001 -1.777814E+002 -3.028921E+001  1.600410E+002
1860.0000     -2.797165E+001  3.330889E+001 -6.410503E-001  1.792964E+002 -6.438766E-001  1.792855E+002 -3.160075E+001  1.563667E+002
1880.0000     -2.880162E+001  3.170143E+001 -6.555477E-001  1.763101E+002 -6.584728E-001  1.763014E+002 -3.311325E+001  1.524515E+002
1900.0000     -2.972530E+001  3.041434E+001 -6.704308E-001  1.732637E+002 -6.740997E-001  1.732584E+002 -3.489857E+001  1.480648E+002
1920.0000     -3.071519E+001  2.923232E+001 -6.873335E-001  1.701622E+002 -6.900470E-001  1.701526E+002 -3.702636E+001  1.427921E+002
1940.0000     -3.182967E+001  2.853060E+001 -7.043002E-001  1.669932E+002 -7.075810E-001  1.669871E+002 -3.963813E+001  1.352927E+002
1960.0000     -3.306528E+001  2.834887E+001 -7.225519E-001  1.637574E+002 -7.263967E-001  1.637551E+002 -4.321651E+001  1.229219E+002
1980.0000     -3.444897E+001  2.866899E+001 -7.423016E-001  1.604535E+002 -7.458169E-001  1.604510E+002 -4.805096E+001  9.820703E+001
2000.0000     -3.595724E+001  2.984903E+001 -7.629716E-001  1.570748E+002 -7.664837E-001  1.570705E+002 -5.049626E+001  4.007706E+001
2020.0000     -3.762524E+001  3.195022E+001 -7.854090E-001  1.536223E+002 -7.887281E-001  1.536162E+002 -4.660498E+001 -1.193867E+000
2040.0000     -3.934950E+001  3.512478E+001 -8.081757E-001  1.500823E+002 -8.126957E-001  1.500796E+002 -4.313120E+001 -1.729854E+001
2060.0000     -4.115767E+001  3.971591E+001 -8.334207E-001  1.464566E+002 -8.375112E-001  1.464499E+002 -4.067007E+001 -2.555073E+001
2080.0000     -4.296150E+001  4.578986E+001 -8.599154E-001  1.427347E+002 -8.639616E-001  1.427292E+002 -3.912966E+001 -3.151450E+001
2100.0000     -4.476451E+001  5.211555E+001 -8.882263E-001  1.389086E+002 -8.924077E-001  1.389066E+002 -3.811292E+001 -3.567947E+001
2120.0000     -4.659513E+001  5.907145E+001 -9.184372E-001  1.349799E+002 -9.226393E-001  1.349745E+002 -3.747939E+001 -3.914032E+001
2140.0000     -4.889819E+001  6.397067E+001 -9.514765E-001  1.309348E+002 -9.554994E-001  1.309299E+002 -3.724113E+001 -4.129561E+001
2160.0000     -5.189564E+001  6.523474E+001 -9.866318E-001  1.267663E+002 -9.903509E-001  1.267635E+002 -3.723215E+001 -4.250888E+001
2180.0000     -5.763628E+001  4.508789E+001 -1.023813E+000  1.224642E+002 -1.028782E+000  1.224613E+002 -3.758031E+001 -4.243685E+001
2200.0000     -5.680115E+001 -3.587283E+001 -1.065270E+000  1.180163E+002 -1.069596E+000  1.180135E+002 -3.814155E+001 -3.965342E+001
2225.0000     -4.741995E+001 -6.445296E+001 -1.121897E+000  1.122341E+002 -1.125680E+000  1.122308E+002 -3.893709E+001 -3.189878E+001
2230.0000     -4.605380E+001 -6.626522E+001 -1.133607E+000  1.110477E+002 -1.138044E+000  1.110468E+002 -3.905756E+001 -2.954097E+001
2235.0000     -4.486203E+001 -6.743816E+001 -1.145717E+000  1.098473E+002 -1.150230E+000  1.098456E+002 -3.917980E+001 -2.676362E+001
2240.0000     -4.369799E+001 -6.848353E+001 -1.158543E+000  1.086350E+002 -1.162635E+000  1.086346E+002 -3.929136E+001 -2.374467E+001
2245.0000     -4.267465E+001 -6.915330E+001 -1.171175E+000  1.074124E+002 -1.175605E+000  1.074124E+002 -3.929638E+001 -2.018173E+001
2250.0000     -4.170269E+001 -6.967660E+001 -1.184449E+000  1.061749E+002 -1.187957E+000  1.061763E+002 -3.923758E+001 -1.704688E+001
2255.0000     -4.081326E+001 -7.060651E+001 -1.197792E+000  1.049299E+002 -1.201724E+000  1.049296E+002 -3.916088E+001 -1.331542E+001
2260.0000     -3.991096E+001 -7.107280E+001 -1.211547E+000  1.036706E+002 -1.215433E+000  1.036717E+002 -3.901022E+001 -9.678349E+000
2265.0000     -3.912158E+001 -7.137679E+001 -1.225643E+000  1.023967E+002 -1.229501E+000  1.023976E+002 -3.878516E+001 -6.325612E+000
2270.0000     -3.830921E+001 -7.207764E+001 -1.240073E+000  1.011115E+002 -1.244013E+000  1.011096E+002 -3.848997E+001 -3.195699E+000
2275.0000     -3.755916E+001 -7.225584E+001 -1.255367E+000  9.981305E+001 -1.259138E+000  9.981352E+001 -3.816890E+001 -1.277806E-001
2280.0000     -3.683713E+001 -7.269444E+001 -1.269880E+000  9.849887E+001 -1.274638E+000  9.850082E+001 -3.776777E+001  2.654199E+000
2285.0000     -3.617339E+001 -7.290316E+001 -1.286112E+000  9.717083E+001 -1.290677E+000  9.717386E+001 -3.735048E+001  5.078097E+000
2290.0000     -3.551994E+001 -7.323565E+001 -1.302612E+000  9.583223E+001 -1.306155E+000  9.583285E+001 -3.689399E+001  7.234780E+000
2295.0000     -3.488285E+001 -7.339816E+001 -1.318606E+000  9.447501E+001 -1.322695E+000  9.447807E+001 -3.642842E+001  8.946374E+000
2300.0000     -3.428402E+001 -7.372093E+001 -1.335211E+000  9.309813E+001 -1.339929E+000  9.310568E+001 -3.594386E+001  1.038254E+001
2305.0000     -3.368301E+001 -7.406413E+001 -1.352805E+000  9.171141E+001 -1.357424E+000  9.171897E+001 -3.545132E+001  1.140499E+001
2310.0000     -3.311199E+001 -7.415162E+001 -1.371058E+000  9.031021E+001 -1.374493E+000  9.031310E+001 -3.498900E+001  1.206505E+001
2315.0000     -3.256112E+001 -7.436896E+001 -1.389570E+000  8.888607E+001 -1.393932E+000  8.889112E+001 -3.451239E+001  1.246905E+001
2320.0000     -3.202856E+001 -7.459228E+001 -1.408489E+000  8.745078E+001 -1.412953E+000  8.745494E+001 -3.403887E+001  1.280193E+001
2325.0000     -3.150117E+001 -7.476413E+001 -1.428577E+000  8.599831E+001 -1.432031E+000  8.600142E+001 -3.359613E+001  1.258002E+001
2330.0000     -3.098684E+001 -7.487177E+001 -1.448809E+000  8.452570E+001 -1.452484E+000  8.452837E+001 -3.315652E+001  1.239613E+001
2335.0000     -3.048615E+001 -7.499239E+001 -1.469343E+000  8.303005E+001 -1.473369E+000  8.303544E+001 -3.274198E+001  1.190381E+001
2340.0000     -2.999142E+001 -7.501756E+001 -1.491078E+000  8.152011E+001 -1.495345E+000  8.152579E+001 -3.232582E+001  1.128306E+001
2345.0000     -2.952157E+001 -7.504287E+001 -1.513622E+000  7.999242E+001 -1.517292E+000  7.999147E+001 -3.192776E+001  1.021783E+001
2350.0000     -2.903653E+001 -7.507710E+001 -1.536171E+000  7.844154E+001 -1.540435E+000  7.844017E+001 -3.152825E+001  8.979489E+000
2355.0000     -2.856872E+001 -7.510224E+001 -1.560239E+000  7.686781E+001 -1.564188E+000  7.687080E+001 -3.116694E+001  7.525938E+000
2360.0000     -2.810533E+001 -7.508270E+001 -1.585335E+000  7.527680E+001 -1.588431E+000  7.527507E+001 -3.081555E+001  5.825641E+000
2365.0000     -2.765292E+001 -7.507655E+001 -1.610864E+000  7.366174E+001 -1.614570E+000  7.366296E+001 -3.048775E+001  3.933577E+000
2370.0000     -2.720563E+001 -7.499067E+001 -1.637096E+000  7.202065E+001 -1.640917E+000  7.202283E+001 -3.018475E+001  1.798620E+000
2375.0000     -2.675974E+001 -7.491558E+001 -1.664416E+000  7.035645E+001 -1.668303E+000  7.035754E+001 -2.987688E+001 -4.137224E-001
