! 9/8/2020 8:56:59 PM
! Z:\GIS_P0\EMPTY-FILTERPCB.S2P
! CHANNEL.1
! TR.MEASUREMENT
! CORRECTED.DATA
# GHZ S RI R 50.0
! FREQ.GHZ         S11RE         S11IM         S21RE         S21IM         S12RE         S12IM         S22RE         S22IM         
!; PortSelection: Port_12
   0.010000000     1.0003960   -0.0127335    -0.0000210   -0.0000703     0.0000944   -0.0002553     0.9997626   -0.0123733 
   0.010253696     0.9995260   -0.0133440    -0.0000322   -0.0000649     0.0002281   -0.0000721     1.0002580   -0.0134104 
   0.010513829     0.9995512   -0.0136516    -0.0000321   -0.0000427     0.0001200    0.0001357     0.9995425   -0.0147162 
   0.010780561     0.9988331   -0.0139262    -0.0000668    0.0000130     0.0000527    0.0000040     0.9995537   -0.0122538 
   0.011054060     0.9997779   -0.0141070     0.0000223    0.0000295     0.0001119   -0.0000480     0.9998161   -0.0135958 
   0.011334498     0.9991442   -0.0146149    -0.0000451   -0.0000847     0.0001185   -0.0000640     1.0003380   -0.0145147 
   0.011622050     0.9989626   -0.0150820     0.0000074   -0.0000452    -0.0001826   -0.0000190     0.9981051   -0.0139139 
   0.011916897     0.9995211   -0.0146342    -0.0000208   -0.0000453    -0.0000854    0.0001562     0.9994590   -0.0155187 
   0.012219225     0.9992918   -0.0158537     0.0000084    0.0000002     0.0000537    0.0000579     0.9993580   -0.0152801 
   0.012529222     0.9997345   -0.0162516     0.0000020    0.0000018    -0.0000054    0.0001255     0.9992292   -0.0157142 
   0.012847084     0.9994369   -0.0169768    -0.0000778   -0.0000836     0.0003113   -0.0000286     0.9987831   -0.0162414 
   0.013173010     0.9990780   -0.0174508    -0.0000381    0.0000000    -0.0001211   -0.0000818     0.9993842   -0.0164511 
   0.013507205     0.9994166   -0.0169995     0.0000001   -0.0000062    -0.0000719   -0.0000018     0.9995343   -0.0170475 
   0.013849877     0.9997392   -0.0176212     0.0000114   -0.0000309    -0.0001211    0.0001924     1.0003710   -0.0170183 
   0.014201244     0.9988559   -0.0184833    -0.0000180    0.0000382    -0.0001368    0.0000016     1.0001410   -0.0175109 
   0.014561524     0.9994966   -0.0193766     0.0000140    0.0000635    -0.0000665    0.0001444     0.9996582   -0.0183223 
   0.014930945     0.9991818   -0.0200787    -0.0000096    0.0000440    -0.0001203    0.0000848     1.0002200   -0.0184615 
   0.015309738     0.9994699   -0.0194749    -0.0000493   -0.0000092     0.0000065   -0.0000302     0.9996881   -0.0185633 
   0.015698141     0.9990314   -0.0210116    -0.0000135   -0.0000554    -0.0001215    0.0001061     0.9998392   -0.0195372 
   0.016096397     0.9998859   -0.0201480     0.0000347   -0.0000141     0.0000972   -0.0001374     0.9994898   -0.0198421 
   0.016504757     0.9996935   -0.0215084    -0.0000331   -0.0000016     0.0000563   -0.0000163     0.9996324   -0.0204157 
   0.016923476     0.9996040   -0.0211206    -0.0000235    0.0000364     0.0000688   -0.0001215     0.9991980   -0.0211547 
   0.017352819     0.9995613   -0.0226990    -0.0000211   -0.0000333    -0.0000714    0.0001708     0.9997525   -0.0220075 
   0.017793054     0.9996721   -0.0229852    -0.0000421   -0.0000689     0.0000745    0.0000715     0.9994032   -0.0218392 
   0.018244457     0.9988754   -0.0235450     0.0000722   -0.0000424    -0.0000819    0.0000989     0.9996083   -0.0223741 
   0.018707313     0.9994642   -0.0246939     0.0000067    0.0000650     0.0001387   -0.0000451     0.9995642   -0.0232596 
   0.019181911     0.9998203   -0.0251722    -0.0000358   -0.0000049    -0.0000127   -0.0000388     1.0002080   -0.0240271 
   0.019668549     0.9991658   -0.0255538     0.0000075   -0.0000193    -0.0002718   -0.0000187     0.9996676   -0.0241569 
   0.020167533     0.9995388   -0.0261926    -0.0000162    0.0000658    -0.0000747   -0.0000467     0.9997823   -0.0242146 
   0.020679176     0.9992731   -0.0267770     0.0000142   -0.0000685     0.0000208   -0.0000515     0.9994907   -0.0257450 
   0.021203799     0.9996537   -0.0269818     0.0000079   -0.0000154     0.0000103    0.0000946     1.0002050   -0.0265461 
   0.021741732     0.9992193   -0.0282292     0.0000419   -0.0000376    -0.0001729    0.0000163     0.9993309   -0.0268575 
   0.022293312     0.9988615   -0.0284307    -0.0000410   -0.0000215     0.0000641   -0.0000360     0.9997713   -0.0277666 
   0.022858886     0.9992586   -0.0296745     0.0001033   -0.0000104     0.0000277   -0.0000293     0.9997128   -0.0292100 
   0.023438808     0.9986795   -0.0305373    -0.0000036   -0.0000253     0.0000016    0.0000294     0.9999492   -0.0299780 
   0.024033442     0.9996917   -0.0311630    -0.0000101   -0.0000005     0.0000923    0.0000730     0.9988564   -0.0294397 
   0.024643162     0.9996122   -0.0324114     0.0000133   -0.0000797    -0.0000965    0.0001713     1.0001750   -0.0307702 
   0.025268350     0.9992105   -0.0332451    -0.0000013   -0.0000116    -0.0001109    0.0000814     0.9987887   -0.0319855 
   0.025909399     0.9984920   -0.0340299     0.0000066   -0.0000343    -0.0000660    0.0000893     1.0002580   -0.0328737 
   0.026566711     0.9985606   -0.0345909     0.0000233   -0.0000113     0.0000824   -0.0000902     0.9998116   -0.0345128 
   0.027240699     0.9985554   -0.0350292    -0.0000060    0.0000801    -0.0001177   -0.0001755     0.9989346   -0.0335291 
   0.027931786     0.9989210   -0.0365921    -0.0000292    0.0000258     0.0000927    0.0000014     0.9992464   -0.0361632 
   0.028640406     0.9983760   -0.0372246     0.0000258    0.0000363     0.0000584    0.0002435     0.9994919   -0.0366475 
   0.029367003     0.9989761   -0.0393205    -0.0000053   -0.0000143    -0.0000645   -0.0000608     0.9989821   -0.0346667 
   0.030112033     0.9990261   -0.0391287     0.0000134    0.0000155     0.0000703    0.0000918     0.9983454   -0.0357804 
   0.030875965     0.9985393   -0.0390865     0.0000737   -0.0000676    -0.0000806    0.0000347     0.9989868   -0.0367391 
   0.031659277     0.9985186   -0.0413948    -0.0000585   -0.0000280     0.0000731    0.0000139     0.9978999   -0.0385307 
   0.032462461     0.9978184   -0.0427137    -0.0000068    0.0000183     0.0000690   -0.0000311     0.9989308   -0.0396791 
   0.033286022     0.9997336   -0.0423819    -0.0000813   -0.0001087     0.0000234    0.0000452     0.9985626   -0.0423591 
   0.034130477     0.9976525   -0.0434114    -0.0000485   -0.0000295     0.0000464   -0.0003317     0.9972640   -0.0417186 
   0.034996355     0.9979577   -0.0445413    -0.0000596   -0.0000310     0.0000618    0.0000508     1.0005310   -0.0450303 
   0.035884200     0.9969729   -0.0466800     0.0000736   -0.0000022    -0.0000435    0.0000262     0.9971867   -0.0438787 
   0.036794570     0.9982607   -0.0477723     0.0000571   -0.0000177    -0.0001223   -0.0000143     0.9957492   -0.0466318 
   0.037728035     0.9987600   -0.0493169     0.0000054    0.0000855    -0.0001066   -0.0000700     0.9986536   -0.0468222 
   0.038685182     0.9974604   -0.0493011     0.0000719   -0.0000402     0.0000738    0.0000519     0.9971005   -0.0473987 
   0.039666611     0.9981127   -0.0514850    -0.0000431    0.0000058    -0.0000647    0.0000355     0.9969423   -0.0489995 
   0.040672939     0.9976248   -0.0530029     0.0000197   -0.0000133     0.0000810    0.0001316     0.9969465   -0.0500513 
   0.041704797     0.9979164   -0.0531123    -0.0000678    0.0000329     0.0001960    0.0001947     0.9988776   -0.0512231 
   0.042762833     0.9975026   -0.0559453    -0.0000447    0.0000062     0.0000734   -0.0000638     0.9976639   -0.0526248 
   0.043847710     0.9972032   -0.0566890    -0.0000102   -0.0000534     0.0000033    0.0001874     0.9965754   -0.0536185 
   0.044960111     0.9976158   -0.0565419     0.0000377   -0.0000505    -0.0000191    0.0000234     0.9981685   -0.0551642 
   0.046100733     0.9963945   -0.0597568    -0.0000417    0.0000713    -0.0000242   -0.0000581     0.9977546   -0.0569383 
   0.047270293     0.9968257   -0.0611350     0.0000014   -0.0000378     0.0001713   -0.0000042     0.9981552   -0.0578872 
   0.048469523     0.9968584   -0.0625574    -0.0000724    0.0000299     0.0000934    0.0000382     0.9972834   -0.0586122 
   0.049699178     0.9968318   -0.0638539     0.0000191   -0.0000814    -0.0000169    0.0000090     0.9971789   -0.0600566 
   0.050960028     0.9963478   -0.0658712     0.0000193    0.0000759     0.0000879   -0.0000147     0.9975837   -0.0616785 
   0.052252866     0.9963350   -0.0674426     0.0000452    0.0000071     0.0001062    0.0000041     0.9971147   -0.0643996 
   0.053578503     0.9963818   -0.0694578    -0.0000200    0.0000036    -0.0000609   -0.0000078     0.9980502   -0.0652159 
   0.054937770     0.9959787   -0.0715241    -0.0000316   -0.0000132    -0.0000258    0.0000517     0.9957720   -0.0671486 
   0.056331522     0.9957744   -0.0720675    -0.0000050   -0.0000488    -0.0000211    0.0000405     0.9963138   -0.0697051 
   0.057760633     0.9953035   -0.0737224     0.0000168    0.0000131     0.0001080   -0.0000406     0.9964172   -0.0711809 
   0.059225999     0.9952701   -0.0764454     0.0000579    0.0000075    -0.0000005   -0.0000202     0.9951909   -0.0732469 
   0.060728542     0.9945252   -0.0783182    -0.0000230    0.0000318    -0.0000610    0.0000274     0.9963437   -0.0728098 
   0.062269203     0.9946355   -0.0803463    -0.0000273   -0.0000159     0.0000316   -0.0000121     0.9957263   -0.0764669 
   0.063848951     0.9945856   -0.0813833    -0.0000337   -0.0000386    -0.0000579    0.0000288     0.9959320   -0.0770631 
   0.065468776     0.9936149   -0.0838653     0.0000366    0.0000572     0.0000301    0.0000322     0.9957213   -0.0799511 
   0.067129696     0.9945903   -0.0865064     0.0000286   -0.0000792     0.0000000    0.0000557     0.9951617   -0.0825199 
   0.068832752     0.9931740   -0.0882959    -0.0000023   -0.0000441     0.0000340    0.0000096     0.9945837   -0.0842301 
   0.070579015     0.9932367   -0.0906561    -0.0000123    0.0001003    -0.0000067    0.0000002     0.9952503   -0.0861522 
   0.072369579     0.9937312   -0.0933167    -0.0000303   -0.0000556     0.0000018   -0.0000152     0.9948356   -0.0878238 
   0.074205570     0.9933977   -0.0945945    -0.0000503    0.0000612    -0.0000594    0.0000733     0.9942219   -0.0901537 
   0.076088139     0.9924712   -0.0982573    -0.0000493   -0.0000159    -0.0000855   -0.0000715     0.9940116   -0.0930779 
   0.078018468     0.9927884   -0.1002274    -0.0000022    0.0000674     0.0000168   -0.0000206     0.9936836   -0.0953876 
   0.079997768     0.9922844   -0.1025077     0.0000279   -0.0000399    -0.0000590    0.0000105     0.9940556   -0.0976552 
   0.082027283     0.9915521   -0.1049917     0.0000527   -0.0000515    -0.0000303    0.0001062     0.9931967   -0.0994628 
   0.084108286     0.9910629   -0.1089330    -0.0000822    0.0000341     0.0001449    0.0000369     0.9928731   -0.1019061 
   0.086242084     0.9904605   -0.1105208    -0.0000400    0.0001097    -0.0000213   -0.0000003     0.9912558   -0.1060542 
   0.088430015     0.9904868   -0.1134872    -0.0000094   -0.0000688    -0.0000662    0.0002012     0.9929950   -0.1091375 
   0.090673453     0.9902859   -0.1165375    -0.0000447    0.0000921     0.0000733    0.0000493     0.9919859   -0.1076109 
   0.092973806     0.9890445   -0.1182404     0.0000477   -0.0000238    -0.0000865   -0.0001396     0.9907906   -0.1131715 
   0.095332519     0.9887414   -0.1226546     0.0000229    0.0000308    -0.0000949    0.0000712     0.9919958   -0.1157933 
   0.097751071     0.9890457   -0.1241350    -0.0000887    0.0000433     0.0000697    0.0000486     0.9911914   -0.1188586 
   0.100230981     0.9878338   -0.1282628    -0.0000179    0.0000103    -0.0000824    0.0000261     0.9900293   -0.1225260 
   0.102773805     0.9874163   -0.1307062    -0.0000133    0.0000170     0.0000823   -0.0000711     0.9891608   -0.1244817 
   0.105381140     0.9866787   -0.1336044    -0.0000275    0.0000406     0.0000587    0.0000042     0.9887557   -0.1277224 
   0.108054622     0.9855465   -0.1372070    -0.0000056   -0.0000387    -0.0000682    0.0000624     0.9885262   -0.1310698 
   0.110795929     0.9850820   -0.1408604    -0.0001195    0.0000078     0.0000343   -0.0000489     0.9874496   -0.1340330 
   0.113606783     0.9839950   -0.1450388     0.0000593   -0.0000956     0.0000262   -0.0000417     0.9873804   -0.1385634 
   0.116488946     0.9839581   -0.1480305    -0.0000451    0.0000610    -0.0000373   -0.0000042     0.9863179   -0.1408642 
   0.119444229     0.9828630   -0.1517601     0.0000286    0.0000179    -0.0000693   -0.0000329     0.9860318   -0.1437940 
   0.122474487     0.9819013   -0.1546667    -0.0001400    0.0000363    -0.0001285    0.0001888     0.9855393   -0.1485292 
   0.125581621     0.9819989   -0.1591965     0.0000405   -0.0000413     0.0000302    0.0000766     0.9840477   -0.1518914 
   0.128767582     0.9796239   -0.1633421     0.0000553    0.0000750    -0.0000356   -0.0000750     0.9830145   -0.1544825 
   0.132034370     0.9792930   -0.1670849     0.0000086   -0.0000153     0.0001102   -0.0001014     0.9816589   -0.1598691 
   0.135384035     0.9782314   -0.1710570     0.0000259    0.0000156     0.0001588    0.0000728     0.9815091   -0.1637204 
   0.138818680     0.9761117   -0.1754991    -0.0000414    0.0001264     0.0000266    0.0000463     0.9804522   -0.1675417 
   0.142340461     0.9761741   -0.1799800    -0.0000151   -0.0000402     0.0001065    0.0000602     0.9790643   -0.1717183 
   0.145951588     0.9749085   -0.1844580     0.0000154    0.0000064     0.0000171    0.0000907     0.9785523   -0.1747997 
   0.149654328     0.9731981   -0.1893993     0.0000211    0.0000076     0.0000718    0.0001578     0.9768872   -0.1794772 
   0.153451005     0.9724208   -0.1937508     0.0000432   -0.0001024    -0.0000430   -0.0000400     0.9766538   -0.1845758 
   0.157344002     0.9707767   -0.1986399    -0.0000475    0.0000368     0.0000052   -0.0000660     0.9752289   -0.1895205 
   0.161335764     0.9699182   -0.2031444     0.0000348    0.0000781    -0.0000897    0.0001534     0.9734060   -0.1939080 
   0.165428795     0.9677569   -0.2083435    -0.0000666    0.0000925     0.0000418    0.0000271     0.9727184   -0.1982670 
   0.169625664     0.9675162   -0.2121775    -0.0000961   -0.0000581     0.0001198    0.0001238     0.9715129   -0.2028381 
   0.173929007     0.9641972   -0.2187034     0.0001161   -0.0000541    -0.0000260   -0.0000745     0.9707865   -0.2087603 
   0.178341524     0.9629864   -0.2231260     0.0000607    0.0000343    -0.0000037    0.0002092     0.9684908   -0.2107313 
   0.182865985     0.9609898   -0.2290231    -0.0000184   -0.0000589     0.0000238   -0.0000434     0.9661434   -0.2200671 
   0.187505230     0.9591306   -0.2345032    -0.0000370    0.0000284     0.0000485   -0.0000838     0.9664712   -0.2249690 
   0.192262171     0.9568527   -0.2390490     0.0000084    0.0000412     0.0001857   -0.0001337     0.9630125   -0.2292940 
   0.197139794     0.9562879   -0.2461605    -0.0000041    0.0000867     0.0000774    0.0000859     0.9619118   -0.2350042 
   0.202141161     0.9532410   -0.2503942     0.0000560    0.0001081     0.0001712   -0.0001232     0.9595124   -0.2408086 
   0.207269410     0.9501087   -0.2585771    -0.0001579    0.0000847    -0.0000460   -0.0000168     0.9597376   -0.2468823 
   0.212527762     0.9479856   -0.2633038     0.0000390    0.0000792    -0.0000669   -0.0001828     0.9549723   -0.2532613 
   0.217919515     0.9455814   -0.2698890     0.0001072   -0.0000444    -0.0000836    0.0001431     0.9536443   -0.2582845 
   0.223448056     0.9432459   -0.2765474    -0.0000123    0.0000618     0.0001016   -0.0000176     0.9511657   -0.2653618 
   0.229116854     0.9402890   -0.2830060    -0.0001145    0.0000930     0.0002059    0.0000602     0.9487556   -0.2709115 
   0.234929467     0.9371147   -0.2884645    -0.0000984   -0.0000216     0.0002012    0.0000510     0.9464784   -0.2785241 
   0.240889544     0.9342827   -0.2957434    -0.0001238    0.0001656     0.0000377    0.0000268     0.9452667   -0.2845556 
   0.247000826     0.9310199   -0.3019702     0.0000547   -0.0002469    -0.0001418    0.0002195     0.9429888   -0.2901416 
   0.253267149     0.9282480   -0.3081569     0.0000815    0.0001390     0.0000818    0.0001212     0.9389435   -0.2968529 
   0.259692447     0.9251002   -0.3172617     0.0001397   -0.0001333     0.0001332    0.0000206     0.9348361   -0.3034018 
   0.266280752     0.9214512   -0.3240055     0.0001442   -0.0000091    -0.0000015    0.0001384     0.9344323   -0.3104364 
   0.273036200     0.9172664   -0.3308831     0.0000577    0.0000227    -0.0000143    0.0000516     0.9256999   -0.3181713 
   0.279963031     0.9130419   -0.3384793    -0.0000468    0.0001295    -0.0000104   -0.0001165     0.9272583   -0.3253845 
   0.287065594     0.9089803   -0.3470363    -0.0000214   -0.0000928    -0.0001768    0.0001014     0.9216823   -0.3324953 
   0.294348346     0.9045554   -0.3534465    -0.0001600   -0.0001538     0.0001248    0.0000334     0.9169517   -0.3405505 
   0.301815859     0.9008500   -0.3616246    -0.0000383   -0.0000419     0.0002822   -0.0000441     0.9135643   -0.3479318 
   0.309472820     0.8962021   -0.3692298     0.0001050    0.0000730     0.0000423   -0.0001592     0.9100836   -0.3563020 
   0.317324036     0.8907660   -0.3773904     0.0000298    0.0000199    -0.0000077   -0.0000794     0.9042071   -0.3640463 
   0.325374434     0.8869898   -0.3857234     0.0000614    0.0000926    -0.0000144    0.0000147     0.9019585   -0.3728373 
   0.333629067     0.8809651   -0.3934024    -0.0001190   -0.0000416     0.0001052   -0.0000591     0.8957757   -0.3804536 
   0.342093118     0.8744944   -0.4023371     0.0000292    0.0000480    -0.0000765    0.0000174     0.8911656   -0.3891638 
   0.350771899     0.8687915   -0.4109423    -0.0000108    0.0000635     0.0000485    0.0000803     0.8855129   -0.3972782 
   0.359670857     0.8634040   -0.4195860    -0.0000120    0.0001163    -0.0000336    0.0000709     0.8797967   -0.4059357 
   0.368795579     0.8564575   -0.4275282    -0.0000956    0.0002206    -0.0000283   -0.0001105     0.8746501   -0.4146686 
   0.378151792     0.8500589   -0.4362138    -0.0000196   -0.0000006    -0.0000178   -0.0000115     0.8688922   -0.4233927 
   0.387745369     0.8429403   -0.4450386     0.0000193    0.0001014     0.0000333    0.0000370     0.8636650   -0.4318943 
   0.397582331     0.8359801   -0.4541235     0.0000655    0.0000217    -0.0000172    0.0000478     0.8565341   -0.4407012 
   0.407668853     0.8287795   -0.4629799     0.0001184    0.0000612     0.0000143    0.0001017     0.8500484   -0.4509522 
   0.418011267     0.8210035   -0.4724809     0.0001372   -0.0000318    -0.0000322   -0.0000223     0.8430371   -0.4597822 
   0.428616064     0.8126758   -0.4814117    -0.0000664    0.0000275     0.0000058    0.0000066     0.8353342   -0.4680542 
   0.439489902     0.8044411   -0.4900899    -0.0000111    0.0001418    -0.0000224    0.0000394     0.8277225   -0.4777497 
   0.450639604     0.7957835   -0.4993125     0.0000442   -0.0000442    -0.0000061   -0.0000347     0.8202984   -0.4868132 
   0.462072171     0.7867367   -0.5092378     0.0000795    0.0000324     0.0000593    0.0001266     0.8111997   -0.4972376 
   0.473794778     0.7767536   -0.5180666    -0.0000002   -0.0000374     0.0000780    0.0000289     0.8029714   -0.5066259 
   0.485814783     0.7676141   -0.5265811     0.0000421    0.0000869     0.0000193   -0.0000045     0.7948369   -0.5160468 
   0.498139731     0.7575797   -0.5367116     0.0000226   -0.0000410     0.0000372    0.0000114     0.7851859   -0.5256943 
