! created by azisi at Tue Aug 04 21:43:20 EEST 2020
! generated using vna/J Version 3.4.3
# Hz S DB R 50
1000000 -25.43460914 17.28883217 -0.06460247 -0.96187268 -0.06460247 -0.96187268 -25.43460914 17.28883217
3984079 -25.41717295 23.64965471 -0.04769657 -2.04202114 -0.04769657 -2.04202114 -25.41717295 23.64965471
6968158 -24.96529978 29.78607473 -0.03820434 -3.04858298 -0.03820434 -3.04858298 -24.96529978 29.78607473
9952237 -24.5638593 35.30822045 -0.0242427 -3.99609037 -0.0242427 -3.99609037 -24.5638593 35.30822045
12936316 -23.8669966 39.69592849 -0.00921139 -4.92094411 -0.00921139 -4.92094411 -23.8669966 39.69592849
15920395 -23.30585129 42.8017803 0.00975817 -5.90090239 0.00975817 -5.90090239 -23.30585129 42.8017803
18904474 -22.93218703 45.81169193 0.02810498 -6.82087529 0.02810498 -6.82087529 -22.93218703 45.81169193
21888553 -22.24726902 47.4975392 0.04513879 -7.80699176 0.04513879 -7.80699176 -22.24726902 47.4975392
24872632 -21.70122586 49.33060378 0.05727374 -8.77275301 0.05727374 -8.77275301 -21.70122586 49.33060378
27856711 -21.16636531 50.95155834 0.07562834 -9.7094421 0.07562834 -9.7094421 -21.16636531 50.95155834
30840790 -20.67047177 51.91051257 0.093415 -10.72695509 0.093415 -10.72695509 -20.67047177 51.91051257
33824869 -20.21358769 52.66668802 0.1132887 -11.72135656 0.1132887 -11.72135656 -20.21358769 52.66668802
36808948 -19.71753766 53.83847384 0.13585316 -12.77284548 0.13585316 -12.77284548 -19.71753766 53.83847384
39793027 -19.21112493 53.81056448 0.1543289 -13.8555151 0.1543289 -13.8555151 -19.21112493 53.81056448
42777106 -18.83934821 55.00698307 0.17841983 -14.96933174 0.17841983 -14.96933174 -18.83934821 55.00698307
45761185 -18.44387927 55.18699363 0.19384524 -16.13748277 0.19384524 -16.13748277 -18.44387927 55.18699363
48745264 -18.06747471 54.90843129 0.20787202 -17.3591156 0.20787202 -17.3591156 -18.06747471 54.90843129
51729343 -17.64976576 55.24384531 0.21257571 -18.63766606 0.21257571 -18.63766606 -17.64976576 55.24384531
54713422 -17.28325724 55.55952229 0.22036541 -19.93546645 0.22036541 -19.93546645 -17.28325724 55.55952229
57697501 -16.96925944 55.73323703 0.21755054 -21.21602522 0.21755054 -21.21602522 -16.96925944 55.73323703
60681580 -16.60441755 55.30676396 0.21312164 -22.5329747 0.21312164 -22.5329747 -16.60441755 55.30676396
63665659 -16.30936402 55.32663147 0.2010346 -23.82861261 0.2010346 -23.82861261 -16.30936402 55.32663147
66649738 -15.96588515 55.38758027 0.19340466 -25.12913003 0.19340466 -25.12913003 -15.96588515 55.38758027
69633817 -15.66010823 55.21027275 0.17752817 -26.40530953 0.17752817 -26.40530953 -15.66010823 55.21027275
72617896 -15.3515348 55.24696022 0.16037036 -27.63843952 0.16037036 -27.63843952 -15.3515348 55.24696022
75601975 -15.11463875 54.62557824 0.14201357 -28.84977396 0.14201357 -28.84977396 -15.11463875 54.62557824
78586054 -14.80515234 54.4561411 0.117152 -30.07768616 0.117152 -30.07768616 -14.80515234 54.4561411
81570133 -14.60874887 54.4582826 0.09539639 -31.26499812 0.09539639 -31.26499812 -14.60874887 54.4582826
84554212 -14.34216435 54.03042031 0.05684787 -32.37609819 0.05684787 -32.37609819 -14.34216435 54.03042031
87538291 -14.0391701 53.5735997 0.02674222 -33.44207556 0.02674222 -33.44207556 -14.0391701 53.5735997
90522370 -13.86852755 53.57939422 -0.0212211 -34.50278457 -0.0212211 -34.50278457 -13.86852755 53.57939422
93506449 -13.62745285 53.25622594 -0.06483856 -35.46316048 -0.06483856 -35.46316048 -13.62745285 53.25622594
96490528 -13.44117066 53.24045663 -0.12446258 -36.38105043 -0.12446258 -36.38105043 -13.44117066 53.24045663
99474607 -13.23249149 52.74476664 -0.18967284 -37.2558771 -0.18967284 -37.2558771 -13.23249149 52.74476664
102458686 -13.0571807 52.42140658 -0.25745299 -38.0740497 -0.25745299 -38.0740497 -13.0571807 52.42140658
105442765 -12.9116596 52.09023335 -0.33402974 -38.87813149 -0.33402974 -38.87813149 -12.9116596 52.09023335
108426844 -12.68800934 51.74766066 -0.42159727 -39.60250724 -0.42159727 -39.60250724 -12.68800934 51.74766066
111410923 -12.54545051 51.52402359 -0.50594983 -40.28323522 -0.50594983 -40.28323522 -12.54545051 51.52402359
114395002 -12.35804543 50.90097786 -0.59154024 -40.95749228 -0.59154024 -40.95749228 -12.35804543 50.90097786
117379081 -12.21749964 50.61903632 -0.69269483 -41.59708682 -0.69269483 -41.59708682 -12.21749964 50.61903632
120363160 -12.08432239 50.36136628 -0.78476248 -42.20496531 -0.78476248 -42.20496531 -12.08432239 50.36136628
123347239 -11.92472786 49.82520489 -0.87860463 -42.79447266 -0.87860463 -42.79447266 -11.92472786 49.82520489
126331318 -11.80203857 49.37633448 -0.97573623 -43.36428653 -0.97573623 -43.36428653 -11.80203857 49.37633448
129315397 -11.67882321 48.95951127 -1.06307624 -43.94627588 -1.06307624 -43.94627588 -11.67882321 48.95951127
132299476 -11.58731384 48.45282539 -1.15276875 -44.54421574 -1.15276875 -44.54421574 -11.58731384 48.45282539
135283555 -11.44305422 47.85749712 -1.24293615 -45.17212581 -1.24293615 -45.17212581 -11.44305422 47.85749712
138267634 -11.32459381 47.36455776 -1.32036853 -45.76174957 -1.32036853 -45.76174957 -11.32459381 47.36455776
141251713 -11.23795568 46.72571057 -1.39252939 -46.41638418 -1.39252939 -46.41638418 -11.23795568 46.72571057
144235792 -11.11554904 46.09811937 -1.46481315 -47.07364764 -1.46481315 -47.07364764 -11.11554904 46.09811937
147219871 -11.0152013 45.65300947 -1.52899632 -47.74920783 -1.52899632 -47.74920783 -11.0152013 45.65300947
150203950 -10.90523903 44.87123455 -1.58337222 -48.38355335 -1.58337222 -48.38355335 -10.90523903 44.87123455
153188029 -10.81502978 44.26648657 -1.62098702 -48.99235996 -1.62098702 -48.99235996 -10.81502978 44.26648657
156172108 -10.71789126 43.66242794 -1.65227844 -49.65592479 -1.65227844 -49.65592479 -10.71789126 43.66242794
159156187 -10.64909008 42.99993455 -1.66885399 -50.31364054 -1.66885399 -50.31364054 -10.64909008 42.99993455
162140266 -10.54968995 42.37457624 -1.67136291 -50.94731692 -1.67136291 -50.94731692 -10.54968995 42.37457624
165124345 -10.45024183 41.51703433 -1.66271602 -51.60221623 -1.66271602 -51.60221623 -10.45024183 41.51703433
168108424 -10.34813153 40.96695682 -1.6397143 -52.2173725 -1.6397143 -52.2173725 -10.34813153 40.96695682
171092503 -10.29088908 40.26815453 -1.60828357 -52.90690983 -1.60828357 -52.90690983 -10.29088908 40.26815453
174076582 -10.1783791 39.64331304 -1.56451392 -53.5573174 -1.56451392 -53.5573174 -10.1783791 39.64331304
177060661 -10.07919836 38.90667039 -1.51843473 -54.223248 -1.51843473 -54.223248 -10.07919836 38.90667039
180044740 -10.02494313 38.20433617 -1.44883375 -54.92739169 -1.44883375 -54.92739169 -10.02494313 38.20433617
183028819 -9.94811468 37.49198348 -1.37721588 -55.63439444 -1.37721588 -55.63439444 -9.94811468 37.49198348
186012898 -9.8462999 36.97918642 -1.3017536 -56.3191788 -1.3017536 -56.3191788 -9.8462999 36.97918642
188996977 -9.7677628 36.07514572 -1.21505139 -57.0087949 -1.21505139 -57.0087949 -9.7677628 36.07514572
191981056 -9.67667936 35.41690408 -1.12409844 -57.73264993 -1.12409844 -57.73264993 -9.67667936 35.41690408
194965135 -9.61293554 34.8420513 -1.03063514 -58.49151112 -1.03063514 -58.49151112 -9.61293554 34.8420513
197949214 -9.53139679 34.27609725 -0.93308252 -59.14318667 -0.93308252 -59.14318667 -9.53139679 34.27609725
200933293 -9.47805395 33.52598114 -0.83734501 -59.94171654 -0.83734501 -59.94171654 -9.47805395 33.52598114
203917372 -9.38933281 32.96705447 -0.7377173 -60.6883004 -0.7377173 -60.6883004 -9.38933281 32.96705447
206901451 -9.33462461 32.20340294 -0.64136464 -61.44325585 -0.64136464 -61.44325585 -9.33462461 32.20340294
209885530 -9.24152701 31.38573586 -0.5433314 -62.25614714 -0.5433314 -62.25614714 -9.24152701 31.38573586
212869609 -9.16964985 31.05198696 -0.44874546 -63.10875464 -0.44874546 -63.10875464 -9.16964985 31.05198696
215853688 -9.11392009 30.35434636 -0.35923461 -63.89846798 -0.35923461 -63.89846798 -9.11392009 30.35434636
218837767 -9.05874263 29.6572461 -0.2773698 -64.79541362 -0.2773698 -64.79541362 -9.05874263 29.6572461
221821846 -8.98221805 29.03351623 -0.19885368 -65.70467421 -0.19885368 -65.70467421 -8.98221805 29.03351623
224805925 -8.92497947 28.24707724 -0.13196867 -66.65548788 -0.13196867 -66.65548788 -8.92497947 28.24707724
227790004 -8.8713212 27.71688197 -0.07518456 -67.70792199 -0.07518456 -67.70792199 -8.8713212 27.71688197
230774083 -8.8196949 27.09450869 -0.02902634 -68.73686087 -0.02902634 -68.73686087 -8.8196949 27.09450869
233758162 -8.77000147 26.64385592 0.00634071 -69.82323999 0.00634071 -69.82323999 -8.77000147 26.64385592
236742241 -8.7051189 26.02699959 0.03775858 -70.98786411 0.03775858 -70.98786411 -8.7051189 26.02699959
239726320 -8.66468984 25.37948271 0.04953299 -72.17629701 0.04953299 -72.17629701 -8.66468984 25.37948271
242710399 -8.61362396 24.9247926 0.05413606 -73.44096412 0.05413606 -73.44096412 -8.61362396 24.9247926
245694478 -8.59419931 24.10994598 0.05279942 -74.72601412 0.05279942 -74.72601412 -8.59419931 24.10994598
248678557 -8.54142739 23.55695693 0.04025171 -76.06584295 0.04025171 -76.06584295 -8.54142739 23.55695693
251662636 -8.5143234 23.24689623 0.01921372 -77.46123542 0.01921372 -77.46123542 -8.5143234 23.24689623
254646715 -8.46142688 22.40135929 -0.0101839 -78.91017443 -0.0101839 -78.91017443 -8.46142688 22.40135929
257630794 -8.45465526 21.86021114 -0.05132457 -80.33859642 -0.05132457 -80.33859642 -8.45465526 21.86021114
260614873 -8.40426912 21.35449759 -0.0928175 -81.90854308 -0.0928175 -81.90854308 -8.40426912 21.35449759
263598952 -8.36916807 20.60356971 -0.13700992 -83.45507945 -0.13700992 -83.45507945 -8.36916807 20.60356971
266583031 -8.35875586 20.08333214 -0.19107203 -85.00411233 -0.19107203 -85.00411233 -8.35875586 20.08333214
269567110 -8.33103639 19.48260683 -0.24921083 -86.59538999 -0.24921083 -86.59538999 -8.33103639 19.48260683
272551189 -8.31134042 19.03723371 -0.30828596 -88.26317351 -0.30828596 -88.26317351 -8.31134042 19.03723371
275535268 -8.27164044 18.25039001 -0.37087512 -89.78482941 -0.37087512 -89.78482941 -8.27164044 18.25039001
278519347 -8.25317126 17.62034712 -0.43306904 -91.30986351 -0.43306904 -91.30986351 -8.25317126 17.62034712
281503426 -8.25541232 17.08252526 -0.49327107 -92.87331448 -0.49327107 -92.87331448 -8.25541232 17.08252526
284487505 -8.23868911 16.35077308 -0.55553321 -94.37000245 -0.55553321 -94.37000245 -8.23868911 16.35077308
287471584 -8.19959246 15.69374057 -0.61350101 -95.79822853 -0.61350101 -95.79822853 -8.19959246 15.69374057
290455663 -8.19184514 15.03356778 -0.67205925 -97.18434425 -0.67205925 -97.18434425 -8.19184514 15.03356778
293439742 -8.20043787 14.49585484 -0.72998138 -98.49427688 -0.72998138 -98.49427688 -8.20043787 14.49585484
296423821 -8.16266504 13.83801739 -0.77619021 -99.71415906 -0.77619021 -99.71415906 -8.16266504 13.83801739
299407900 -8.15571595 13.26251197 -0.82727755 -100.87536649 -0.82727755 -100.87536649 -8.15571595 13.26251197
302391979 -8.13702952 12.6588176 -0.87389923 -101.93353068 -0.87389923 -101.93353068 -8.13702952 12.6588176
305376058 -8.18130609 11.82703862 -0.92266276 -102.90388368 -0.92266276 -102.90388368 -8.18130609 11.82703862
308360137 -8.14718397 11.18749922 -0.97284409 -103.77757525 -0.97284409 -103.77757525 -8.14718397 11.18749922
311344216 -8.12414997 10.66291592 -1.01726631 -104.58065443 -1.01726631 -104.58065443 -8.12414997 10.66291592
314328295 -8.11512348 9.93780901 -1.06869573 -105.32004299 -1.06869573 -105.32004299 -8.11512348 9.93780901
317312374 -8.12367839 9.36146393 -1.12256772 -105.95896914 -1.12256772 -105.95896914 -8.12367839 9.36146393
320296453 -8.11921827 8.64021599 -1.16727159 -106.52528189 -1.16727159 -106.52528189 -8.11921827 8.64021599
323280532 -8.12037829 7.88255626 -1.20783857 -107.04603006 -1.20783857 -107.04603006 -8.12037829 7.88255626
326264611 -8.10578857 7.58888534 -1.2586293 -107.49145733 -1.2586293 -107.49145733 -8.10578857 7.58888534
329248690 -8.12648348 6.861076 -1.30330553 -107.87776831 -1.30330553 -107.87776831 -8.12648348 6.861076
332232769 -8.1128346 6.30037667 -1.35429501 -108.18002474 -1.35429501 -108.18002474 -8.1128346 6.30037667
335216848 -8.13276745 5.40477962 -1.40763146 -108.44560449 -1.40763146 -108.44560449 -8.13276745 5.40477962
338200927 -8.1290486 4.78147603 -1.45479616 -108.68821584 -1.45479616 -108.68821584 -8.1290486 4.78147603
341185006 -8.15043134 4.17583621 -1.51256242 -108.89834687 -1.51256242 -108.89834687 -8.15043134 4.17583621
344169085 -8.16350149 3.63236865 -1.55880909 -109.0548292 -1.55880909 -109.0548292 -8.16350149 3.63236865
347153164 -8.18631854 2.83510066 -1.61375236 -109.24044149 -1.61375236 -109.24044149 -8.18631854 2.83510066
350137243 -8.18164033 2.32294047 -1.66491439 -109.50586845 -1.66491439 -109.50586845 -8.18164033 2.32294047
353121322 -8.20638783 1.73723289 -1.70785451 -109.6274263 -1.70785451 -109.6274263 -8.20638783 1.73723289
356105401 -8.19931376 0.95213251 -1.76595294 -109.87401312 -1.76595294 -109.87401312 -8.19931376 0.95213251
359089480 -8.24262646 0.36683739 -1.8134366 -110.01754277 -1.8134366 -110.01754277 -8.24262646 0.36683739
362073559 -8.28282471 -0.25893952 -1.84630916 -110.33198964 -1.84630916 -110.33198964 -8.28282471 -0.25893952
365057638 -8.30318761 -0.97376249 -1.88652701 -110.63565801 -1.88652701 -110.63565801 -8.30318761 -0.97376249
368041717 -8.32594678 -1.68618002 -1.91840712 -110.96542824 -1.91840712 -110.96542824 -8.32594678 -1.68618002
371025796 -8.37579732 -2.13623638 -1.94501247 -111.33157045 -1.94501247 -111.33157045 -8.37579732 -2.13623638
374009875 -8.40479681 -3.00883113 -1.9698741 -111.75074362 -1.9698741 -111.75074362 -8.40479681 -3.00883113
376993954 -8.44156406 -3.75247845 -1.98234102 -112.21160217 -1.98234102 -112.21160217 -8.44156406 -3.75247845
379978033 -8.4817533 -4.29222781 -1.98944913 -112.75568141 -1.98944913 -112.75568141 -8.4817533 -4.29222781
382962112 -8.52597367 -4.92914225 -1.9851363 -113.34244352 -1.9851363 -113.34244352 -8.52597367 -4.92914225
385946191 -8.56452067 -5.78390408 -1.96783605 -113.98820112 -1.96783605 -113.98820112 -8.56452067 -5.78390408
388930270 -8.60941512 -6.29970219 -1.94763255 -114.67187584 -1.94763255 -114.67187584 -8.60941512 -6.29970219
391914349 -8.68998269 -6.92991904 -1.91565897 -115.40845951 -1.91565897 -115.40845951 -8.68998269 -6.92991904
394898428 -8.69271803 -7.66621783 -1.85870855 -116.24033784 -1.85870855 -116.24033784 -8.69271803 -7.66621783
397882507 -8.74869207 -8.70189353 -1.80152771 -117.0452956 -1.80152771 -117.0452956 -8.74869207 -8.70189353
400866586 -8.79751374 -9.27677107 -1.7397911 -117.91373981 -1.7397911 -117.91373981 -8.79751374 -9.27677107
403850665 -8.87648546 -10.18504045 -1.65563797 -118.88138353 -1.65563797 -118.88138353 -8.87648546 -10.18504045
406834744 -8.91483792 -10.73629123 -1.5623912 -119.86091576 -1.5623912 -119.86091576 -8.91483792 -10.73629123
409818823 -8.99231501 -11.50870139 -1.4739039 -120.790793 -1.4739039 -120.790793 -8.99231501 -11.50870139
412802902 -9.02817705 -12.3028221 -1.3628201 -121.87206814 -1.3628201 -121.87206814 -9.02817705 -12.3028221
415786981 -9.10863357 -13.11189265 -1.24993898 -122.95990205 -1.24993898 -122.95990205 -9.10863357 -13.11189265
418771060 -9.15173027 -13.97318247 -1.13268518 -124.04081424 -1.13268518 -124.04081424 -9.15173027 -13.97318247
421755139 -9.23094993 -14.71202074 -1.0121599 -125.11605118 -1.0121599 -125.11605118 -9.23094993 -14.71202074
424739218 -9.26731266 -15.49887748 -0.89348055 -126.20845653 -0.89348055 -126.20845653 -9.26731266 -15.49887748
427723297 -9.31977241 -16.45441538 -0.77273275 -127.34785756 -0.77273275 -127.34785756 -9.31977241 -16.45441538
430707376 -9.39078071 -17.19570755 -0.65019522 -128.4531697 -0.65019522 -128.4531697 -9.39078071 -17.19570755
433691455 -9.45076676 -17.95364868 -0.52956332 -129.58150895 -0.52956332 -129.58150895 -9.45076676 -17.95364868
436675534 -9.54774423 -18.62551492 -0.42344848 -130.69849784 -0.42344848 -130.69849784 -9.54774423 -18.62551492
439659613 -9.59086127 -19.29999311 -0.3223688 -131.78856716 -0.3223688 -131.78856716 -9.59086127 -19.29999311
442643692 -9.68099406 -20.19857656 -0.24100402 -132.87738842 -0.24100402 -132.87738842 -9.68099406 -20.19857656
445627771 -9.70634133 -20.93752329 -0.15413886 -133.99706801 -0.15413886 -133.99706801 -9.70634133 -20.93752329
448611850 -9.80921842 -21.68851653 -0.08732138 -135.0758229 -0.08732138 -135.0758229 -9.80921842 -21.68851653
451595929 -9.90795146 -22.44961487 -0.02332726 -136.209786 -0.02332726 -136.209786 -9.90795146 -22.44961487
454580008 -9.93098026 -23.20222458 0.02148385 -137.3678485 0.02148385 -137.3678485 -9.93098026 -23.20222458
457564087 -10.03378906 -23.6945479 0.05253791 -138.48561578 0.05253791 -138.48561578 -10.03378906 -23.6945479
460548166 -10.09720529 -24.57493615 0.08151636 -139.64531049 0.08151636 -139.64531049 -10.09720529 -24.57493615
463532245 -10.18957601 -25.40251574 0.08463329 -140.80467449 0.08463329 -140.80467449 -10.18957601 -25.40251574
466516324 -10.23409617 -25.94039575 0.07940064 -142.06460409 0.07940064 -142.06460409 -10.23409617 -25.94039575
469500403 -10.33338824 -26.39415414 0.07083828 -143.36478166 0.07083828 -143.36478166 -10.33338824 -26.39415414
472484482 -10.47799477 -27.23828849 0.05091624 -144.5926512 0.05091624 -144.5926512 -10.47799477 -27.23828849
475468561 -10.59114023 -27.5664179 0.02805749 -145.90481293 0.02805749 -145.90481293 -10.59114023 -27.5664179
478452640 -10.67614242 -28.44141777 -0.00536446 -147.25282168 -0.00536446 -147.25282168 -10.67614242 -28.44141777
481436719 -10.81767645 -28.89671681 -0.04606012 -148.58914636 -0.04606012 -148.58914636 -10.81767645 -28.89671681
484420798 -10.93351521 -29.58750366 -0.08744173 -149.901954 -0.08744173 -149.901954 -10.93351521 -29.58750366
487404877 -11.07670487 -29.91085085 -0.14129671 -151.33219737 -0.14129671 -151.33219737 -11.07670487 -29.91085085
490388956 -11.20804648 -30.37232525 -0.17464336 -152.6846982 -0.17464336 -152.6846982 -11.20804648 -30.37232525
493373035 -11.33686317 -31.19029307 -0.21813464 -154.01089904 -0.21813464 -154.01089904 -11.33686317 -31.19029307
496357114 -11.4913278 -31.48520198 -0.25994632 -155.30553688 -0.25994632 -155.30553688 -11.4913278 -31.48520198
499341193 -11.68355089 -32.0101985 -0.29943968 -156.53380423 -0.29943968 -156.53380423 -11.68355089 -32.0101985
502325272 -11.83538273 -32.74908659 -0.33686623 -157.82171025 -0.33686623 -157.82171025 -11.83538273 -32.74908659
505309351 -12.02943883 -33.01509551 -0.37447558 -159.00126867 -0.37447558 -159.00126867 -12.02943883 -33.01509551
508293430 -12.21721948 -33.63698619 -0.40325538 -160.2835566 -0.40325538 -160.2835566 -12.21721948 -33.63698619
511277509 -12.42722372 -34.01010956 -0.43340162 -161.43277494 -0.43340162 -161.43277494 -12.42722372 -34.01010956
514261588 -12.62650659 -34.82260455 -0.46068365 -162.50765391 -0.46068365 -162.50765391 -12.62650659 -34.82260455
517245667 -12.84313248 -35.07564925 -0.47949997 -163.64449995 -0.47949997 -163.64449995 -12.84313248 -35.07564925
520229746 -13.02548175 -35.71417674 -0.49919765 -164.68044042 -0.49919765 -164.68044042 -13.02548175 -35.71417674
523213825 -13.28790273 -36.19508579 -0.51905863 -165.68376492 -0.51905863 -165.68376492 -13.28790273 -36.19508579
526197904 -13.53238387 -36.4424112 -0.53316388 -166.70450284 -0.53316388 -166.70450284 -13.53238387 -36.4424112
529181983 -13.86285897 -37.17258191 -0.54921584 -167.63703525 -0.54921584 -167.63703525 -13.86285897 -37.17258191
532166062 -14.06156272 -37.749932 -0.55840249 -168.53825365 -0.55840249 -168.53825365 -14.06156272 -37.749932
535150141 -14.38442485 -38.3210566 -0.56852049 -169.43973725 -0.56852049 -169.43973725 -14.38442485 -38.3210566
538134220 -14.64101261 -38.81746297 -0.57778246 -170.32668035 -0.57778246 -170.32668035 -14.64101261 -38.81746297
541118299 -14.93546125 -39.33652095 -0.57990099 -171.15643105 -0.57990099 -171.15643105 -14.93546125 -39.33652095
544102378 -15.25024455 -40.32568664 -0.58080423 -171.97380176 -0.58080423 -171.97380176 -15.25024455 -40.32568664
