! created by azisi at Wed Sep 23 19:51:24 EEST 2020
! generated using vna/J Version 3.4.3
# Hz S DB R 50.0
200000000 -23.87894327 35.50849108 -0.28582407 -36.72210928 -0.28582407 -36.72210928 -23.87894327 35.50849108 
202566633 -23.62136673 37.82045531 -0.30706312 -37.08241278 -0.30706312 -37.08241278 -23.62136673 37.82045531 
205133266 -23.28344444 40.88565757 -0.33227856 -37.36846430 -0.33227856 -37.36846430 -23.28344444 40.88565757 
207699899 -23.12809421 42.46394277 -0.35465884 -37.70826252 -0.35465884 -37.70826252 -23.12809421 42.46394277 
210266532 -22.67783271 45.51059206 -0.37114621 -38.07352617 -0.37114621 -38.07352617 -22.67783271 45.51059206 
212833165 -22.23079268 47.30531095 -0.38158889 -38.48538195 -0.38158889 -38.48538195 -22.23079268 47.30531095 
215399798 -21.96907210 49.15235746 -0.39242385 -38.90359137 -0.39242385 -38.90359137 -21.96907210 49.15235746 
217966431 -21.57675855 50.67573943 -0.40460458 -39.33739108 -0.40460458 -39.33739108 -21.57675855 50.67573943 
220533064 -21.13733328 53.96821583 -0.41400895 -39.85465083 -0.41400895 -39.85465083 -21.13733328 53.96821583 
223099697 -20.52130496 55.29522188 -0.42226270 -40.36878091 -0.42226270 -40.36878091 -20.52130496 55.29522188 
225666330 -20.07860173 55.85260560 -0.41413883 -40.89485694 -0.41413883 -40.89485694 -20.07860173 55.85260560 
228232963 -19.74391750 58.03220520 -0.39786899 -41.43093760 -0.39786899 -41.43093760 -19.74391750 58.03220520 
230799596 -19.23247957 59.09870266 -0.38500317 -42.04286236 -0.38500317 -42.04286236 -19.23247957 59.09870266 
233366229 -18.73348248 60.09457638 -0.36962025 -42.68116332 -0.36962025 -42.68116332 -18.73348248 60.09457638 
235932862 -18.30460459 62.01432959 -0.34972695 -43.28309234 -0.34972695 -43.28309234 -18.30460459 62.01432959 
238499495 -18.01600350 63.11039388 -0.32255348 -43.93183919 -0.32255348 -43.93183919 -18.01600350 63.11039388 
241066128 -17.63078141 64.29136780 -0.29239243 -44.54719283 -0.29239243 -44.54719283 -17.63078141 64.29136780 
243632761 -17.26485296 64.93428325 -0.24684232 -45.21478228 -0.24684232 -45.21478228 -17.26485296 64.93428325 
246199394 -16.90695216 64.86912858 -0.21224453 -45.82907144 -0.21224453 -45.82907144 -16.90695216 64.86912858 
248766027 -16.65269893 65.64688985 -0.16877534 -46.48223508 -0.16877534 -46.48223508 -16.65269893 65.64688985 
251332660 -16.42577514 66.40057203 -0.12451503 -47.12600082 -0.12451503 -47.12600082 -16.42577514 66.40057203 
253899293 -16.23688198 66.15666914 -0.07994305 -47.74619751 -0.07994305 -47.74619751 -16.23688198 66.15666914 
256465926 -16.01941747 66.29662548 -0.04031839 -48.35982659 -0.04031839 -48.35982659 -16.01941747 66.29662548 
259032559 -15.78472741 65.88043468 0.00841980 -48.94267080 0.00841980 -48.94267080 -15.78472741 65.88043468 
261599192 -15.53693219 65.76604390 0.04752399 -49.55956037 0.04752399 -49.55956037 -15.53693219 65.76604390 
264165825 -15.44054470 64.81903522 0.08835663 -50.15159835 0.08835663 -50.15159835 -15.44054470 64.81903522 
266732458 -15.30035257 64.46904759 0.12343737 -50.73846080 0.12343737 -50.73846080 -15.30035257 64.46904759 
269299091 -15.12292936 63.77924624 0.14839519 -51.31665815 0.14839519 -51.31665815 -15.12292936 63.77924624 
271865724 -14.97898151 62.44279641 0.17006891 -51.92714931 0.17006891 -51.92714931 -14.97898151 62.44279641 
274432357 -14.87276897 61.82236109 0.17437073 -52.51821442 0.17437073 -52.51821442 -14.87276897 61.82236109 
276998990 -14.69932710 60.38136254 0.18677317 -53.08626037 0.18677317 -53.08626037 -14.69932710 60.38136254 
279565623 -14.56532954 59.04386274 0.18571878 -53.62852460 0.18571878 -53.62852460 -14.56532954 59.04386274 
282132256 -14.39561386 57.98452469 0.18487995 -54.24289964 0.18487995 -54.24289964 -14.39561386 57.98452469 
284698889 -14.19217894 56.57545700 0.17181010 -54.83868777 0.17181010 -54.83868777 -14.19217894 56.57545700 
287265522 -14.05489531 54.95856142 0.15823163 -55.48274613 0.15823163 -55.48274613 -14.05489531 54.95856142 
289832155 -13.83699520 53.82542026 0.13377159 -56.07819417 0.13377159 -56.07819417 -13.83699520 53.82542026 
292398788 -13.72737028 52.77807830 0.10284429 -56.78223418 0.10284429 -56.78223418 -13.72737028 52.77807830 
294965421 -13.54249099 51.36068637 0.07511475 -57.44322875 0.07511475 -57.44322875 -13.54249099 51.36068637 
297532054 -13.38460048 50.23067972 0.04422205 -58.17441080 0.04422205 -58.17441080 -13.38460048 50.23067972 
300098687 -13.29249743 49.05901794 0.01389704 -58.97070713 0.01389704 -58.97070713 -13.29249743 49.05901794 
302665320 -13.14422933 48.06856076 -0.01860779 -59.76344294 -0.01860779 -59.76344294 -13.14422933 48.06856076 
305231953 -13.03708714 46.80669289 -0.05918039 -60.56283645 -0.05918039 -60.56283645 -13.03708714 46.80669289 
307798586 -12.91314541 45.95857302 -0.10133734 -61.32350671 -0.10133734 -61.32350671 -12.91314541 45.95857302 
310365219 -12.79576369 44.93662014 -0.13125838 -62.17299561 -0.13125838 -62.17299561 -12.79576369 44.93662014 
312931852 -12.67278533 43.63675912 -0.16052145 -63.08843921 -0.16052145 -63.08843921 -12.67278533 43.63675912 
315498485 -12.64909761 43.03879722 -0.19190565 -63.97417859 -0.19190565 -63.97417859 -12.64909761 43.03879722 
318065118 -12.60745681 42.04339304 -0.21483942 -64.83765550 -0.21483942 -64.83765550 -12.60745681 42.04339304 
320631751 -12.57729300 41.01438416 -0.24437015 -65.68120485 -0.24437015 -65.68120485 -12.57729300 41.01438416 
323198384 -12.51744554 40.05665933 -0.27315449 -66.56342390 -0.27315449 -66.56342390 -12.51744554 40.05665933 
325765017 -12.47296932 39.26053915 -0.29780237 -67.30467880 -0.29780237 -67.30467880 -12.47296932 39.26053915 
328331650 -12.52611149 37.95849963 -0.31564322 -68.06096368 -0.31564322 -68.06096368 -12.52611149 37.95849963 
330898283 -12.52220218 36.85820749 -0.33110168 -68.79612903 -0.33110168 -68.79612903 -12.52220218 36.85820749 
333464916 -12.54009291 35.43520293 -0.33273060 -69.45859016 -0.33273060 -69.45859016 -12.54009291 35.43520293 
336031549 -12.62391322 34.52296731 -0.34747921 -70.05999413 -0.34747921 -70.05999413 -12.62391322 34.52296731 
338598182 -12.65941060 32.94226114 -0.35770358 -70.60995219 -0.35770358 -70.60995219 -12.65941060 32.94226114 
341164815 -12.68059710 31.56885593 -0.37680427 -71.11568107 -0.37680427 -71.11568107 -12.68059710 31.56885593 
343731448 -12.73462138 30.42091464 -0.38334177 -71.48422941 -0.38334177 -71.48422941 -12.73462138 30.42091464 
346298081 -12.80868684 28.78882530 -0.40883997 -71.87578068 -0.40883997 -71.87578068 -12.80868684 28.78882530 
348864714 -12.86665321 26.91661843 -0.41804322 -72.16308246 -0.41804322 -72.16308246 -12.86665321 26.91661843 
351431347 -12.88298172 25.50560899 -0.43572738 -72.35015069 -0.43572738 -72.35015069 -12.88298172 25.50560899 
353997980 -12.96446001 23.69113544 -0.45199514 -72.53827429 -0.45199514 -72.53827429 -12.96446001 23.69113544 
356564613 -13.00742113 22.27089317 -0.47919162 -72.69207456 -0.47919162 -72.69207456 -13.00742113 22.27089317 
359131246 -12.99951431 20.60588117 -0.51481202 -72.75595069 -0.51481202 -72.75595069 -12.99951431 20.60588117 
361697879 -13.07610147 18.88932647 -0.55750123 -72.75652399 -0.55750123 -72.75652399 -13.07610147 18.88932647 
364264512 -13.13658016 17.68230954 -0.59263481 -72.81340082 -0.59263481 -72.81340082 -13.13658016 17.68230954 
366831145 -13.12749676 15.42454318 -0.63115964 -72.93117558 -0.63115964 -72.93117558 -13.12749676 15.42454318 
369397778 -13.19528638 14.11157300 -0.67572528 -72.90073529 -0.67572528 -72.90073529 -13.19528638 14.11157300 
371964411 -13.20415221 12.18121485 -0.71621918 -72.93296197 -0.71621918 -72.93296197 -13.20415221 12.18121485 
374531044 -13.25427708 10.60800643 -0.75631242 -72.93966371 -0.75631242 -72.93966371 -13.25427708 10.60800643 
377097677 -13.27016679 9.48475709 -0.80627999 -73.07852175 -0.80627999 -73.07852175 -13.27016679 9.48475709 
379664310 -13.35212315 8.28897601 -0.85572726 -73.15382799 -0.85572726 -73.15382799 -13.35212315 8.28897601 
382230943 -13.38658023 6.83837705 -0.88859001 -73.27255003 -0.88859001 -73.27255003 -13.38658023 6.83837705 
384797576 -13.40992632 5.79881258 -0.92547743 -73.42526098 -0.92547743 -73.42526098 -13.40992632 5.79881258 
387364209 -13.47845750 4.42937533 -0.95676955 -73.70756693 -0.95676955 -73.70756693 -13.47845750 4.42937533 
389930842 -13.55489722 2.82748440 -0.98017001 -73.93214551 -0.98017001 -73.93214551 -13.55489722 2.82748440 
392497475 -13.62112327 1.74570607 -0.99785681 -74.27184877 -0.99785681 -74.27184877 -13.62112327 1.74570607 
395064108 -13.64272974 0.41852492 -1.00683387 -74.59376112 -1.00683387 -74.59376112 -13.64272974 0.41852492 
397630741 -13.80235716 -0.56580660 -1.01550220 -74.99042749 -1.01550220 -74.99042749 -13.80235716 -0.56580660 
400197374 -13.85179755 -1.45042504 -1.00991905 -75.42407850 -1.00991905 -75.42407850 -13.85179755 -1.45042504 
402764007 -13.98022101 -2.68144289 -0.99162477 -75.94124767 -0.99162477 -75.94124767 -13.98022101 -2.68144289 
405330640 -14.07979252 -3.57523599 -0.96995356 -76.36304219 -0.96995356 -76.36304219 -14.07979252 -3.57523599 
407897273 -14.23103164 -4.89106842 -0.94491944 -76.88561219 -0.94491944 -76.88561219 -14.23103164 -4.89106842 
410463906 -14.28656473 -5.93749873 -0.90134943 -77.43765912 -0.90134943 -77.43765912 -14.28656473 -5.93749873 
413030539 -14.37172749 -6.94529414 -0.86338103 -77.99357058 -0.86338103 -77.99357058 -14.37172749 -6.94529414 
415597172 -14.54785612 -7.53388800 -0.81819544 -78.57368574 -0.81819544 -78.57368574 -14.54785612 -7.53388800 
418163805 -14.65387574 -8.69601573 -0.76635458 -79.10646078 -0.76635458 -79.10646078 -14.65387574 -8.69601573 
420730438 -14.75149046 -9.07309481 -0.70500219 -79.71731341 -0.70500219 -79.71731341 -14.75149046 -9.07309481 
423297071 -14.90676089 -10.16914675 -0.64256882 -80.25977461 -0.64256882 -80.25977461 -14.90676089 -10.16914675 
425863704 -15.02612787 -10.89163374 -0.58051005 -80.79197138 -0.58051005 -80.79197138 -15.02612787 -10.89163374 
428430337 -15.18126900 -11.26666667 -0.51437044 -81.31867600 -0.51437044 -81.31867600 -15.18126900 -11.26666667 
430996970 -15.35067309 -11.98770905 -0.45928197 -81.87426360 -0.45928197 -81.87426360 -15.35067309 -11.98770905 
433563603 -15.46563911 -12.47305062 -0.40800792 -82.27721739 -0.40800792 -82.27721739 -15.46563911 -12.47305062 
436130236 -15.58421316 -12.52029207 -0.33470934 -82.68725869 -0.33470934 -82.68725869 -15.58421316 -12.52029207 
438696869 -15.70486413 -13.06649845 -0.27658990 -83.07794991 -0.27658990 -83.07794991 -15.70486413 -13.06649845 
441263502 -15.92545061 -12.94965432 -0.22559419 -83.43977848 -0.22559419 -83.43977848 -15.92545061 -12.94965432 
443830135 -16.00272430 -12.94628042 -0.17637509 -83.84166313 -0.17637509 -83.84166313 -16.00272430 -12.94628042 
446396768 -16.13126825 -13.13845904 -0.14365253 -84.16046147 -0.14365253 -84.16046147 -16.13126825 -13.13845904 
448963401 -16.21002526 -12.89113733 -0.12772473 -84.46874599 -0.12772473 -84.46874599 -16.21002526 -12.89113733 
451530034 -16.36578353 -12.97910979 -0.10675783 -84.80093437 -0.10675783 -84.80093437 -16.36578353 -12.97910979 
454096667 -16.47728053 -12.40990565 -0.08485889 -85.15664036 -0.08485889 -85.15664036 -16.47728053 -12.40990565 
456663300 -16.60502484 -11.26666667 -0.07677122 -85.51064924 -0.07677122 -85.51064924 -16.60502484 -11.26666667 
459229933 -16.70089333 -11.26666667 -0.08082925 -85.83679603 -0.08082925 -85.83679603 -16.70089333 -11.26666667 
461796566 -16.74526591 -10.44194697 -0.08528949 -86.19471812 -0.08528949 -86.19471812 -16.74526591 -10.44194697 
464363199 -16.84545452 -9.66861402 -0.10356325 -86.61426327 -0.10356325 -86.61426327 -16.84545452 -9.66861402 
466929832 -16.97849938 -8.47953766 -0.12644177 -87.01680986 -0.12644177 -87.01680986 -16.97849938 -8.47953766 
469496465 -16.96936991 -8.13216167 -0.15852568 -87.43642446 -0.15852568 -87.43642446 -16.96936991 -8.13216167 
472063098 -17.05321712 -6.45751357 -0.19281829 -88.02201443 -0.19281829 -88.02201443 -17.05321712 -6.45751357 
474629731 -17.04647377 -6.45005599 -0.21245246 -88.56547486 -0.21245246 -88.56547486 -17.04647377 -6.45005599 
477196364 -16.97653646 -5.30549650 -0.23943465 -89.15622610 -0.23943465 -89.15622610 -16.97653646 -5.30549650 
479762997 -17.08729854 -3.77485315 -0.26726421 -89.79454482 -0.26726421 -89.79454482 -17.08729854 -3.77485315 
482329630 -17.06825827 -3.01872083 -0.29580262 -90.47667744 -0.29580262 -90.47667744 -17.06825827 -3.01872083 
484896263 -16.99205837 -1.06627079 -0.32711650 -91.24300613 -0.32711650 -91.24300613 -16.99205837 -1.06627079 
487462896 -16.92984004 0.42499372 -0.34725697 -92.02616873 -0.34725697 -92.02616873 -16.92984004 0.42499372 
490029529 -16.88059354 1.23758317 -0.34705519 -92.82598600 -0.34705519 -92.82598600 -16.88059354 1.23758317 
492596162 -16.78327837 2.22564325 -0.34873977 -93.56997809 -0.34873977 -93.56997809 -16.78327837 2.22564325 
495162795 -16.72310623 3.58676865 -0.34651922 -94.40657651 -0.34651922 -94.40657651 -16.72310623 3.58676865 
497729428 -16.62382871 5.23863130 -0.33820534 -95.27399934 -0.33820534 -95.27399934 -16.62382871 5.23863130 
500296061 -16.47926523 6.45601816 -0.32540433 -96.14790738 -0.32540433 -96.14790738 -16.47926523 6.45601816 
502862694 -16.41872603 6.73906258 -0.31591353 -96.92718006 -0.31591353 -96.92718006 -16.41872603 6.73906258 
505429327 -16.27927367 7.89870755 -0.28977284 -97.77002670 -0.28977284 -97.77002670 -16.27927367 7.89870755 
507995960 -16.16974529 8.48070343 -0.25110670 -98.57562816 -0.25110670 -98.57562816 -16.16974529 8.48070343 
510562593 -16.14086242 8.85053619 -0.21360938 -99.39228514 -0.21360938 -99.39228514 -16.14086242 8.85053619 
513129226 -15.89597536 9.15603223 -0.17599909 -100.10732776 -0.17599909 -100.10732776 -15.89597536 9.15603223 
515695859 -15.88291272 9.74330704 -0.14699661 -100.78766394 -0.14699661 -100.78766394 -15.88291272 9.74330704 
518262492 -15.77548238 10.23505006 -0.11537448 -101.45213089 -0.11537448 -101.45213089 -15.77548238 10.23505006 
520829125 -15.56559177 9.83677398 -0.09130984 -102.06338002 -0.09130984 -102.06338002 -15.56559177 9.83677398 
523395758 -15.51620252 9.10050043 -0.05128096 -102.67116537 -0.05128096 -102.67116537 -15.51620252 9.10050043 
525962391 -15.39248864 9.26233255 -0.01715324 -103.16447594 -0.01715324 -103.16447594 -15.39248864 9.26233255 
528529024 -15.20137080 9.19057709 0.00322436 -103.66227039 0.00322436 -103.66227039 -15.20137080 9.19057709 
531095657 -14.98388105 9.01393230 0.01902356 -104.09730416 0.01902356 -104.09730416 -14.98388105 9.01393230 
533662290 -14.89331763 8.49169210 0.02303124 -104.57134311 0.02303124 -104.57134311 -14.89331763 8.49169210 
536228923 -14.73083627 7.64124053 0.01989449 -105.01805935 0.01989449 -105.01805935 -14.73083627 7.64124053 
538795556 -14.61986967 7.13486757 0.01262520 -105.47398399 0.01262520 -105.47398399 -14.61986967 7.13486757 
541362189 -14.44757059 6.47779402 -0.00088052 -105.87955013 -0.00088052 -105.87955013 -14.44757059 6.47779402 
543928822 -14.32767817 5.33797221 -0.00963412 -106.30298658 -0.00963412 -106.30298658 -14.32767817 5.33797221 
546495455 -14.17484739 5.22246173 -0.03645709 -106.74128634 -0.03645709 -106.74128634 -14.17484739 5.22246173 
549062088 -14.01469900 4.35083349 -0.07148265 -107.24334402 -0.07148265 -107.24334402 -14.01469900 4.35083349 
551628721 -13.90082476 3.63464476 -0.10306105 -107.74484679 -0.10306105 -107.74484679 -13.90082476 3.63464476 
554195354 -13.78776262 3.14372394 -0.14291644 -108.28710754 -0.14291644 -108.28710754 -13.78776262 3.14372394 
556761987 -13.72884363 2.51400584 -0.18755899 -108.75203930 -0.18755899 -108.75203930 -13.72884363 2.51400584 
559328620 -13.56317101 1.63296863 -0.23809511 -109.35212600 -0.23809511 -109.35212600 -13.56317101 1.63296863 
561895253 -13.53914158 0.74613282 -0.28222914 -109.97590442 -0.28222914 -109.97590442 -13.53914158 0.74613282 
564461886 -13.43857978 0.08028516 -0.31731961 -110.65354064 -0.31731961 -110.65354064 -13.43857978 0.08028516 
567028519 -13.31557524 -1.51674026 -0.36734028 -111.28780618 -0.36734028 -111.28780618 -13.31557524 -1.51674026 
569595152 -13.31686666 -1.79209833 -0.42201896 -111.96799995 -0.42201896 -111.96799995 -13.31686666 -1.79209833 
572161785 -13.26571402 -2.83018133 -0.45675474 -112.62778195 -0.45675474 -112.62778195 -13.26571402 -2.83018133 
574728418 -13.19435976 -3.60135401 -0.49707897 -113.27909373 -0.49707897 -113.27909373 -13.19435976 -3.60135401 
577295051 -13.14593391 -4.20781977 -0.53310409 -113.99187151 -0.53310409 -113.99187151 -13.14593391 -4.20781977 
579861684 -13.15729139 -5.72647279 -0.54947251 -114.66810186 -0.54947251 -114.66810186 -13.15729139 -5.72647279 
582428317 -13.13008434 -6.93218947 -0.56894343 -115.31036038 -0.56894343 -115.31036038 -13.13008434 -6.93218947 
584994950 -13.09923746 -8.25044683 -0.57672474 -115.92921363 -0.57672474 -115.92921363 -13.09923746 -8.25044683 
587561583 -13.14207188 -9.05663347 -0.58696110 -116.56163687 -0.58696110 -116.56163687 -13.14207188 -9.05663347 
590128216 -13.15004032 -10.55867243 -0.58605113 -117.18573542 -0.58605113 -117.18573542 -13.15004032 -10.55867243 
592694849 -13.17421291 -11.71381466 -0.59922212 -117.74676343 -0.59922212 -117.74676343 -13.17421291 -11.71381466 
595261482 -13.09418589 -13.32332627 -0.59262769 -118.39156418 -0.59262769 -118.39156418 -13.09418589 -13.32332627 
597828115 -13.19200409 -14.59049531 -0.57535167 -118.98405237 -0.57535167 -118.98405237 -13.19200409 -14.59049531 
600394748 -13.19491947 -15.80063644 -0.55953769 -119.48782812 -0.55953769 -119.48782812 -13.19491947 -15.80063644 
602961381 -13.24737370 -17.30831744 -0.55278206 -119.94211320 -0.55278206 -119.94211320 -13.24737370 -17.30831744 
605528014 -13.28420216 -18.11111724 -0.54045901 -120.44232314 -0.54045901 -120.44232314 -13.28420216 -18.11111724 
608094647 -13.35099531 -19.98218874 -0.53314420 -120.87420540 -0.53314420 -120.87420540 -13.35099531 -19.98218874 
610661280 -13.37429176 -21.26552876 -0.53001264 -121.24586812 -0.53001264 -121.24586812 -13.37429176 -21.26552876 
613227913 -13.42757302 -22.63651266 -0.50850570 -121.55684873 -0.50850570 -121.55684873 -13.42757302 -22.63651266 
615794546 -13.53354122 -24.03576679 -0.49437223 -121.85381552 -0.49437223 -121.85381552 -13.53354122 -24.03576679 
618361179 -13.59673573 -25.86513731 -0.48147576 -122.12398216 -0.48147576 -122.12398216 -13.59673573 -25.86513731 
620927812 -13.66986387 -26.61786828 -0.48075466 -122.40380585 -0.48075466 -122.40380585 -13.66986387 -26.61786828 
623494445 -13.69637332 -28.45278487 -0.48010474 -122.65878658 -0.48010474 -122.65878658 -13.69637332 -28.45278487 
626061078 -13.88646466 -29.85983724 -0.48187053 -122.83268107 -0.48187053 -122.83268107 -13.88646466 -29.85983724 
628627711 -13.92766872 -31.50109096 -0.47989949 -123.06871370 -0.47989949 -123.06871370 -13.92766872 -31.50109096 
631194344 -14.05893416 -33.09924281 -0.48685311 -123.28711600 -0.48685311 -123.28711600 -14.05893416 -33.09924281 
633760977 -14.11855043 -34.40968545 -0.48509836 -123.41554394 -0.48509836 -123.41554394 -14.11855043 -34.40968545 
636327610 -14.19528460 -35.68838242 -0.50677568 -123.64537235 -0.50677568 -123.64537235 -14.19528460 -35.68838242 
638894243 -14.37461461 -37.95263570 -0.52795549 -123.86973521 -0.52795549 -123.86973521 -14.37461461 -37.95263570 
641460876 -14.54574728 -39.33678114 -0.55432251 -124.03925553 -0.55432251 -124.03925553 -14.54574728 -39.33678114 
644027509 -14.58705591 -40.92391296 -0.58448113 -124.38938905 -0.58448113 -124.38938905 -14.58705591 -40.92391296 
646594142 -14.75771424 -42.36899323 -0.61387863 -124.62839898 -0.61387863 -124.62839898 -14.75771424 -42.36899323 
649160775 -14.90535120 -43.82356318 -0.65007129 -124.92320191 -0.65007129 -124.92320191 -14.90535120 -43.82356318 
