!	created	by	azisi	at	Mon	Jul	20	18:52:19	EEST	2020
!	generated	using	vna/J	Version	3.4.3
#	Hz	S	DB	R	50
2000000000 -8.35527268 -166.5179488 -8.36898304 171.97704785 0 0 0 0
2000493582 -8.41680361 -166.01658094 -8.31181083 171.98029576 0 0 0 0
2000987164 -8.3747871 -166.27904865 -8.33907433 171.2477803 0 0 0 0
2001480746 -8.48733527 -165.61598909 -8.24213532 171.79516827 0 0 0 0
2001974328 -8.26060013 -166.16575782 -8.25584606 171.73749771 0 0 0 0
2002467910 -8.26125892 -165.14840163 -8.28850807 171.50538348 0 0 0 0
2002961492 -8.36770498 -165.61628296 -8.26972865 171.56358416 0 0 0 0
2003455074 -8.26741232 -167.06782432 -8.32344574 171.33733691 0 0 0 0
2003948656 -8.35668605 -166.10537235 -8.30211097 171.2044176 0 0 0 0
2004442238 -8.46293943 -167.18253681 -8.2811887 171.11457929 0 0 0 0
2004935820 -8.38587236 -166.11032244 -8.29784294 170.66354588 0 0 0 0
2005429402 -8.36634814 -166.54970622 -8.23788377 171.168305 0 0 0 0
2005922984 -8.41621146 -166.56512432 -8.26460657 171.15592604 0 0 0 0
2006416566 -8.44685742 -167.18959212 -8.20798539 170.63373513 0 0 0 0
2006910148 -8.41382805 -167.01458227 -8.27322309 170.46070449 0 0 0 0
2007403730 -8.53763081 -166.01587972 -8.26703515 170.39804727 0 0 0 0
2007897312 -8.5108086 -165.8117181 -8.29071673 169.93959672 0 0 0 0
2008390894 -8.53805893 -166.84228821 -8.30019262 170.16151583 0 0 0 0
2008884476 -8.49139941 -166.6278713 -8.27534284 169.96229346 0 0 0 0
2009378058 -8.63599452 -166.33732724 -8.30310881 169.8644146 0 0 0 0
2009871640 -8.49932689 -166.2135947 -8.3033811 169.65693536 0 0 0 0
2010365222 -8.41598945 -166.32339481 -8.33648949 169.70001414 0 0 0 0
2010858804 -8.51054766 -166.61360273 -8.30598987 169.67688316 0 0 0 0
2011352386 -8.5453434 -168.34925701 -8.3336696 169.59892727 0 0 0 0
2011845968 -8.41743909 -167.4855506 -8.31543442 169.38258745 0 0 0 0
2012339550 -8.36089631 -167.57756767 -8.31495266 169.70504302 0 0 0 0
2012833132 -8.39730135 -166.69987216 -8.30931088 169.54623292 0 0 0 0
2013326714 -8.25434985 -167.78102702 -8.326355 169.28492015 0 0 0 0
2013820296 -8.41394968 -167.75452951 -8.26009548 168.69113859 0 0 0 0
2014313878 -8.282744 -167.3640675 -8.25973728 168.99282694 0 0 0 0
2014807460 -8.37713987 -167.65926966 -8.20157771 169.14970934 0 0 0 0
2015301042 -8.42515103 -166.36157819 -8.21951744 169.10164685 0 0 0 0
2015794624 -8.41947971 -166.26681492 -8.22783052 168.7624664 0 0 0 0
2016288206 -8.3427251 -167.2478091 -8.16186365 168.84702741 0 0 0 0
2016781788 -8.42425307 -167.0725797 -8.14324153 169.08106029 0 0 0 0
2017275370 -8.33610731 -167.15493666 -8.21601931 168.76271452 0 0 0 0
2017768952 -8.44258143 -166.99237491 -8.20073167 168.98823235 0 0 0 0
2018262534 -8.29497553 -166.36416289 -8.12645543 169.19006394 0 0 0 0
2018756116 -8.41231545 -166.66549535 -8.17399455 168.8789572 0 0 0 0
2019249698 -8.46354092 -168.00096872 -8.15012634 168.97595187 0 0 0 0
2019743280 -8.47119009 -168.45093272 -8.15688538 168.73698512 0 0 0 0
2020236862 -8.54647687 -166.99975855 -8.22552281 168.81430344 0 0 0 0
2020730444 -8.57211646 -168.74148185 -8.23631307 168.66348209 0 0 0 0
2021224026 -8.61269306 -168.87805879 -8.20791721 168.83013059 0 0 0 0
2021717608 -8.43058098 -168.99507169 -8.18897394 168.49484624 0 0 0 0
2022211190 -8.42990772 -168.97690803 -8.11377522 168.24102436 0 0 0 0
2022704772 -8.48401328 -168.14046473 -8.1996153 168.34836144 0 0 0 0
2023198354 -8.35466533 -167.68625287 -8.21433054 168.3516692 0 0 0 0
2023691936 -8.43114385 -168.52147774 -8.22929741 167.78901995 0 0 0 0
2024185518 -8.32737132 -169.29050489 -8.20095981 167.98635961 0 0 0 0
2024679100 -8.50977575 -168.75873043 -8.20509195 167.35635061 0 0 0 0
2025172682 -8.39993867 -168.82829196 -8.1925324 167.33532105 0 0 0 0
2025666264 -8.34991661 -168.29245902 -8.2202573 167.13450298 0 0 0 0
2026159846 -8.413338 -168.2756113 -8.13043715 167.05634834 0 0 0 0
2026653428 -8.38182979 -168.89112255 -8.13548215 166.84248546 0 0 0 0
2027147010 -8.37437649 -169.19644949 -8.20255146 166.93496112 0 0 0 0
2027640592 -8.4465979 -169.02655687 -8.15091241 166.6970256 0 0 0 0
2028134174 -8.39656449 -169.74978663 -8.13546734 166.65478994 0 0 0 0
2028627756 -8.37010646 -169.23702008 -8.123093 166.19174293 0 0 0 0
2029121338 -8.37433577 -168.61154927 -8.14975693 166.49050592 0 0 0 0
2029614920 -8.46319497 -168.08499861 -8.10791771 166.47536621 0 0 0 0
2030108502 -8.37581208 -169.25473023 -8.12441114 166.23297094 0 0 0 0
2030602084 -8.34283367 -169.5323867 -8.15552737 166.63240459 0 0 0 0
2031095666 -8.37828255 -168.68053309 -8.13712427 166.31439984 0 0 0 0
2031589248 -8.46724921 -168.71207496 -8.11501437 165.87364216 0 0 0 0
2032082830 -8.28322412 -169.319244 -8.13874346 165.92149549 0 0 0 0
2032576412 -8.40456847 -168.6124655 -8.08403695 165.73413807 0 0 0 0
2033069994 -8.36054159 -167.77111858 -8.09792246 165.64282683 0 0 0 0
2033563576 -8.39528535 -169.55501607 -8.16564923 165.0660891 0 0 0 0
2034057158 -8.4021263 -169.59272627 -8.16623997 165.65237572 0 0 0 0
2034550740 -8.48776163 -169.48197257 -8.11950883 165.49890679 0 0 0 0
2035044322 -8.54779408 -168.9478416 -8.11671541 165.72094456 0 0 0 0
2035537904 -8.43648518 -169.50718511 -8.13444839 165.33021889 0 0 0 0
2036031486 -8.53491303 -169.90595467 -8.16300273 165.45479248 0 0 0 0
2036525068 -8.52612693 -169.02400437 -8.12324272 164.67494492 0 0 0 0
2037018650 -8.62139416 -169.31118906 -8.13310207 165.14395806 0 0 0 0
2037512232 -8.51228178 -170.71301354 -8.11092845 165.33142153 0 0 0 0
2038005814 -8.48239701 -170.0621221 -8.11963744 164.85342545 0 0 0 0
2038499396 -8.54528348 -170.85355121 -8.1362515 164.70790157 0 0 0 0
2038992978 -8.63869903 -170.40055413 -8.12622413 165.21819056 0 0 0 0
2039486560 -8.55593149 -170.13415745 -8.13194787 165.3102282 0 0 0 0
2039980142 -8.43513652 -169.98652356 -8.13365389 164.66403009 0 0 0 0
2040473724 -8.4766043 -170.11425193 -8.07472715 164.98408587 0 0 0 0
2040967306 -8.33676726 -170.72089899 -8.10024342 165.05980938 0 0 0 0
2041460888 -8.53663438 -171.26574042 -7.9977842 164.95409658 0 0 0 0
2041954470 -8.39410483 -170.80848821 -8.09180888 164.64654535 0 0 0 0
2042448052 -8.30173941 -171.08805584 -8.03359161 164.21990132 0 0 0 0
2042941634 -8.41191101 -171.3642438 -8.04020676 164.24148865 0 0 0 0
2043435216 -8.55796635 -170.97759502 -8.03521254 164.06463482 0 0 0 0
2043928798 -8.55964459 -170.5484212 -8.00523139 164.03020982 0 0 0 0
2044422380 -8.63196846 -170.44672518 -8.02628418 163.85558253 0 0 0 0
2044915962 -8.58057653 -171.3534257 -7.98547181 163.9698711 0 0 0 0
2045409544 -8.60636078 -170.70040685 -7.95800244 163.3870379 0 0 0 0
2045903126 -8.42511299 -170.62954983 -8.01439267 163.36662298 0 0 0 0
2046396708 -8.62571354 -169.69355504 -8.02527175 163.38237392 0 0 0 0
2046890290 -8.56451028 -169.42726012 -8.05327373 163.33483637 0 0 0 0
2047383872 -8.44863875 -170.10255208 -7.99096466 163.4747896 0 0 0 0
2047877454 -8.49392751 -169.72780508 -7.99869702 162.88297948 0 0 0 0
2048371036 -8.40909928 -169.93963892 -7.98847402 163.48416204 0 0 0 0
2048864618 -8.33964337 -170.27364788 -8.02010041 163.21198637 0 0 0 0
2049358200 -8.55889913 -170.06654697 -8.08052079 163.07746975 0 0 0 0
2049851782 -8.6970087 -170.81581862 -8.06243866 162.57027152 0 0 0 0
2050345364 -8.6403226 -170.01325236 -8.09721741 162.85661089 0 0 0 0
2050838946 -8.58982207 -170.10742937 -8.08405447 162.6802808 0 0 0 0
2051332528 -8.68823434 -170.56850747 -8.03870442 162.71661186 0 0 0 0
2051826110 -8.65850992 -171.34952298 -8.00396794 162.17948259 0 0 0 0
2052319692 -8.5957218 -170.95718871 -8.03874992 162.45764423 0 0 0 0
2052813274 -8.43336395 -171.37635588 -8.02495976 162.15134931 0 0 0 0
2053306856 -8.62688768 -171.30000585 -7.99487313 162.09085842 0 0 0 0
2053800438 -8.44077646 -171.00863001 -8.03555121 161.8749017 0 0 0 0
2054294020 -8.45924472 -171.26651377 -7.99996765 162.24213326 0 0 0 0
2054787602 -8.41107253 -171.56431858 -8.01879393 162.52204488 0 0 0 0
2055281184 -8.4358435 -171.98748688 -8.01639399 161.94933953 0 0 0 0
2055774766 -8.38087179 -172.04207684 -8.03955217 161.81890956 0 0 0 0
2056268348 -8.51332479 -171.90352922 -8.03677108 161.47201327 0 0 0 0
2056761930 -8.50393713 -172.23474149 -8.02269588 161.42087464 0 0 0 0
2057255512 -8.65975366 -172.30931281 -8.05070653 161.26970557 0 0 0 0
2057749094 -8.53135843 -171.86234693 -8.05682857 161.76271403 0 0 0 0
2058242676 -8.5641971 -171.79504869 -8.08281224 161.31303761 0 0 0 0
2058736258 -8.55097383 -171.14592637 -8.09063565 160.9070897 0 0 0 0
2059229840 -8.44348165 -172.14139651 -8.04479134 161.13801923 0 0 0 0
2059723422 -8.779566 -172.33530317 -8.07903955 161.1768904 0 0 0 0
2060217004 -8.55553977 -171.83110392 -8.00388193 160.87363129 0 0 0 0
2060710586 -8.4986441 -172.84809485 -8.08018286 160.3049426 0 0 0 0
2061204168 -8.62371081 -172.90399814 -8.08577349 161.08101234 0 0 0 0
2061697750 -8.63490555 -172.20587417 -8.02295062 160.84447074 0 0 0 0
2062191332 -8.54470888 -172.90689482 -8.03529686 160.75316214 0 0 0 0
2062684914 -8.60820306 -172.14758798 -8.09956424 160.7059143 0 0 0 0
2063178496 -8.45317148 -171.69583058 -8.07439616 160.70722568 0 0 0 0
2063672078 -8.53679302 -172.1925501 -8.10331511 160.29883479 0 0 0 0
2064165660 -8.73305839 -171.42150469 -8.09138045 160.65990774 0 0 0 0
2064659242 -8.55139386 -171.62148613 -8.06071069 160.73992276 0 0 0 0
2065152824 -8.61130681 -172.27362725 -8.00006945 160.36502236 0 0 0 0
2065646406 -8.81136563 -172.34060422 -8.04742555 160.20536388 0 0 0 0
2066139988 -8.70253913 -172.10970792 -8.02711765 160.10786542 0 0 0 0
2066633570 -8.80729545 -172.52943843 -8.06202186 160.43251935 0 0 0 0
2067127152 -8.70583893 -172.71150526 -8.0069537 159.90558041 0 0 0 0
2067620734 -8.69898333 -172.13172807 -7.98586861 159.32518168 0 0 0 0
2068114316 -8.68405457 -172.06270527 -8.02715935 159.06407798 0 0 0 0
2068607898 -8.59640603 -172.26740008 -8.00602186 158.8301303 0 0 0 0
2069101480 -8.62619297 -172.90937135 -7.94488893 159.06731139 0 0 0 0
2069595062 -8.47784668 -172.71415706 -7.893101 158.58899533 0 0 0 0
2070088644 -8.56008368 -173.53335435 -7.94158572 158.93078258 0 0 0 0
2070582226 -8.62156722 -173.33869199 -7.93631181 158.96193323 0 0 0 0
2071075808 -8.67839656 -172.4961657 -7.90419041 158.92479071 0 0 0 0
2071569390 -8.6782844 -173.64381484 -7.90598036 159.30077822 0 0 0 0
2072062972 -8.58682396 -173.00166529 -7.87916496 158.83015015 0 0 0 0
2072556554 -8.70290976 -173.1858259 -7.91163518 159.12195976 0 0 0 0
2073050136 -8.74546819 -173.6134447 -7.94441214 158.77164828 0 0 0 0
2073543718 -8.71476452 -172.80499013 -7.93080434 158.90835868 0 0 0 0
2074037300 -8.6859198 -173.54801789 -7.98939954 158.75798195 0 0 0 0
2074530882 -8.65045092 -173.84067631 -7.9337889 158.25131937 0 0 0 0
2075024464 -8.73158044 -173.75769581 -8.0275012 158.33942465 0 0 0 0
2075518046 -8.64148558 -173.67940388 -7.99862406 158.13771777 0 0 0 0
2076011628 -8.7248975 -173.62637069 -8.03302846 157.83637091 0 0 0 0
2076505210 -8.77156791 -174.19816428 -7.95490681 157.8567092 0 0 0 0
2076998792 -8.71577596 -173.14500827 -7.92103522 157.66055813 0 0 0 0
2077492374 -8.72793589 -173.46646553 -8.00160458 157.59067075 0 0 0 0
2077985956 -8.60639425 -172.79733212 -7.88924716 157.25780913 0 0 0 0
2078479538 -8.82499248 -172.87767232 -7.92946144 157.01448776 0 0 0 0
2078973120 -8.80768528 -173.09630794 -7.95700831 156.73691847 0 0 0 0
2079466702 -8.6690243 -172.28205684 -7.9006033 156.94999449 0 0 0 0
2079960284 -8.83713599 -172.44773527 -7.90785661 157.1032073 0 0 0 0
2080453866 -8.68718406 -173.67017322 -7.91099902 156.77834602 0 0 0 0
2080947448 -8.56097303 -173.12565578 -7.94588802 156.78135596 0 0 0 0
2081441030 -8.67637769 -173.16247138 -8.00863786 156.48927608 0 0 0 0
2081934612 -8.66342499 -173.06170219 -7.92568392 156.34400058 0 0 0 0
2082428194 -8.73841308 -172.60037754 -8.04630458 156.13310629 0 0 0 0
2082921776 -8.70442029 -173.95551553 -7.98123721 155.88317483 0 0 0 0
2083415358 -8.88011146 -172.96609959 -8.01007774 156.20003542 0 0 0 0
2083908940 -8.97110057 -173.42897603 -8.02053329 155.75809882 0 0 0 0
2084402522 -8.77597417 -174.01552062 -8.01427202 155.56082589 0 0 0 0
2084896104 -9.04176431 -173.24587699 -8.00226553 155.36426129 0 0 0 0
2085389686 -8.7438729 -173.03422126 -8.02464625 155.59953252 0 0 0 0
2085883268 -8.94985525 -173.46978823 -8.05229591 155.40045812 0 0 0 0
2086376850 -8.82097745 -173.26966898 -8.00733251 155.22439548 0 0 0 0
2086870432 -8.64688369 -173.76379426 -8.00552875 155.38820449 0 0 0 0
2087364014 -8.83978561 -174.27242759 -8.01266169 154.99317087 0 0 0 0
2087857596 -8.74759205 -174.29326062 -8.00294103 155.11604944 0 0 0 0
2088351178 -8.73952835 -174.67819742 -8.02484711 154.47599908 0 0 0 0
2088844760 -8.68265334 -174.12371073 -7.94673278 155.11406296 0 0 0 0
2089338342 -8.82687197 -174.4551884 -7.9453633 154.70937216 0 0 0 0
2089831924 -8.8298957 -174.35633701 -7.92545992 154.57024037 0 0 0 0
2090325506 -8.83010363 -174.9434748 -7.88366986 154.38680914 0 0 0 0
2090819088 -8.89457486 -175.04280358 -7.91112743 154.78582559 0 0 0 0
2091312670 -8.72118822 -174.11530229 -7.88979136 154.37152736 0 0 0 0
2091806252 -8.74845063 -175.19019496 -7.93449665 154.53354229 0 0 0 0
2092299834 -8.89255977 -174.59568603 -7.92471076 154.28855074 0 0 0 0
2092793416 -8.84568871 -174.55831802 -7.9262653 153.94743786 0 0 0 0
2093286998 -8.92316345 -175.38669321 -7.92262328 154.04735539 0 0 0 0
2093780580 -8.91036232 -173.93334143 -7.97970759 154.28338624 0 0 0 0
2094274162 -9.06298708 -174.96678683 -7.89487408 153.46543176 0 0 0 0
2094767744 -8.91512116 -174.05097131 -7.89884486 153.90117283 0 0 0 0
2095261326 -8.76709057 -174.72955817 -7.97495599 153.79917129 0 0 0 0
2095754908 -8.79895655 -174.20715729 -7.96095864 153.38543169 0 0 0 0
2096248490 -8.83549142 -173.72756768 -7.9758726 153.61090922 0 0 0 0
2096742072 -8.79188533 -173.81783204 -7.99513548 153.30720856 0 0 0 0
2097235654 -8.70015977 -175.56896158 -7.96545109 153.17043068 0 0 0 0
2097729236 -8.88945617 -173.94041996 -8.0019711 153.5261713 0 0 0 0
2098222818 -8.75866216 -174.68365666 -8.00539893 153.02064804 0 0 0 0
2098716400 -8.99792652 -174.23696825 -7.9759277 153.48768013 0 0 0 0
2099209982 -8.86264627 -174.74700163 -7.9669701 153.2294711 0 0 0 0
2099703564 -8.93332387 -174.07306808 -8.01719465 152.75262024 0 0 0 0
2100197146 -8.93232903 -174.31560041 -8.02653981 152.8781816 0 0 0 0
2100690728 -8.9160494 -174.59847934 -8.02864055 152.68995407 0 0 0 0
2101184310 -8.97258184 -175.52657131 -7.9939942 152.42471259 0 0 0 0
2101677892 -8.86921323 -174.01066101 -7.97264026 152.18267946 0 0 0 0
2102171474 -8.93042459 -175.31196546 -7.98757365 152.14930507 0 0 0 0
2102665056 -9.02735714 -175.17009689 -7.95157702 152.56004762 0 0 0 0
2103158638 -8.82544182 -173.66093119 -8.00016192 151.86181103 0 0 0 0
2103652220 -8.9558834 -174.66142849 -8.00760432 151.67815129 0 0 0 0
2104145802 -8.82018009 -174.09295978 -8.04603468 152.22549008 0 0 0 0
2104639384 -8.91677045 -174.07426206 -7.97731666 151.63226374 0 0 0 0
2105132966 -8.81733165 -174.62239554 -8.02740738 151.63165514 0 0 0 0
2105626548 -9.00096147 -174.05220497 -7.95002468 151.08349257 0 0 0 0
2106120130 -8.94091876 -174.01071551 -8.0647366 151.15855669 0 0 0 0
2106613712 -8.8084131 -174.87442493 -7.91176157 151.48179193 0 0 0 0
2107107294 -8.952159 -174.57743452 -7.95655503 151.06258504 0 0 0 0
2107600876 -8.86207933 -174.41219148 -7.96612996 150.68213558 0 0 0 0
2108094458 -9.02142264 -174.43144302 -7.96398241 150.74926562 0 0 0 0
2108588040 -9.07472075 -174.4183731 -8.02043963 151.24695214 0 0 0 0
2109081622 -9.02023428 -175.180345 -7.9369016 150.8562061 0 0 0 0
2109575204 -9.04310051 -175.14714199 -8.01577453 150.67625467 0 0 0 0
2110068786 -9.06429416 -174.12235352 -7.94323207 150.46260773 0 0 0 0
2110562368 -9.01848197 -174.47505826 -7.9643271 150.40567433 0 0 0 0
2111055950 -9.00310602 -174.77320238 -7.93262684 149.90710642 0 0 0 0
2111549532 -9.07130423 -175.12530971 -7.88665038 150.06213264 0 0 0 0
2112043114 -9.03578524 -174.45968655 -7.90565566 149.72683335 0 0 0 0
2112536696 -9.02393511 -174.58613765 -7.96360719 149.53851249 0 0 0 0
2113030278 -9.01699152 -175.25020766 -7.94814043 149.80458836 0 0 0 0
2113523860 -9.07622785 -175.30055362 -7.91613249 149.08435293 0 0 0 0
2114017442 -9.07314776 -174.43033255 -7.91304743 149.20010931 0 0 0 0
2114511024 -9.10577785 -174.34768644 -7.89926938 149.58785096 0 0 0 0
2115004606 -9.09057367 -174.90960931 -7.92578619 149.60161147 0 0 0 0
2115498188 -8.8072232 -175.65924988 -7.98168278 149.51535703 0 0 0 0
2115991770 -8.86060602 -175.71632414 -7.9862758 149.40548941 0 0 0 0
2116485352 -9.07458773 -176.18101742 -8.02219389 149.35717868 0 0 0 0
2116978934 -8.99582855 -174.81282439 -8.02112336 149.27914674 0 0 0 0
2117472516 -9.0772332 -175.69064036 -8.04595628 149.31694702 0 0 0 0
2117966098 -9.0598789 -176.27515321 -8.03622972 149.25471964 0 0 0 0
2118459680 -9.08595402 -175.71349388 -8.03964909 149.14633033 0 0 0 0
2118953262 -9.19078989 -175.51074278 -7.98212054 149.00921416 0 0 0 0
2119446844 -8.95271381 -174.91724105 -7.96030728 148.82219043 0 0 0 0
2119940426 -9.0841634 -175.03460993 -7.96279702 148.49459444 0 0 0 0
2120434008 -9.00673034 -174.71533489 -7.94338688 148.51823698 0 0 0 0
2120927590 -9.10148314 -174.78835344 -7.96678781 148.7845947 0 0 0 0
2121421172 -8.95058737 -174.25306214 -7.86343459 148.46774216 0 0 0 0
2121914754 -9.04260129 -175.10657004 -7.91731616 148.14284406 0 0 0 0
2122408336 -9.16690752 -175.32943567 -7.90264979 148.11691393 0 0 0 0
2122901918 -9.0077864 -174.9170538 -7.88837202 148.22605199 0 0 0 0
2123395500 -9.04565788 -175.46134865 -7.92098777 148.02394371 0 0 0 0
2123889082 -9.26651386 -176.05787625 -7.91664685 147.55032251 0 0 0 0
2124382664 -8.99951007 -175.43154331 -7.85376557 147.65167399 0 0 0 0
2124876246 -9.14016214 -175.46108461 -7.92967255 147.67161069 0 0 0 0
2125369828 -9.02261347 -175.98662567 -7.90480171 146.87196066 0 0 0 0
2125863410 -9.06221453 -176.53687494 -7.85761293 147.37149857 0 0 0 0
2126356992 -9.09752851 -176.25770701 -7.83120824 147.20117679 0 0 0 0
2126850574 -9.05405832 -177.16593603 -7.86576817 147.10420467 0 0 0 0
2127344156 -9.10555296 -177.63923957 -7.88261324 147.25788531 0 0 0 0
2127837738 -9.00656761 -176.50753339 -7.87489649 146.96357132 0 0 0 0
2128331320 -9.00367095 -175.6394954 -7.96316059 146.96479707 0 0 0 0
2128824902 -9.05879303 -176.72527277 -7.86289348 146.53337615 0 0 0 0
2129318484 -9.04438797 -176.73663588 -7.93765084 146.92086161 0 0 0 0
2129812066 -9.00572245 -176.48379931 -7.85442395 146.42373131 0 0 0 0
2130305648 -9.02736653 -176.88146264 -7.96099263 146.72734319 0 0 0 0
2130799230 -8.95643145 -176.09172205 -7.96519096 146.22358771 0 0 0 0
2131292812 -9.05394232 -176.25034069 -7.84647141 146.48173411 0 0 0 0
2131786394 -8.95802239 -175.75822834 -7.93633388 146.01365817 0 0 0 0
2132279976 -8.99225769 -175.49584562 -7.9308536 146.11883023 0 0 0 0
2132773558 -8.87296468 -175.26876893 -7.9312866 145.58358403 0 0 0 0
2133267140 -8.85862056 -175.01264622 -7.92752551 146.15672582 0 0 0 0
2133760722 -9.09730722 -175.63810813 -7.97610074 145.92856367 0 0 0 0
2134254304 -9.03665554 -176.17110583 -7.87177036 145.77666356 0 0 0 0
2134747886 -9.0492321 -175.44316884 -7.91370934 145.79702052 0 0 0 0
2135241468 -9.07178728 -176.05392326 -7.86917526 145.17650933 0 0 0 0
2135735050 -8.9918699 -175.62236384 -7.92203977 145.19897056 0 0 0 0
2136228632 -9.14697731 -176.36984498 -7.79305121 145.60939656 0 0 0 0
2136722214 -9.00535935 -176.21129359 -7.78136402 144.81116674 0 0 0 0
2137215796 -9.03287297 -176.02961394 -7.81561884 145.14787259 0 0 0 0
2137709378 -9.02955512 -176.13596993 -7.6812948 145.01464277 0 0 0 0
2138202960 -9.04735225 -176.34762357 -7.7387672 144.79755587 0 0 0 0
