!	created	by	azisi	at	Mon	Jul	20	18:51:41	EEST	2020
!	generated	using	vna/J	Version	3.4.3
#	Hz	S	DB	R	50
2000000000 -0.35510972 -134.15317247 -48.45136185 42.87399253 0 0 0 0
2000493582 -0.281111 -134.37479041 -50.8663962 48.72004071 0 0 0 0
2000987164 -0.31997736 -134.56087575 -55.49480452 21.73938277 0 0 0 0
2001480746 -0.29491766 -134.28065435 -61.16040717 137.01709141 0 0 0 0
2001974328 -0.32583636 -134.55034234 -49.25168865 17.51654538 0 0 0 0
2002467910 -0.25662965 -134.30698883 -51.80978385 -25.911605 0 0 0 0
2002961492 -0.29902943 -134.38295234 -54.2327358 -2.47046763 0 0 0 0
2003455074 -0.31957653 -134.94810036 -60.00717703 72.64876569 0 0 0 0
2003948656 -0.32239074 -134.77994777 -65.75432906 -113.0447921 0 0 0 0
2004442238 -0.26099006 -134.64354447 -53.33797781 -45.92075426 0 0 0 0
2004935820 -0.34423148 -134.8319415 -52.22253673 56.19853049 0 0 0 0
2005429402 -0.36462488 -134.73721873 -48.57829207 62.84312457 0 0 0 0
2005922984 -0.37665958 -134.84813576 -56.25838694 109.82990931 0 0 0 0
2006416566 -0.37511711 -134.95030343 -51.60987608 51.3628507 0 0 0 0
2006910148 -0.35507196 -134.78693706 -52.58289018 54.99414151 0 0 0 0
2007403730 -0.43945963 -134.68118569 -49.97357052 71.51176837 0 0 0 0
2007897312 -0.33838979 -134.88677403 -56.9344022 13.19571787 0 0 0 0
2008390894 -0.31152047 -134.56837194 -52.35464743 -20.07184228 0 0 0 0
2008884476 -0.35310425 -134.23608375 -50.02752339 21.30541043 0 0 0 0
2009378058 -0.3610272 -134.60090424 -47.96771402 28.32259114 0 0 0 0
2009871640 -0.32170842 -134.47325573 -50.92452291 33.24849712 0 0 0 0
2010365222 -0.32686259 -134.81341522 -44.24370532 27.8785778 0 0 0 0
2010858804 -0.38277603 -134.91107314 -46.11154081 25.6145087 0 0 0 0
2011352386 -0.40236581 -135.11677842 -49.38087088 4.7010213 0 0 0 0
2011845968 -0.38308418 -135.25114345 -50.61896364 15.53673181 0 0 0 0
2012339550 -0.36985648 -135.3496044 -48.7178078 6.22272713 0 0 0 0
2012833132 -0.34656306 -135.67273369 -45.18064996 54.14584784 0 0 0 0
2013326714 -0.35250733 -135.31872484 -47.12239431 10.73088768 0 0 0 0
2013820296 -0.29898447 -135.56862634 -44.04065717 14.5636249 0 0 0 0
2014313878 -0.24351645 -135.46001266 -56.64970193 11.97844319 0 0 0 0
2014807460 -0.29119573 -135.91355947 -56.56685365 -4.3159518 0 0 0 0
2015301042 -0.26573154 -135.8541666 -57.40387589 95.3522518 0 0 0 0
2015794624 -0.24031755 -135.88484511 -55.65896794 100.34504336 0 0 0 0
2016288206 -0.21280773 -135.9856022 -53.46749338 21.85951165 0 0 0 0
2016781788 -0.28811913 -135.69458193 -56.36235624 55.98053017 0 0 0 0
2017275370 -0.29360402 -135.88332083 -63.62908375 -14.54810007 0 0 0 0
2017768952 -0.28278655 -135.72734328 -51.69695736 -173.11918141 0 0 0 0
2018262534 -0.34213219 -136.10320048 -48.83238459 -144.1718236 0 0 0 0
2018756116 -0.34247681 -135.91330783 -45.4164424 -155.66054748 0 0 0 0
2019249698 -0.33377473 -135.8336134 -57.11924096 167.40394743 0 0 0 0
2019743280 -0.39097055 -136.07204191 -49.8039761 -110.60386586 0 0 0 0
2020236862 -0.35370365 -135.85774693 -54.02536861 -20.46292727 0 0 0 0
2020730444 -0.42142838 -136.60768563 -51.35954876 -69.52178868 0 0 0 0
2021224026 -0.3821466 -136.47560087 -48.13956659 -15.07791397 0 0 0 0
2021717608 -0.40869972 -135.816219 -49.56186028 -47.31582046 0 0 0 0
2022211190 -0.37102484 -136.79358662 -45.89382635 -54.83803598 0 0 0 0
2022704772 -0.37058478 -136.05018362 -47.54951035 -10.9482833 0 0 0 0
2023198354 -0.27915351 -136.63902668 -53.0765635 -58.05119099 0 0 0 0
2023691936 -0.29231136 -136.23628645 -46.58285731 -30.43445353 0 0 0 0
2024185518 -0.26454514 -136.22842664 -43.99756493 -31.84810438 0 0 0 0
2024679100 -0.28894564 -136.84773827 -50.33467088 -12.24096041 0 0 0 0
2025172682 -0.25027904 -136.49231247 -48.24176753 -36.76906798 0 0 0 0
2025666264 -0.31956662 -136.48520425 -48.08332282 -7.65579993 0 0 0 0
2026159846 -0.30778504 -136.87198864 -48.84500156 -24.5372521 0 0 0 0
2026653428 -0.31644898 -136.78694494 -51.53618492 57.12220161 0 0 0 0
2027147010 -0.30640043 -137.07571394 -49.56898195 22.63441311 0 0 0 0
2027640592 -0.27502157 -136.65239767 -55.13163533 55.86975113 0 0 0 0
2028134174 -0.34175347 -137.0999549 -58.05202605 86.48742059 0 0 0 0
2028627756 -0.35727724 -136.61874399 -48.54248141 44.44501538 0 0 0 0
2029121338 -0.35452623 -137.24602701 -53.25890809 -65.13714715 0 0 0 0
2029614920 -0.3053775 -137.2605169 -47.60020527 35.19298575 0 0 0 0
2030108502 -0.33178743 -137.18464121 -60.00626162 50.76894539 0 0 0 0
2030602084 -0.31053487 -137.1643795 -50.24897628 -40.33870614 0 0 0 0
2031095666 -0.27861883 -137.35441232 -54.22659844 13.41393053 0 0 0 0
2031589248 -0.27836345 -137.19174105 -49.5184705 44.95541559 0 0 0 0
2032082830 -0.29558571 -137.11965055 -62.79517738 46.22994589 0 0 0 0
2032576412 -0.28167785 -137.51063733 -53.42460749 26.18089817 0 0 0 0
2033069994 -0.2628569 -137.05602625 -56.10921113 64.92248188 0 0 0 0
2033563576 -0.22967698 -136.9533792 -56.15052481 -7.44862797 0 0 0 0
2034057158 -0.26419947 -137.49995763 -46.33162887 60.70273601 0 0 0 0
2034550740 -0.242711 -137.13391876 -61.30476029 -34.48089117 0 0 0 0
2035044322 -0.28568177 -137.14774364 -50.10944222 10.16113085 0 0 0 0
2035537904 -0.31296242 -137.24492433 -45.15765356 28.13310303 0 0 0 0
2036031486 -0.36337659 -136.86599878 -51.29944219 21.95939681 0 0 0 0
2036525068 -0.36122173 -137.61983675 -46.64319047 26.50877725 0 0 0 0
2037018650 -0.38518141 -136.99317003 -42.64537162 0.16795377 0 0 0 0
2037512232 -0.3438425 -137.48669605 -54.42764838 91.09428325 0 0 0 0
2038005814 -0.3374991 -137.37346601 -57.16690016 -36.78757699 0 0 0 0
2038499396 -0.35799417 -137.40680857 -47.19960669 -32.87689237 0 0 0 0
2038992978 -0.36307765 -137.61359774 -52.57769611 -49.740578 0 0 0 0
2039486560 -0.33314826 -137.68233974 -46.89271784 35.63651463 0 0 0 0
2039980142 -0.33307914 -137.57923259 -51.18139202 -26.94081245 0 0 0 0
2040473724 -0.30031579 -137.89581805 -55.06787498 -77.79951494 0 0 0 0
2040967306 -0.32680949 -138.21982156 -52.59642486 -64.1988789 0 0 0 0
2041460888 -0.2803767 -138.33224305 -68.51869426 152.99593113 0 0 0 0
2041954470 -0.26125048 -138.10427301 -48.31837205 -37.93930022 0 0 0 0
2042448052 -0.29256212 -138.49237697 -57.81407166 33.0684521 0 0 0 0
2042941634 -0.28140007 -138.1832237 -50.90376846 -74.13015424 0 0 0 0
2043435216 -0.28350822 -138.13428188 -55.20828106 -163.2658573 0 0 0 0
2043928798 -0.23339239 -138.45879986 -55.5207887 -80.57782306 0 0 0 0
2044422380 -0.2948068 -137.77978805 -56.37895285 23.84851166 0 0 0 0
2044915962 -0.30704358 -138.22248305 -52.13900949 98.26004988 0 0 0 0
2045409544 -0.28187367 -137.81946431 -53.57916588 40.60991125 0 0 0 0
2045903126 -0.28013831 -138.48801527 -56.34414018 98.93250005 0 0 0 0
2046396708 -0.21937617 -137.98322633 -62.09145514 69.82701841 0 0 0 0
2046890290 -0.23871093 -138.49842913 -55.14385546 -45.88654183 0 0 0 0
2047383872 -0.22309718 -138.22459304 -53.64362757 138.77844764 0 0 0 0
2047877454 -0.24991625 -138.426354 -53.08599121 -52.84113772 0 0 0 0
2048371036 -0.15116785 -138.43907497 -54.10184253 97.7824036 0 0 0 0
2048864618 -0.16643219 -138.40971871 -56.04664779 -130.71591137 0 0 0 0
2049358200 -0.19608037 -138.44258196 -54.26345055 69.57460081 0 0 0 0
2049851782 -0.16302062 -138.30696523 -54.04908429 -90.59441395 0 0 0 0
2050345364 -0.18873351 -138.40095076 -50.89504112 77.21371888 0 0 0 0
2050838946 -0.20088181 -138.83395508 -56.07506057 39.12331849 0 0 0 0
2051332528 -0.24104265 -138.28986315 -49.28561858 5.3634791 0 0 0 0
2051826110 -0.25129383 -138.38902899 -51.07226081 51.58337229 0 0 0 0
2052319692 -0.214296 -138.59932083 -46.47599778 -8.93326503 0 0 0 0
2052813274 -0.24976636 -138.61780575 -47.21755622 16.34362407 0 0 0 0
2053306856 -0.19142504 -138.69987692 -50.07421942 4.24385993 0 0 0 0
2053800438 -0.19262642 -138.81570255 -60.39711249 14.30951003 0 0 0 0
2054294020 -0.20644965 -139.13963838 -47.61772753 -65.90053729 0 0 0 0
2054787602 -0.17336604 -139.12337599 -63.51716233 108.54717371 0 0 0 0
2055281184 -0.19512615 -139.15988125 -53.17145371 -69.2431995 0 0 0 0
2055774766 -0.19755522 -139.28985887 -51.49381729 30.92135711 0 0 0 0
2056268348 -0.26812252 -139.09474427 -66.50591288 113.27857249 0 0 0 0
2056761930 -0.26742744 -139.12182237 -44.68763466 -48.7224959 0 0 0 0
2057255512 -0.21086297 -139.34050384 -46.3563788 28.53730022 0 0 0 0
2057749094 -0.21299468 -139.17724939 -51.53008164 -2.48112313 0 0 0 0
2058242676 -0.23895483 -139.48145325 -53.9930446 9.17466486 0 0 0 0
2058736258 -0.21401945 -139.82685624 -47.2061596 -58.57154711 0 0 0 0
2059229840 -0.2192046 -139.0528161 -44.36478902 29.72847531 0 0 0 0
2059723422 -0.28459986 -139.08628031 -65.58448548 -28.25670192 0 0 0 0
2060217004 -0.26978195 -139.13256654 -44.88463132 -11.66177875 0 0 0 0
2060710586 -0.27132034 -139.27481732 -50.04647513 18.59775473 0 0 0 0
2061204168 -0.26527043 -139.20531836 -48.71717401 9.93857503 0 0 0 0
2061697750 -0.27683991 -139.61176494 -46.81826406 -25.04501014 0 0 0 0
2062191332 -0.21307063 -139.13438178 -49.16619987 16.0808728 0 0 0 0
2062684914 -0.19528416 -139.57235903 -49.27936574 -1.22663611 0 0 0 0
2063178496 -0.21859387 -139.31887096 -44.58913425 -29.1238424 0 0 0 0
2063672078 -0.15653175 -139.59462101 -48.45059646 0.90205327 0 0 0 0
2064165660 -0.20148961 -139.55462442 -48.96444098 -33.13449451 0 0 0 0
2064659242 -0.25818375 -139.14839768 -52.81609555 7.21124225 0 0 0 0
2065152824 -0.23644871 -139.6078615 -50.8753658 -84.27322843 0 0 0 0
2065646406 -0.19537493 -139.6807507 -51.38553444 9.98441427 0 0 0 0
2066139988 -0.27088121 -139.19845791 -46.65298332 -103.79558719 0 0 0 0
2066633570 -0.22449414 -139.28049094 -49.22977764 -45.51695057 0 0 0 0
2067127152 -0.25205335 -139.60928895 -50.69752262 -100.0380478 0 0 0 0
2067620734 -0.27134924 -139.68725545 -58.55292227 -88.30921027 0 0 0 0
2068114316 -0.23575621 -139.74927836 -52.26663544 32.70488588 0 0 0 0
2068607898 -0.19402881 -140.00916091 -55.37222012 99.00616585 0 0 0 0
2069101480 -0.19581352 -139.7589797 -48.66848856 4.46653087 0 0 0 0
2069595062 -0.22439078 -139.97658477 -47.35970645 77.80624454 0 0 0 0
2070088644 -0.1758688 -140.22699413 -50.10951959 104.90082667 0 0 0 0
2070582226 -0.225545 -139.96529755 -60.93879314 114.62154309 0 0 0 0
2071075808 -0.23255495 -139.67110075 -47.78935644 -27.49319362 0 0 0 0
2071569390 -0.25579281 -140.00415454 -51.91751672 -117.17239954 0 0 0 0
2072062972 -0.27068431 -139.80736441 -54.29443812 -38.42040149 0 0 0 0
2072556554 -0.26515729 -139.90513562 -53.08522259 -144.25634448 0 0 0 0
2073050136 -0.23319314 -139.81407485 -52.76210131 -68.39254242 0 0 0 0
2073543718 -0.25399661 -140.14277687 -50.97776071 -111.72576574 0 0 0 0
2074037300 -0.26077161 -140.0008478 -47.6624812 -60.5221716 0 0 0 0
2074530882 -0.30535295 -140.23016919 -55.28555108 -58.85545608 0 0 0 0
2075024464 -0.21808575 -140.57874412 -50.92428113 -49.32466313 0 0 0 0
2075518046 -0.28780037 -140.44217319 -48.57615417 -11.09640787 0 0 0 0
2076011628 -0.26503516 -140.42446538 -50.7558189 -30.00610114 0 0 0 0
2076505210 -0.25400247 -140.26384533 -53.48642579 -10.8240571 0 0 0 0
2076998792 -0.17517615 -140.7546723 -47.2990619 -8.78019266 0 0 0 0
2077492374 -0.12952248 -140.55464818 -48.01918404 20.83061232 0 0 0 0
2077985956 -0.09595881 -140.57495483 -58.20786315 53.83201248 0 0 0 0
2078479538 -0.03924737 -139.94658422 -53.79070014 48.18929172 0 0 0 0
2078973120 -0.07987343 -140.47669482 -50.42568494 53.37547691 0 0 0 0
2079466702 -0.05757366 -140.63113638 -57.41256598 158.84637329 0 0 0 0
2079960284 -0.11109941 -140.53961599 -53.0543251 53.63312602 0 0 0 0
2080453866 -0.10437776 -140.465427 -50.95685796 23.44580013 0 0 0 0
2080947448 -0.10035114 -140.45822099 -54.63105042 85.7831156 0 0 0 0
2081441030 -0.07043207 -140.9412469 -57.55303055 102.930429 0 0 0 0
2081934612 -0.05846783 -140.72335173 -52.1422744 170.23514261 0 0 0 0
2082428194 -0.13730844 -140.28136823 -44.75232915 1.76278315 0 0 0 0
2082921776 -0.09438971 -140.00394703 -47.00565028 71.85737994 0 0 0 0
2083415358 -0.06124362 -140.03966042 -49.87782156 -29.84587561 0 0 0 0
2083908940 -0.11801435 -139.8302585 -48.50784846 45.76103348 0 0 0 0
2084402522 -0.12006459 -139.91031709 -45.74967604 9.74726588 0 0 0 0
2084896104 -0.14782867 -139.59147688 -53.03838698 -16.0580715 0 0 0 0
2085389686 -0.14626475 -139.94705445 -50.19266075 24.52166366 0 0 0 0
2085883268 -0.14905516 -140.03948388 -53.63643627 3.69546486 0 0 0 0
2086376850 -0.13503711 -140.37854447 -46.90543389 27.36457877 0 0 0 0
2086870432 -0.1940682 -139.890923 -50.10396537 52.44460606 0 0 0 0
2087364014 -0.19475543 -140.65573164 -50.96074807 41.44812347 0 0 0 0
2087857596 -0.21764319 -140.51665063 -58.73389359 78.49600629 0 0 0 0
2088351178 -0.13317021 -140.6749316 -47.22515191 53.55816215 0 0 0 0
2088844760 -0.12946744 -140.47329251 -46.03097545 -2.79032125 0 0 0 0
2089338342 -0.19050327 -140.61253241 -50.42137276 73.90788397 0 0 0 0
2089831924 -0.18944047 -140.7377851 -64.15152923 -138.15312444 0 0 0 0
2090325506 -0.1321919 -140.75451196 -52.252635 37.49895657 0 0 0 0
2090819088 -0.21377986 -140.92413038 -52.85130171 82.03314658 0 0 0 0
2091312670 -0.22430487 -140.96906488 -53.2439112 91.61554363 0 0 0 0
2091806252 -0.19677069 -141.00000968 -51.87553153 -164.97923639 0 0 0 0
2092299834 -0.22820535 -141.06586403 -54.32452935 61.26492584 0 0 0 0
2092793416 -0.18846726 -141.17794732 -48.80488583 96.87409843 0 0 0 0
2093286998 -0.23778732 -141.21047281 -47.49702808 113.49510053 0 0 0 0
2093780580 -0.18035331 -141.18498811 -59.04027297 53.40876324 0 0 0 0
2094274162 -0.18027084 -141.13378687 -50.75369629 67.3779468 0 0 0 0
2094767744 -0.2105225 -141.59239593 -52.04323303 20.71222698 0 0 0 0
2095261326 -0.12199551 -141.4700137 -50.53462854 73.33782365 0 0 0 0
2095754908 -0.14098069 -141.27591019 -52.5018234 27.04456782 0 0 0 0
2096248490 -0.15122302 -141.76805727 -47.62768179 -14.99293863 0 0 0 0
2096742072 -0.08953052 -141.68798887 -58.08342825 4.66011577 0 0 0 0
2097235654 -0.12371361 -141.5815147 -52.42654484 14.84951043 0 0 0 0
2097729236 -0.1300019 -141.32946295 -51.24829089 43.35510083 0 0 0 0
2098222818 -0.10596093 -141.56376389 -53.29527101 36.40253628 0 0 0 0
2098716400 -0.07414813 -141.58360443 -53.463179 81.95069758 0 0 0 0
2099209982 -0.12687341 -140.94692175 -47.42138587 47.42641424 0 0 0 0
2099703564 -0.10912021 -141.08861277 -55.50873857 44.10441089 0 0 0 0
2100197146 -0.13245395 -141.30049897 -53.4003798 43.57536384 0 0 0 0
2100690728 -0.14281402 -141.27995454 -50.61586091 -30.17177818 0 0 0 0
2101184310 -0.18943248 -141.30071931 -53.7693878 35.86201028 0 0 0 0
2101677892 -0.1503839 -141.33864244 -57.78533749 35.38352736 0 0 0 0
2102171474 -0.13787085 -141.34351801 -58.50421242 6.832609 0 0 0 0
2102665056 -0.15282372 -141.60547623 -49.38841834 13.58239927 0 0 0 0
2103158638 -0.13478252 -141.02493339 -45.12732106 -19.93015967 0 0 0 0
2103652220 -0.16459327 -141.32357881 -48.67452265 -17.10583171 0 0 0 0
2104145802 -0.11257908 -141.7333666 -51.08651304 -22.95249835 0 0 0 0
2104639384 -0.15905261 -141.51034444 -46.36978832 20.27640669 0 0 0 0
2105132966 -0.11998995 -141.72233581 -47.22186917 35.34156821 0 0 0 0
2105626548 -0.11178023 -141.82451338 -45.85555726 -36.40006559 0 0 0 0
2106120130 -0.033162 -141.81460729 -51.24641748 6.42869206 0 0 0 0
2106613712 -0.11659521 -141.5717307 -46.02190154 -2.78238938 0 0 0 0
2107107294 -0.08453272 -141.37182595 -45.2931342 -23.43292082 0 0 0 0
2107600876 -0.15554333 -141.89697868 -45.21881898 -12.91047505 0 0 0 0
2108094458 -0.11222207 -141.64237363 -52.59290736 -72.50234971 0 0 0 0
2108588040 -0.14097851 -141.84799899 -47.0686572 -10.26339436 0 0 0 0
2109081622 -0.17203735 -142.17027658 -46.67629024 -51.38520768 0 0 0 0
2109575204 -0.09355645 -142.09910136 -57.63200577 6.0501046 0 0 0 0
2110068786 -0.10336358 -142.05325845 -46.80131846 16.69516055 0 0 0 0
2110562368 -0.10671963 -142.17972931 -46.84898095 1.41876511 0 0 0 0
2111055950 -0.13436001 -141.51973899 -65.51807539 -35.03899679 0 0 0 0
2111549532 -0.14104989 -141.5986802 -56.98458087 92.98325455 0 0 0 0
2112043114 -0.15936115 -142.05597002 -53.70934602 139.71462784 0 0 0 0
2112536696 -0.10474263 -142.06810204 -43.87421591 61.29938574 0 0 0 0
2113030278 -0.14349577 -141.79834482 -48.19292461 41.56776828 0 0 0 0
2113523860 -0.12949208 -141.9640927 -47.88794352 -9.80339558 0 0 0 0
2114017442 -0.09071856 -141.98345363 -45.621249 82.33831987 0 0 0 0
2114511024 -0.12997887 -142.17675544 -50.61052006 31.32897481 0 0 0 0
2115004606 -0.17057829 -142.03388075 -47.99592852 4.05716462 0 0 0 0
2115498188 -0.17053496 -142.3364437 -41.28392534 -1.14497632 0 0 0 0
2115991770 -0.14791611 -142.54962528 -51.98682704 23.55719396 0 0 0 0
2116485352 -0.15362939 -142.46764519 -45.41144541 -26.49857532 0 0 0 0
2116978934 -0.19753538 -142.61918427 -57.80252099 51.39505716 0 0 0 0
2117472516 -0.26189388 -142.44762426 -41.54689905 -4.99231455 0 0 0 0
2117966098 -0.19611251 -142.55307488 -44.92643552 -43.50636001 0 0 0 0
2118459680 -0.1843085 -142.51500022 -48.29911534 -63.04155268 0 0 0 0
2118953262 -0.20756651 -142.76076418 -49.65071384 -28.21510935 0 0 0 0
2119446844 -0.08422187 -142.06459799 -46.20678039 13.10986228 0 0 0 0
2119940426 -0.19919368 -142.41071396 -52.50116789 19.08005359 0 0 0 0
2120434008 -0.08119359 -142.42833599 -54.54092745 28.59139258 0 0 0 0
2120927590 -0.15729922 -142.33453108 -55.96338212 24.30336494 0 0 0 0
2121421172 -0.13954334 -142.41667389 -50.32057017 -72.95884862 0 0 0 0
2121914754 -0.13892265 -142.37681036 -57.17294793 -0.44432536 0 0 0 0
2122408336 -0.18286548 -142.26704938 -52.11363143 7.88320005 0 0 0 0
2122901918 -0.15643551 -142.40148328 -59.4445417 102.28884447 0 0 0 0
2123395500 -0.22603668 -142.37613994 -52.73824795 76.82896916 0 0 0 0
2123889082 -0.21264397 -142.39073676 -68.36644068 -58.34027063 0 0 0 0
2124382664 -0.22324639 -142.70601218 -51.48287402 -151.75732432 0 0 0 0
2124876246 -0.23579429 -142.56246756 -61.33844347 31.50227195 0 0 0 0
2125369828 -0.15157079 -142.78722176 -53.74974175 146.30355231 0 0 0 0
2125863410 -0.26401625 -143.07165158 -55.81940958 -94.35661556 0 0 0 0
2126356992 -0.16106443 -143.00672509 -63.19988372 -46.61652495 0 0 0 0
2126850574 -0.20193043 -143.18531445 -46.44495052 -26.36563414 0 0 0 0
2127344156 -0.23880489 -142.91695464 -62.28941389 8.30980758 0 0 0 0
2127837738 -0.23732465 -143.08520262 -49.86297597 -85.58415754 0 0 0 0
2128331320 -0.2188405 -143.24900279 -56.34393772 72.57479338 0 0 0 0
2128824902 -0.30264459 -143.30179145 -57.42401498 -27.15741117 0 0 0 0
2129318484 -0.23868518 -143.39177701 -49.06286629 -54.83613314 0 0 0 0
2129812066 -0.27704347 -143.40927084 -45.77983922 -30.53130009 0 0 0 0
2130305648 -0.249425 -143.48606508 -51.1090192 -95.37165505 0 0 0 0
2130799230 -0.2306652 -143.75727877 -55.97863594 66.81228714 0 0 0 0
2131292812 -0.23647952 -143.45115336 -45.90245579 -27.99751308 0 0 0 0
2131786394 -0.21159391 -143.35073816 -62.68591891 81.24494636 0 0 0 0
2132279976 -0.19426117 -143.43045266 -44.47174939 23.79365259 0 0 0 0
2132773558 -0.2337721 -143.56882578 -55.774006 53.82651174 0 0 0 0
2133267140 -0.2014582 -143.87576078 -59.09317997 120.97428984 0 0 0 0
2133760722 -0.18052624 -143.63736316 -54.21961584 -27.43717152 0 0 0 0
2134254304 -0.16492598 -143.96859106 -52.89037371 71.27834598 0 0 0 0
2134747886 -0.1777519 -143.81406954 -57.22000478 73.67768785 0 0 0 0
2135241468 -0.20867834 -144.17488992 -57.74539743 168.40002586 0 0 0 0
2135735050 -0.23825843 -144.57335548 -48.01906882 42.09642936 0 0 0 0
2136228632 -0.2509875 -144.16170394 -51.18776848 92.0911415 0 0 0 0
2136722214 -0.2343236 -144.16803994 -52.13350418 125.34498538 0 0 0 0
2137215796 -0.21018419 -144.68606496 -50.64776796 76.16003635 0 0 0 0
2137709378 -0.25616803 -144.35972719 -49.90405548 80.61218234 0 0 0 0
