! created by azisi at Thu Oct 01 17:01:29 EEST 2020
! generated using vna/J Version 3.4.3
# Hz S DB R 50.0
2000000000 -22.21131719 162.46041308 -3.07475208 159.20757812 -53.02546642 48.28713987 -12.11105763 -45.42687449 
2000592299 -22.34888795 167.85655366 -3.10236857 159.08208201 -54.80758059 44.20167853 -12.20940504 -45.32235294 
2001184598 -22.28953236 165.61216446 -3.10288062 159.06157303 -46.49710999 108.78129391 -12.01801678 -45.43646741 
2001776897 -21.97615119 167.71851872 -3.06899776 158.52583770 -47.83608928 10.27797002 -11.94377884 -46.07853912 
2002369196 -22.83392247 169.68775204 -3.05156331 158.45118695 -49.37786194 69.12878548 -12.05783021 -45.91774130 
2002961495 -22.59365525 164.89426276 -3.06308311 158.14177127 -46.61436110 175.96024835 -12.06513478 -45.82351238 
2003553794 -23.31578467 164.64997615 -3.06296021 157.98249441 -50.69669065 -5.89223730 -11.96594287 -46.45880903 
2004146093 -22.60426487 163.30970230 -3.07806390 157.54787607 -49.56350633 58.42198698 -11.90620807 -46.76655962 
2004738392 -22.45956294 163.09186192 -3.10058442 157.07159751 -57.57108015 92.52239723 -12.01069069 -45.26828410 
2005330691 -22.42518906 167.47123098 -3.09704612 157.00582845 -49.69441073 44.12005585 -11.93215001 -45.88305469 
2005922990 -22.19882870 163.76660941 -3.18233222 156.55149352 -51.42034326 5.07287717 -12.07936132 -46.69806637 
2006515289 -22.31865275 165.82117436 -3.16259927 156.50699696 -52.61077598 36.07958867 -12.01095965 -47.21069993 
2007107588 -22.21934049 161.97731558 -3.18006707 156.03833487 -53.20968181 -31.76112027 -12.06982018 -46.30184423 
2007699887 -22.56790139 162.28901446 -3.18194837 155.86433777 -52.46300822 -23.59266218 -12.21787314 -46.79383939 
2008292186 -21.92464367 168.47116704 -3.15311258 155.47913961 -54.58102083 -27.63531398 -12.33342457 -46.57198364 
2008884485 -22.00949682 165.35642482 -3.13187965 155.60223824 -55.66457384 22.72134793 -12.28059084 -46.43182298 
2009476784 -21.69119889 169.26745829 -3.17848159 155.12466792 -48.10873200 -6.68650383 -12.42184214 -47.58132807 
2010069083 -21.87843766 161.71647111 -3.15969911 154.70003652 -49.19434507 -19.44933511 -12.33258215 -46.65112887 
2010661382 -22.37969952 167.83652805 -3.17007832 154.39182536 -53.14974730 -33.46254697 -12.35319420 -47.72034484 
2011253681 -22.26670865 163.92361474 -3.15755503 153.88095267 -54.78001040 8.73161096 -12.48559953 -47.45016762 
2011845980 -22.11375447 164.29789393 -3.15276425 153.97415215 -54.27851718 63.43709274 -12.48219270 -48.00252792 
2012438279 -21.77740366 164.56914017 -3.19810488 153.45212258 -59.12849916 44.93082471 -12.44605345 -48.14147959 
2013030578 -21.87524691 164.55506491 -3.15276224 153.16104235 -52.24533134 -9.08721198 -12.46145599 -47.37873308 
2013622877 -22.14795757 161.71904210 -3.17534328 152.74953875 -52.80110074 17.84187554 -12.41181786 -47.84669313 
2014215176 -22.71047440 166.39770836 -3.13737841 152.48444149 -51.28663991 80.73800006 -12.45959804 -47.63972270 
2014807475 -23.08253591 161.90316392 -3.18985380 152.25017049 -59.98319757 64.21388579 -12.35961597 -46.42628846 
2015399774 -22.09105391 165.53400635 -3.17906552 151.74650623 -59.82157283 -74.10384735 -12.33530966 -47.64528711 
2015992073 -22.47467994 166.80497577 -3.17583360 151.54600600 -50.59332583 -31.76437453 -12.28767897 -47.08389000 
2016584372 -22.58991409 166.01854930 -3.13255850 151.27181880 -56.47970035 -43.76806840 -12.36730520 -48.55578720 
2017176671 -22.23173382 163.61545223 -3.12482022 151.10237736 -48.51575679 -147.17972856 -12.58550362 -47.92728385 
2017768970 -21.44269470 166.82048302 -3.14668957 151.00140556 -47.67042196 160.70890565 -12.43418976 -47.35939888 
2018361269 -21.86775497 164.91949064 -3.18542348 150.67363058 -50.30112660 -96.56747262 -12.56650704 -47.34048504 
2018953568 -21.64736453 165.85008816 -3.15505661 150.33886182 -47.47287646 -168.49105387 -12.57959747 -48.54077030 
2019545867 -22.41413737 169.08837000 -3.19585785 150.12787230 -57.12474476 151.06153569 -12.73941657 -48.58679715 
2020138166 -21.59899498 164.91614570 -3.20116853 149.75955237 -57.64875033 -159.15311744 -12.75791414 -48.78312388 
2020730465 -22.01594479 163.16593226 -3.22429053 149.26305016 -48.14071421 107.23855905 -12.63677654 -49.54684433 
2021322764 -21.36679472 161.39041972 -3.20504297 148.89458089 -52.81178395 60.30955327 -12.73861656 -50.26789976 
2021915063 -22.19523273 164.34835462 -3.24507468 148.64661762 -50.91962086 -55.44546897 -12.60777230 -50.24444262 
2022507362 -22.53259271 163.77859708 -3.22691099 148.49030389 -52.51925003 0.98332961 -12.68799686 -48.63502050 
2023099661 -22.26908509 161.26760007 -3.23443719 148.14865425 -61.22878832 -27.44075136 -12.67228670 -48.69612934 
2023691960 -22.00702692 161.71915966 -3.24934412 148.04223541 -51.96429359 -41.71346241 -12.59544622 -48.15132538 
2024284259 -22.31943546 162.14044265 -3.30663917 147.48839148 -48.57804103 -53.65755678 -12.67355131 -47.61610319 
2024876558 -23.49125062 161.86584207 -3.27938285 147.41182017 -48.96588408 -60.79241995 -12.59632771 -47.68237275 
2025468857 -22.52701685 159.53251943 -3.32160005 147.05592103 -45.95710609 -40.08311823 -12.75729793 -48.27273085 
2026061156 -23.80819762 159.15279429 -3.33384238 146.69162852 -50.54718969 -15.55332050 -12.78191353 -48.65668683 
2026653455 -22.91756379 161.37512341 -3.30738601 146.39809095 -49.94531391 -50.33300096 -12.67236113 -48.74820215 
2027245754 -22.85489898 162.51101622 -3.35605368 145.89754040 -56.85144495 -96.44214932 -12.85188329 -47.94158859 
2027838053 -22.59894221 164.69424106 -3.30699154 145.61525247 -50.33683887 -54.17218936 -12.77869885 -49.54195937 
2028430352 -22.70058002 164.64761306 -3.30484107 145.19847444 -48.22126804 -42.97089914 -12.97249593 -50.08866863 
2029022651 -22.18780154 162.93138754 -3.29451146 145.18353056 -56.50829531 -135.94923704 -12.86641651 -50.33105483 
2029614950 -21.54748641 161.61863030 -3.27078473 144.58807803 -58.00133199 -43.54574499 -13.00957255 -50.07910700 
2030207249 -21.67886562 164.86593967 -3.26705952 144.42163581 -62.81051513 -104.61420605 -13.07102968 -51.64629580 
2030799548 -21.26349669 160.66303328 -3.27621184 144.11466493 -57.61134788 -93.39036986 -13.05396381 -51.57438997 
2031391847 -22.46209604 158.62349701 -3.26851659 143.74546114 -52.64770414 -106.22848746 -13.20662586 -51.53097409 
2031984146 -22.42563828 166.20144855 -3.31745537 143.12790000 -51.10490854 -76.16954545 -12.96410886 -52.10785501 
2032576445 -22.62393574 158.84011657 -3.33140721 143.03009964 -59.09465073 -35.38301916 -13.09766597 -51.31936510 
2033168744 -22.51716419 161.36428896 -3.33045385 142.78554816 -56.50953964 -41.06240394 -13.08284132 -51.23519054 
2033761043 -21.98032353 160.55252811 -3.37474027 142.36832811 -66.37911654 14.87634033 -13.16098215 -51.96811137 
2034353342 -21.69183302 160.37690299 -3.37093680 141.91310374 -53.86032264 -3.54741957 -13.16081584 -51.43476249 
2034945641 -21.23711127 159.72943924 -3.34020004 141.86259472 -47.23446734 -17.56249044 -13.20266136 -51.90607633 
2035537940 -22.22678605 157.81376631 -3.36249221 141.52893506 -48.85163877 -33.86076521 -13.29268609 -52.04975794 
2036130239 -21.17802481 157.47552006 -3.39954611 141.18139563 -51.26525516 22.16835222 -13.27449256 -52.90148305 
2036722538 -22.40649868 159.31212286 -3.40286404 140.88008351 -56.71686166 -70.56381803 -13.23786677 -52.06824184 
2037314837 -22.52964620 153.30606082 -3.37952197 140.46910614 -51.93616954 -2.03578185 -13.35304115 -51.95964660 
2037907136 -21.57226683 160.97079835 -3.39119879 140.28354479 -52.49876474 -102.30353895 -13.32960968 -52.39771090 
2038499435 -22.01136752 160.91905375 -3.42449279 139.86497132 -52.65541842 2.09432501 -13.17053769 -52.32927090 
2039091734 -22.37569483 153.98027882 -3.39014054 139.65729623 -64.82041355 -150.56908788 -13.31129949 -50.94870377 
2039684033 -22.49868175 158.50168906 -3.42349556 139.12369473 -50.80472967 -172.20892579 -13.20026586 -51.16615288 
2040276332 -23.69409847 157.31043112 -3.42750102 138.75085756 -48.96311028 5.05783643 -13.18888003 -51.55809165 
2040868631 -22.83099795 157.64283697 -3.41045372 138.14934506 -61.81225780 19.33741809 -13.38053762 -51.73458855 
2041460930 -22.76905796 155.62172397 -3.40540119 137.96128809 -54.75647572 83.60243242 -13.33802781 -50.89214437 
2042053229 -22.67353455 155.95529377 -3.37363408 137.44772792 -52.03805298 -41.40082749 -13.46193905 -52.01560846 
2042645528 -21.96995468 159.64378157 -3.38117852 137.19772821 -53.26674029 41.20884984 -13.31714715 -52.63814157 
2043237827 -22.66653352 157.44977790 -3.43493728 137.08450309 -55.24374283 4.73282264 -13.53224943 -53.13989756 
2043830126 -22.14765549 161.52913351 -3.43593020 136.76360337 -57.40192938 -2.15210149 -13.54849950 -53.13540659 
2044422425 -22.67421840 161.23712754 -3.45549677 136.27381309 -49.10880556 -3.25299359 -13.18927019 -53.83697526 
2045014724 -23.63092381 162.35702340 -3.48744224 136.07072934 -47.70206754 -27.68917618 -13.20731043 -53.38921720 
2045607023 -22.40657630 161.85654428 -3.47445325 135.68703756 -47.25998523 -13.16451068 -13.16468209 -54.31256506 
2046199322 -22.72776921 163.04530687 -3.47841765 135.34326730 -47.33777487 6.00740181 -13.46105842 -54.95046024 
2046791621 -22.60019549 157.82560146 -3.48335271 135.00309301 -44.31268278 -18.14974244 -13.54057067 -54.67182412 
2047383920 -22.13283380 159.86891831 -3.44961840 134.61713234 -51.55303617 -20.98949993 -13.41570197 -53.92296772 
2047976219 -22.25035159 159.20461416 -3.50765839 134.65559823 -47.33612762 -7.83621633 -13.46693349 -54.95526491 
2048568518 -22.20863307 157.78199199 -3.48153007 134.25284570 -44.26865093 -6.56672289 -13.67795318 -56.23334711 
2049160817 -22.97306206 154.61552536 -3.45445272 134.15132891 -52.82037712 -3.16448633 -13.53901849 -53.35619850 
2049753116 -22.51986609 155.83223077 -3.45813420 133.47761273 -45.76285093 -0.73118176 -13.73313791 -54.65446914 
2050345415 -22.29251747 157.32762685 -3.43820480 133.19745520 -47.56629822 -51.45457384 -13.65473080 -54.75417736 
2050937714 -22.38892791 152.79962350 -3.44517701 132.72975652 -53.19180609 10.97566891 -13.79433253 -55.48492547 
2051530013 -22.91802456 154.01269032 -3.41496845 132.44318854 -54.46736196 -153.94293814 -13.72387653 -54.40021782 
2052122312 -22.64539002 154.60421640 -3.43320267 132.28835975 -51.40147774 -21.34308917 -13.99653928 -55.06734589 
2052714611 -22.21524832 154.92318689 -3.46462254 131.74310413 -59.13450415 -176.52878253 -14.06940817 -56.51255495 
2053306910 -21.84781235 157.28803308 -3.41412185 131.58512456 -54.34163575 14.41068247 -13.79320105 -55.21418414 
2053899209 -22.00019971 154.69931449 -3.45929876 131.39902502 -48.03692583 -29.02359668 -13.82774835 -56.35454684 
2054491508 -21.53939014 156.61832938 -3.50933547 131.23825058 -47.85564728 -62.45019742 -13.97701935 -57.05301956 
2055083807 -22.55843124 154.88455483 -3.47068590 130.91191286 -50.00888030 -59.89111759 -13.80696230 -56.61722524 
2055676106 -22.39479971 154.26876962 -3.47600910 130.67753435 -44.79849212 -34.89996189 -13.96645071 -57.74337285 
2056268405 -22.03787303 155.12912766 -3.50807892 130.42489460 -49.08430834 -66.87339537 -13.84949884 -58.31086885 
2056860704 -21.59682367 155.43706227 -3.50759422 129.95982842 -48.80883383 -51.87383211 -13.72187369 -57.26713280 
2057453003 -22.24293071 155.92517181 -3.52087794 129.68567886 -47.65607823 -57.50032667 -14.00989080 -57.72009180 
2058045302 -22.60274154 158.13406684 -3.49339845 129.37968619 -46.25258797 -29.64200224 -13.78346728 -57.93072510 
2058637601 -22.46296016 152.88796986 -3.50118735 129.28481430 -45.13288522 -76.96680764 -14.02429895 -57.34429216 
2059229900 -23.19372411 150.70885401 -3.48101459 128.98218564 -49.96101612 -100.67909444 -13.87721601 -56.85504899 
2059822199 -22.08796560 156.21048501 -3.46366501 128.74998206 -43.88001852 -101.59560334 -13.73354969 -56.48606854 
2060414498 -22.26772126 157.02572224 -3.47117422 128.52616109 -51.85027647 -106.37089825 -13.86084216 -57.20615484 
2061006797 -22.51619379 153.68238442 -3.49069457 127.86267508 -43.61862244 -86.34057946 -14.07190913 -56.98773343 
2061599096 -22.46909255 153.78984581 -3.48104534 127.77237607 -46.44625017 -111.80518206 -13.96095871 -57.24214218 
2062191395 -23.43499037 148.34703570 -3.44638454 127.19296907 -49.23474098 -89.88251161 -14.06338276 -57.87619993 
2062783694 -22.54686367 160.42638860 -3.49088489 127.02973999 -45.74283336 -104.28606164 -14.11356675 -57.78161093 
2063375993 -22.33200719 159.14696766 -3.47790197 126.63085123 -47.67003879 -102.97963575 -14.18026737 -57.25981266 
2063968292 -22.50975296 151.57095245 -3.48184395 126.21689785 -51.63655312 -67.73803201 -13.95676389 -57.95778959 
2064560591 -22.82948003 154.36664291 -3.50383123 125.62899489 -49.47372319 -84.73841699 -13.99792190 -57.64702831 
2065152890 -23.84446427 154.55597235 -3.45614181 125.66425321 -63.90860801 131.88710375 -14.01839057 -59.21976448 
2065745189 -22.46220693 152.65589348 -3.44084028 125.23315818 -48.45016420 -79.47157871 -13.80498533 -59.72851217 
2066337488 -23.27313643 152.60734250 -3.48039685 125.06073982 -51.10333870 176.54861587 -14.05348792 -59.68431212 
2066929787 -22.83133952 151.85651348 -3.44878142 124.57418386 -52.53749258 -139.44346366 -14.04026170 -62.00757056 
2067522086 -22.50687112 152.70356123 -3.41140460 124.37494252 -51.59218806 -167.11970911 -14.34785542 -58.66226383 
2068114385 -22.99338865 153.96516079 -3.45567366 124.16148268 -62.30758373 31.37231622 -14.27214397 -60.14975050 
2068706684 -22.99798177 149.03336036 -3.45019471 123.58472252 -53.69034080 163.51660677 -14.49890548 -59.89036139 
2069298983 -22.41944699 150.10971475 -3.43948667 123.23574712 -51.72821614 161.72315201 -14.56812347 -60.37059176 
2069891282 -21.90517045 152.04718018 -3.45646704 123.04743423 -53.33629407 -70.29156174 -14.34976220 -59.62619862 
2070483581 -22.11380415 150.94289212 -3.43726603 123.05555115 -55.44428143 -134.98529026 -14.44880646 -61.85114800 
2071075880 -21.91966473 151.43568767 -3.41004122 122.55280719 -54.52213855 -171.69954233 -14.28242240 -61.20795902 
2071668179 -22.14296450 155.38618763 -3.42738221 122.34018383 -50.45629762 -147.36175316 -14.46520427 -61.30390157 
2072260478 -22.42245186 153.95354613 -3.45908450 122.18283508 -49.18336968 -108.35574438 -14.48473590 -60.91755707 
2072852777 -22.45087096 151.95632769 -3.45700187 121.59555935 -48.78571916 -43.16010977 -14.25692332 -62.55313245 
2073445076 -21.46349812 151.71151415 -3.46115373 121.54519909 -56.07765635 169.73703121 -14.49182758 -61.98798065 
2074037375 -22.19020913 155.06056962 -3.45609472 121.06128079 -47.92326409 -121.95023543 -14.57269393 -62.57914739 
2074629674 -21.82426756 154.81579038 -3.43827321 120.92945065 -53.09992618 -82.96290762 -14.36993907 -63.01833188 
2075221973 -21.60242260 155.03755024 -3.45125454 120.68731789 -49.38095129 -87.53217012 -14.39072785 -63.73535428 
2075814272 -22.30337311 147.82218810 -3.47242480 120.19901327 -47.82382136 -105.11879990 -14.37924095 -63.42980125 
2076406571 -22.29576171 149.86023706 -3.46458165 120.18378053 -51.72914327 -83.96126996 -14.54100555 -63.27004169 
2076998870 -23.09350728 150.20333275 -3.45381511 119.68009811 -60.33635787 -147.43297984 -14.38454519 -64.57766162 
2077591169 -21.84410254 148.81878009 -3.47397762 119.68239659 -50.46942697 -87.83383884 -14.63788654 -63.74008133 
2078183468 -23.17141706 148.65124839 -3.46558770 119.34150836 -56.06204071 -118.44354635 -14.70892505 -62.11470728 
2078775767 -22.52766071 145.50402348 -3.45096425 118.97548554 -51.55895971 -72.06146156 -14.77319367 -62.52043056 
2079368066 -22.47975239 148.18835668 -3.44648409 118.62162970 -48.74707122 -92.15751134 -14.97601124 -62.75529888 
2079960365 -21.63826411 151.00218984 -3.46055820 118.49410688 -45.03369225 -36.53785396 -14.78930502 -64.14336851 
2080552664 -22.68139293 147.54322141 -3.45630807 117.93346885 -50.40879506 -94.31361919 -14.87514769 -64.20494819 
2081144963 -22.27311855 146.65715477 -3.47910138 117.68794263 -43.73793286 -38.93493566 -14.90777400 -65.17878355 
2081737262 -22.33319981 156.77079799 -3.49690011 117.44005815 -45.16189452 -78.96112934 -14.70948776 -64.49732254 
2082329561 -21.85248960 149.31493181 -3.45468248 117.24488079 -47.75612571 11.83058799 -14.78972976 -64.64627026 
2082921860 -22.42668369 147.14193491 -3.47700465 117.10823889 -48.98137222 -63.02395687 -15.02594462 -63.91985116 
2083514159 -22.77433028 149.19634662 -3.44434566 116.91252331 -50.07770700 -99.04870895 -14.66740162 -63.73230517 
2084106458 -23.35173822 147.74399268 -3.50012466 116.87336596 -48.08074681 -99.73939691 -14.75967229 -63.82746712 
2084698757 -22.66967580 151.90812163 -3.48416061 116.44029908 -45.69988320 -118.40589781 -14.86519437 -62.67015211 
2085291056 -23.02362210 147.95052640 -3.48961160 115.94360597 -46.39054171 -99.38495919 -14.96151616 -61.99631372 
2085883355 -23.40233528 147.02569495 -3.49010801 115.84358188 -48.41009995 -62.65132951 -14.78051528 -62.78270252 
2086475654 -23.03887865 141.09976679 -3.54791857 115.37751420 -50.08352498 -80.72824571 -15.01027965 -61.76778149 
2087067953 -22.86375404 139.73408834 -3.55324340 114.99571878 -48.65231747 -61.28574266 -14.60258067 -63.25120736 
2087660252 -22.84183021 137.78218180 -3.49187987 114.93461902 -51.49609923 -47.00175395 -15.20094404 -62.96688628 
2088252551 -23.34646894 138.10005627 -3.53290731 114.45426204 -48.01601524 -26.51375510 -14.97824992 -63.10463009 
2088844850 -22.67889023 141.81417324 -3.53515447 114.30512612 -55.79728114 171.28003005 -15.10370232 -61.01829882 
2089437149 -22.74864619 143.10348066 -3.50674713 113.75920113 -55.77963941 -55.45612898 -15.16768379 -62.23912481 
2090029448 -22.57049700 141.99480496 -3.51520960 113.67123754 -52.57048436 -106.31447360 -14.99699308 -63.15163866 
2090621747 -22.46845555 141.57706040 -3.50794361 113.29520516 -57.22077619 -137.07461394 -15.24979159 -63.64652873 
2091214046 -22.52698221 136.02738270 -3.51199565 112.89823537 -52.90492963 -81.79484679 -15.14186360 -63.63552230 
2091806345 -23.01239759 143.56549116 -3.51378619 112.75427969 -52.06034970 -66.01239947 -15.21355499 -64.14498359 
2092398644 -23.12436646 141.41386698 -3.52017401 112.51912334 -48.68783786 -81.25312866 -15.20206546 -65.03095395 
2092990943 -22.31805876 139.24385093 -3.51717826 112.19201719 -46.52942083 -117.60582533 -15.47337956 -65.09305412 
2093583242 -22.65083125 139.58935633 -3.51053033 112.06145146 -41.97814324 -121.33536797 -15.37550493 -64.93785110 
2094175541 -23.05515593 142.69471295 -3.56241942 111.65827755 -46.45744093 -141.58599888 -15.15059930 -65.96196926 
2094767840 -23.53206247 141.98915263 -3.54992947 111.68577730 -48.37846689 -128.73571747 -15.37771356 -65.98053362 
2095360139 -23.72946693 140.71570612 -3.57519715 111.36182851 -50.56071877 -92.81411237 -15.58793975 -64.04574244 
2095952438 -23.20962427 137.37620456 -3.56977325 111.17303827 -42.78519334 -95.74096223 -15.35722102 -66.17738421 
2096544737 -22.96686152 136.22634037 -3.58771814 111.04797444 -44.06638725 -141.86926699 -15.35721098 -65.23799981 
2097137036 -23.33420605 141.43786821 -3.58743650 110.72063653 -53.26864279 -67.90157491 -15.38276332 -64.80634374 
2097729335 -23.45375018 139.03098350 -3.56274972 110.21200848 -45.57533575 -153.36141640 -15.44981776 -66.22425484 
2098321634 -23.34274228 142.57425169 -3.58113694 109.62639111 -46.20873696 -145.55818262 -15.45916505 -65.84435290 
2098913933 -23.09416866 134.01426453 -3.57951110 109.34811993 -52.55783590 -140.88672491 -15.32154981 -64.31972339 
2099506232 -23.63375358 140.81245142 -3.57650692 109.33852575 -51.22036551 -158.16372337 -15.41111126 -65.87846092 
2100098531 -23.37549572 132.60613561 -3.58270604 108.79411884 -61.67624856 160.50555614 -15.71148832 -64.81698632 
2100690830 -23.30694472 137.39225651 -3.58741310 108.46167517 -54.24214075 -153.81270341 -15.42334678 -67.69433552 
