! SKY66294-11
!
! S-PARAMETERS_DE-EMBEDDED
!
! VCC1= VCC2= VCC3= VBIAS= 5.00VDC
! PA_ENABLE= 2.00VDC
!
! START FREQUENCY= 500MHZ
! STOP FREQUENCY= 6.0GHZ
!
! DATA POINTS= 1601
!
! CHARACTERISTIC IMPEDANCE= 50 OHMS
!
! AMBIENT TEMPERATURE= +25C
!
!
! RF INPUT POWER= -30DBM
!Agilent Technologies,E5071C,MY46108160,A.09.30
!Date: Tue Oct 17 14:55:25 2017
!Data & Calibration Information:
!Freq	S11:SOLT2(ON)	S21:SOLT2(ON)	S12:SOLT2(ON)	S22:SOLT2(ON)
# Hz S dB R 50
500000000	-3.380540e+000	1.494136e+002	-1.832233e+001	-6.299594e+001	-5.693842e+001	2.922565e+001	-6.107916e+000	-1.724370e+002
503437500	-3.362754e+000	1.491375e+002	-1.766962e+001	-6.512149e+001	-5.615073e+001	7.645696e+001	-6.559993e+000	-1.720797e+002
506875000	-3.416541e+000	1.488540e+002	-1.736783e+001	-7.247690e+001	-5.349468e+001	-2.632608e+001	-6.764105e+000	-1.736236e+002
510312500	-3.427797e+000	1.486637e+002	-1.689510e+001	-7.500494e+001	-5.047428e+001	1.280547e+002	-6.914851e+000	-1.719553e+002
513750000	-3.397712e+000	1.480273e+002	-1.662825e+001	-8.057860e+001	-5.610875e+001	-5.434739e+001	-6.953706e+000	-1.712531e+002
517187500	-3.358551e+000	1.482868e+002	-1.604665e+001	-8.301980e+001	-4.898952e+001	6.358856e+000	-7.646133e+000	-1.709232e+002
520625000	-3.371436e+000	1.472018e+002	-1.599273e+001	-8.831442e+001	-5.412534e+001	-5.155038e+001	-7.820907e+000	-1.698838e+002
524062500	-3.480597e+000	1.472977e+002	-1.566632e+001	-9.451494e+001	-6.261889e+001	-1.579407e+002	-7.816405e+000	-1.686336e+002
527500000	-3.488410e+000	1.466170e+002	-1.514400e+001	-9.637162e+001	-6.866570e+001	-3.346139e+001	-8.033141e+000	-1.686984e+002
530937500	-3.412372e+000	1.460502e+002	-1.529019e+001	-9.957118e+001	-7.277528e+001	1.287691e+002	-8.042894e+000	-1.670277e+002
534375000	-3.393253e+000	1.462746e+002	-1.473352e+001	-1.031640e+002	-5.668362e+001	3.666875e+001	-8.217507e+000	-1.665673e+002
537812500	-3.409693e+000	1.457492e+002	-1.447762e+001	-1.081755e+002	-5.546018e+001	1.181616e+001	-8.294494e+000	-1.659974e+002
541250000	-3.439335e+000	1.460813e+002	-1.457817e+001	-1.110667e+002	-5.619781e+001	6.042884e+001	-8.555120e+000	-1.645402e+002
544687500	-3.423923e+000	1.439433e+002	-1.429797e+001	-1.148297e+002	-5.960532e+001	-8.976718e+001	-8.183918e+000	-1.645880e+002
548125000	-3.547465e+000	1.446728e+002	-1.370310e+001	-1.195505e+002	-5.129196e+001	1.073988e+002	-8.675891e+000	-1.633809e+002
551562500	-3.409980e+000	1.441179e+002	-1.402012e+001	-1.218378e+002	-5.757312e+001	-1.818332e+001	-8.609934e+000	-1.626031e+002
555000000	-3.440699e+000	1.437619e+002	-1.349766e+001	-1.237474e+002	-5.370319e+001	5.064933e+001	-8.268013e+000	-1.617682e+002
558437500	-3.475628e+000	1.439317e+002	-1.364899e+001	-1.294738e+002	-5.757604e+001	5.644813e+000	-8.198515e+000	-1.607871e+002
561875000	-3.602324e+000	1.432058e+002	-1.335874e+001	-1.308356e+002	-5.674354e+001	-2.082470e+001	-8.404242e+000	-1.591643e+002
565312500	-3.457537e+000	1.428790e+002	-1.296752e+001	-1.357921e+002	-5.489320e+001	1.517548e+002	-8.308121e+000	-1.586205e+002
568750000	-3.396398e+000	1.423469e+002	-1.286074e+001	-1.391656e+002	-5.816721e+001	1.378495e+002	-8.086455e+000	-1.582260e+002
572187500	-3.448698e+000	1.431299e+002	-1.285620e+001	-1.413071e+002	-5.287949e+001	-7.352269e+001	-8.143933e+000	-1.584596e+002
575625000	-3.556390e+000	1.415187e+002	-1.269283e+001	-1.464229e+002	-6.056617e+001	-1.053442e+002	-8.094013e+000	-1.566691e+002
579062500	-3.665228e+000	1.417694e+002	-1.291027e+001	-1.508335e+002	-6.022564e+001	-4.148133e+001	-7.982535e+000	-1.569189e+002
582500000	-3.395468e+000	1.411231e+002	-1.282545e+001	-1.531272e+002	-5.339320e+001	-4.383872e+001	-8.011626e+000	-1.560829e+002
585937500	-3.624242e+000	1.411622e+002	-1.283074e+001	-1.545322e+002	-5.248065e+001	-4.570214e+001	-7.921923e+000	-1.559585e+002
589375000	-3.553330e+000	1.406582e+002	-1.274732e+001	-1.596836e+002	-5.316231e+001	8.628400e+001	-7.855863e+000	-1.557433e+002
592812500	-3.560042e+000	1.396901e+002	-1.298245e+001	-1.635932e+002	-5.679139e+001	6.080555e+001	-7.743066e+000	-1.552001e+002
596250000	-3.581874e+000	1.394746e+002	-1.282745e+001	-1.683263e+002	-5.200899e+001	1.718071e+002	-7.651503e+000	-1.559373e+002
599687500	-3.605358e+000	1.386661e+002	-1.299073e+001	-1.701877e+002	-5.440230e+001	1.097689e+002	-7.440022e+000	-1.552858e+002
603125000	-3.550537e+000	1.385000e+002	-1.336202e+001	-1.734824e+002	-5.318807e+001	2.840826e+001	-7.416812e+000	-1.550807e+002
606562500	-3.647094e+000	1.383857e+002	-1.373493e+001	-1.765742e+002	-5.646272e+001	-5.708142e+001	-7.568758e+000	-1.567236e+002
610000000	-3.614423e+000	1.382308e+002	-1.394687e+001	1.791585e+002	-5.616594e+001	-8.204138e+001	-7.308674e+000	-1.556308e+002
613437500	-3.696238e+000	1.372930e+002	-1.433091e+001	1.785084e+002	-5.083482e+001	-1.357261e+002	-7.463070e+000	-1.561618e+002
616875000	-3.634447e+000	1.375480e+002	-1.558924e+001	1.773594e+002	-5.121705e+001	1.561283e+001	-7.285770e+000	-1.572764e+002
620312500	-3.688629e+000	1.372420e+002	-1.558809e+001	1.742218e+002	-5.247669e+001	-1.296017e+002	-7.238294e+000	-1.572611e+002
623750000	-3.762566e+000	1.371949e+002	-1.566685e+001	1.754619e+002	-5.255693e+001	-8.596258e+001	-7.481504e+000	-1.565992e+002
627187500	-3.644024e+000	1.361552e+002	-1.752471e+001	1.747198e+002	-5.109526e+001	-1.232781e+002	-7.175246e+000	-1.585829e+002
630625000	-3.749731e+000	1.365886e+002	-1.737385e+001	1.762948e+002	-4.729545e+001	1.223882e+002	-7.336469e+000	-1.562749e+002
634062500	-3.767264e+000	1.356012e+002	-1.918091e+001	1.755445e+002	-5.193275e+001	-2.036486e+001	-7.326110e+000	-1.575318e+002
637500000	-3.793105e+000	1.353351e+002	-2.026197e+001	-1.739372e+002	-5.712897e+001	6.641643e+001	-7.289385e+000	-1.563968e+002
640937500	-3.835883e+000	1.352855e+002	-2.046143e+001	-1.684345e+002	-6.555205e+001	1.314445e+002	-7.254170e+000	-1.569095e+002
644375000	-3.796975e+000	1.345400e+002	-2.197526e+001	-1.610610e+002	-5.179518e+001	8.205501e+001	-7.265565e+000	-1.565636e+002
647812500	-3.819649e+000	1.340968e+002	-2.085827e+001	-1.468685e+002	-5.856102e+001	-8.116913e+001	-7.182349e+000	-1.561789e+002
651250000	-3.847696e+000	1.344773e+002	-2.006501e+001	-1.357689e+002	-5.416264e+001	1.710298e+002	-7.069392e+000	-1.552206e+002
654687500	-3.847365e+000	1.334613e+002	-1.826444e+001	-1.199355e+002	-5.695909e+001	-1.387271e+002	-7.149490e+000	-1.563547e+002
658125000	-3.773882e+000	1.330089e+002	-1.703119e+001	-1.192778e+002	-5.794329e+001	1.439510e+002	-7.220758e+000	-1.562973e+002
661562500	-3.770034e+000	1.323446e+002	-1.557036e+001	-1.155280e+002	-5.182120e+001	1.477301e+002	-7.342255e+000	-1.554282e+002
665000000	-3.955053e+000	1.329317e+002	-1.379972e+001	-1.156435e+002	-4.796069e+001	5.918941e+001	-7.209258e+000	-1.557855e+002
668437500	-3.857205e+000	1.321752e+002	-1.278238e+001	-1.151283e+002	-5.775574e+001	1.094767e+002	-6.898265e+000	-1.550100e+002
671875000	-3.862091e+000	1.314269e+002	-1.150535e+001	-1.150860e+002	-5.923096e+001	1.186203e+002	-6.701294e+000	-1.549031e+002
675312500	-3.817421e+000	1.317445e+002	-1.083166e+001	-1.190221e+002	-5.679795e+001	-1.019927e+002	-6.815096e+000	-1.557840e+002
678750000	-3.923383e+000	1.311529e+002	-9.730061e+000	-1.204263e+002	-6.397643e+001	5.983538e+001	-6.823267e+000	-1.557460e+002
682187500	-3.985335e+000	1.305047e+002	-8.734348e+000	-1.226378e+002	-6.185177e+001	1.307437e+002	-6.743169e+000	-1.554537e+002
685625000	-3.889043e+000	1.298034e+002	-8.015006e+000	-1.248495e+002	-4.963556e+001	-3.893385e+001	-6.622277e+000	-1.554474e+002
689062500	-3.940699e+000	1.304920e+002	-7.449482e+000	-1.279359e+002	-5.916471e+001	-1.242670e+002	-6.541648e+000	-1.548803e+002
692500000	-3.922703e+000	1.297677e+002	-6.602380e+000	-1.327337e+002	-5.743051e+001	9.352833e+001	-6.469234e+000	-1.546606e+002
695937500	-3.910375e+000	1.283279e+002	-6.044049e+000	-1.351287e+002	-6.849212e+001	-8.575256e+001	-6.483078e+000	-1.548612e+002
699375000	-4.016352e+000	1.289221e+002	-5.556166e+000	-1.365075e+002	-5.830653e+001	1.194149e+002	-6.321538e+000	-1.547236e+002
702812500	-4.019152e+000	1.291679e+002	-4.894674e+000	-1.410800e+002	-4.944285e+001	-9.677766e+001	-6.221176e+000	-1.547411e+002
706250000	-3.887500e+000	1.277746e+002	-4.399992e+000	-1.437263e+002	-5.383431e+001	-4.562150e+000	-6.227649e+000	-1.549488e+002
709687500	-3.982541e+000	1.266893e+002	-4.025541e+000	-1.475899e+002	-5.943656e+001	1.455338e+002	-6.052785e+000	-1.538346e+002
713125000	-4.008090e+000	1.275429e+002	-3.642501e+000	-1.494227e+002	-5.259151e+001	3.862872e+001	-5.983415e+000	-1.548307e+002
716562500	-3.969992e+000	1.268803e+002	-3.182161e+000	-1.519657e+002	-5.827552e+001	7.743389e+001	-5.732494e+000	-1.548377e+002
720000000	-4.038837e+000	1.264835e+002	-2.731158e+000	-1.544663e+002	-5.794137e+001	8.479545e+001	-5.784705e+000	-1.544274e+002
723437500	-4.033276e+000	1.263987e+002	-2.312035e+000	-1.577910e+002	-5.894958e+001	1.098590e+002	-5.619551e+000	-1.555633e+002
726875000	-4.013305e+000	1.257249e+002	-1.942936e+000	-1.609266e+002	-5.353485e+001	-3.922170e+001	-5.389299e+000	-1.564782e+002
730312500	-4.143347e+000	1.253597e+002	-1.565255e+000	-1.636200e+002	-5.616200e+001	-5.223921e+000	-5.180361e+000	-1.554226e+002
733750000	-4.231627e+000	1.243334e+002	-1.327400e+000	-1.668776e+002	-5.173635e+001	1.174589e+002	-5.154127e+000	-1.555961e+002
737187500	-4.172181e+000	1.245735e+002	-9.651590e-001	-1.697377e+002	-5.407054e+001	-9.411546e+001	-5.148049e+000	-1.565484e+002
740625000	-4.210243e+000	1.244245e+002	-6.818202e-001	-1.726524e+002	-6.568213e+001	-2.585751e+001	-5.023858e+000	-1.566730e+002
744062500	-4.107591e+000	1.240378e+002	-4.233463e-001	-1.757601e+002	-5.405806e+001	4.471440e+000	-4.747833e+000	-1.572572e+002
747500000	-4.247500e+000	1.234809e+002	-2.297283e-001	-1.793179e+002	-5.611902e+001	8.794155e+001	-4.737618e+000	-1.582229e+002
750937500	-4.293736e+000	1.232454e+002	2.826572e-002	1.780122e+002	-5.104802e+001	-5.770645e+001	-4.687898e+000	-1.586856e+002
754375000	-4.344628e+000	1.226285e+002	2.228214e-001	1.747961e+002	-5.104213e+001	-9.379847e+001	-4.427396e+000	-1.585203e+002
757812500	-4.344314e+000	1.220057e+002	3.667684e-001	1.719209e+002	-6.247992e+001	-1.422244e+002	-4.350209e+000	-1.606812e+002
761250000	-4.408279e+000	1.218224e+002	5.522835e-001	1.686236e+002	-5.424667e+001	1.589660e+001	-4.033305e+000	-1.618287e+002
764687500	-4.455240e+000	1.213041e+002	6.074854e-001	1.653059e+002	-5.219938e+001	-1.273792e+002	-4.080518e+000	-1.623475e+002
768125000	-4.519683e+000	1.210166e+002	6.658195e-001	1.623984e+002	-5.420809e+001	-8.428169e+001	-3.858522e+000	-1.636466e+002
771562500	-4.488119e+000	1.208059e+002	7.165543e-001	1.593344e+002	-6.023492e+001	-1.370959e+002	-3.740183e+000	-1.647002e+002
775000000	-4.514377e+000	1.205287e+002	7.192986e-001	1.561602e+002	-5.598535e+001	-4.744396e+001	-3.721734e+000	-1.665253e+002
778437500	-4.598699e+000	1.199606e+002	6.418273e-001	1.531848e+002	-4.864797e+001	-1.762940e+002	-3.530494e+000	-1.675221e+002
781875000	-4.677017e+000	1.195500e+002	4.887707e-001	1.505773e+002	-5.407831e+001	-9.226548e+001	-3.430294e+000	-1.689514e+002
785312500	-4.682466e+000	1.196012e+002	2.498010e-001	1.482426e+002	-5.224590e+001	-1.516544e+002	-3.340647e+000	-1.708762e+002
788750000	-4.691425e+000	1.192172e+002	1.881919e-003	1.466239e+002	-5.221036e+001	-1.693950e+002	-3.410648e+000	-1.731858e+002
792187500	-4.764996e+000	1.196461e+002	-3.453894e-001	1.449321e+002	-4.775765e+001	-1.711885e+002	-3.290455e+000	-1.747158e+002
795625000	-4.792759e+000	1.194976e+002	-6.859544e-001	1.440076e+002	-5.697832e+001	3.490886e+001	-3.294635e+000	-1.766169e+002
799062500	-4.837858e+000	1.192752e+002	-1.027711e+000	1.445194e+002	-5.322026e+001	-1.434148e+002	-3.251003e+000	-1.791438e+002
802500000	-4.773500e+000	1.199064e+002	-1.490741e+000	1.456235e+002	-5.501708e+001	3.488106e+001	-3.329828e+000	1.790778e+002
805937500	-4.748193e+000	1.188535e+002	-1.624477e+000	1.478188e+002	-6.760656e+001	-1.359054e+002	-3.372783e+000	1.766205e+002
809375000	-4.752440e+000	1.191728e+002	-1.813332e+000	1.505550e+002	-5.281726e+001	5.921268e+001	-3.506755e+000	1.744725e+002
812812500	-4.723318e+000	1.187347e+002	-1.722866e+000	1.539394e+002	-6.570446e+001	3.176223e+001	-3.589223e+000	1.722202e+002
816250000	-4.620224e+000	1.181744e+002	-1.606366e+000	1.571047e+002	-5.403040e+001	7.457916e+001	-3.768828e+000	1.699706e+002
819687500	-4.602676e+000	1.184600e+002	-1.283901e+000	1.607019e+002	-5.013197e+001	8.910472e+001	-3.962578e+000	1.682976e+002
823125000	-4.607192e+000	1.174927e+002	-9.234908e-001	1.632845e+002	-6.399090e+001	9.543465e+001	-4.145212e+000	1.664692e+002
826562500	-4.667149e+000	1.176254e+002	-3.917959e-001	1.656658e+002	-5.352903e+001	1.251513e+002	-4.580334e+000	1.637440e+002
830000000	-4.645707e+000	1.164255e+002	1.714281e-001	1.672467e+002	-5.405668e+001	-1.439317e+002	-4.742573e+000	1.631605e+002
833437500	-4.589787e+000	1.152838e+002	8.173223e-001	1.686082e+002	-5.621962e+001	-1.119407e+001	-5.167527e+000	1.614351e+002
836875000	-4.623762e+000	1.149361e+002	1.450752e+000	1.690867e+002	-6.258917e+001	-1.623372e+002	-5.434935e+000	1.603664e+002
840312500	-4.603320e+000	1.151182e+002	2.138877e+000	1.693157e+002	-5.187284e+001	9.398122e+001	-5.818317e+000	1.607802e+002
843750000	-4.530817e+000	1.141786e+002	2.796016e+000	1.688880e+002	-5.194657e+001	1.310615e+002	-6.314590e+000	1.582264e+002
847187500	-4.654228e+000	1.137575e+002	3.373422e+000	1.681334e+002	-5.538379e+001	1.047022e+002	-6.567080e+000	1.577101e+002
850625000	-4.613578e+000	1.134542e+002	3.942091e+000	1.669382e+002	-4.863033e+001	1.012152e+002	-7.164158e+000	1.585656e+002
854062500	-4.726550e+000	1.121335e+002	4.466345e+000	1.656715e+002	-5.069913e+001	1.089001e+002	-7.393541e+000	1.578747e+002
857500000	-4.705356e+000	1.117975e+002	5.006013e+000	1.646037e+002	-4.816621e+001	1.718452e+002	-7.585732e+000	1.585479e+002
860937500	-4.686936e+000	1.109222e+002	5.510002e+000	1.632518e+002	-5.228470e+001	1.272829e+002	-8.009608e+000	1.586931e+002
864375000	-4.757746e+000	1.105055e+002	5.985005e+000	1.617597e+002	-5.731447e+001	-1.453490e+002	-8.555046e+000	1.603540e+002
867812500	-4.710747e+000	1.100670e+002	6.462309e+000	1.601137e+002	-5.027559e+001	1.464913e+002	-8.598665e+000	1.613450e+002
871250000	-4.840510e+000	1.096471e+002	6.937874e+000	1.584283e+002	-5.220321e+001	-1.324259e+002	-8.910634e+000	1.617144e+002
874687500	-4.799479e+000	1.085871e+002	7.356198e+000	1.564958e+002	-5.452182e+001	-1.407094e+002	-9.241217e+000	1.631317e+002
878125000	-4.934607e+000	1.087127e+002	7.794186e+000	1.548196e+002	-6.956926e+001	-1.368904e+002	-9.427082e+000	1.644983e+002
881562500	-4.844141e+000	1.069457e+002	8.182536e+000	1.526962e+002	-4.916721e+001	-1.720502e+002	-9.619676e+000	1.670689e+002
885000000	-4.861579e+000	1.082319e+002	8.638634e+000	1.510089e+002	-6.234940e+001	8.252366e+001	-9.687589e+000	1.694846e+002
888437500	-4.996280e+000	1.067628e+002	8.965976e+000	1.490490e+002	-4.941959e+001	1.093998e+002	-9.589146e+000	1.690348e+002
891875000	-4.975396e+000	1.067956e+002	9.381976e+000	1.470490e+002	-5.779537e+001	1.075409e+002	-1.000030e+001	1.707210e+002
895312500	-5.059439e+000	1.053032e+002	9.705942e+000	1.452705e+002	-5.812754e+001	1.494713e+001	-1.008228e+001	1.717650e+002
898750000	-5.066608e+000	1.048084e+002	1.005691e+001	1.432403e+002	-4.882273e+001	1.435615e+002	-1.018923e+001	1.740662e+002
902187500	-5.214659e+000	1.044786e+002	1.042283e+001	1.412560e+002	-5.288736e+001	-8.231243e+001	-1.023020e+001	1.732053e+002
905625000	-5.149851e+000	1.038184e+002	1.076514e+001	1.390350e+002	-5.341905e+001	1.378527e+002	-1.029839e+001	1.770750e+002
909062500	-5.143458e+000	1.038377e+002	1.108588e+001	1.371651e+002	-5.837663e+001	8.776544e+001	-1.034742e+001	1.761212e+002
912500000	-5.322740e+000	1.019213e+002	1.140945e+001	1.354872e+002	-5.339644e+001	5.767453e+001	-1.027238e+001	1.780495e+002
915937500	-5.377836e+000	1.024807e+002	1.175030e+001	1.331971e+002	-5.366023e+001	1.217125e+002	-1.011705e+001	-1.797064e+002
919375000	-5.441655e+000	1.010176e+002	1.204169e+001	1.314725e+002	-5.400827e+001	2.465822e+001	-1.033874e+001	-1.799077e+002
922812500	-5.449789e+000	1.005301e+002	1.230460e+001	1.293632e+002	-5.668079e+001	1.441584e+002	-1.031808e+001	-1.774722e+002
926250000	-5.485698e+000	1.003248e+002	1.263550e+001	1.274130e+002	-5.028952e+001	3.072188e+001	-1.021067e+001	-1.772967e+002
929687500	-5.496419e+000	9.947566e+001	1.293688e+001	1.255011e+002	-6.733114e+001	-1.555355e+002	-1.027729e+001	-1.764290e+002
933125000	-5.574122e+000	9.792968e+001	1.326518e+001	1.235420e+002	-4.796739e+001	8.992731e+001	-1.029604e+001	-1.749900e+002
936562500	-5.714303e+000	9.852020e+001	1.352407e+001	1.213415e+002	-5.346641e+001	-6.568233e+001	-1.025278e+001	-1.748871e+002
940000000	-5.749211e+000	9.761442e+001	1.378940e+001	1.192494e+002	-5.342496e+001	1.679622e+002	-1.009314e+001	-1.731581e+002
943437500	-5.793629e+000	9.738200e+001	1.405122e+001	1.173378e+002	-5.176373e+001	1.240284e+002	-1.007488e+001	-1.725922e+002
946875000	-5.901318e+000	9.645204e+001	1.435261e+001	1.153333e+002	-4.700653e+001	9.542178e+001	-1.003976e+001	-1.732162e+002
950312500	-6.092900e+000	9.648334e+001	1.461977e+001	1.131785e+002	-6.943229e+001	-1.201973e+001	-9.887125e+000	-1.723196e+002
953750000	-6.191256e+000	9.550502e+001	1.486903e+001	1.110961e+002	-4.936442e+001	-1.631653e+002	-9.747196e+000	-1.713247e+002
957187500	-6.091144e+000	9.575157e+001	1.512246e+001	1.091090e+002	-5.513336e+001	1.344031e+002	-9.998835e+000	-1.705323e+002
960625000	-6.129740e+000	9.423385e+001	1.542225e+001	1.072156e+002	-5.894985e+001	1.218216e+000	-9.788395e+000	-1.705582e+002
964062500	-6.341983e+000	9.377283e+001	1.566812e+001	1.049113e+002	-5.451625e+001	7.113757e+001	-9.848835e+000	-1.696993e+002
967500000	-6.366072e+000	9.372243e+001	1.591723e+001	1.029317e+002	-5.602479e+001	6.276339e+001	-1.008698e+001	-1.690861e+002
970937500	-6.553826e+000	9.348001e+001	1.612858e+001	1.007322e+002	-5.336624e+001	6.984680e+001	-9.719794e+000	-1.698724e+002
974375000	-6.407151e+000	9.198576e+001	1.642984e+001	9.887620e+001	-6.141522e+001	-2.895169e+001	-9.768843e+000	-1.671080e+002
977812500	-6.644328e+000	9.210814e+001	1.664134e+001	9.673201e+001	-5.093237e+001	2.514880e+001	-9.301332e+000	-1.686137e+002
981250000	-6.687714e+000	9.086595e+001	1.692762e+001	9.450598e+001	-6.246025e+001	1.668161e+001	-9.415069e+000	-1.673652e+002
984687500	-6.839496e+000	9.053938e+001	1.712156e+001	9.254872e+001	-5.127078e+001	-6.741581e+001	-9.353766e+000	-1.680969e+002
988125000	-6.964927e+000	9.044735e+001	1.733421e+001	9.025552e+001	-5.371020e+001	-7.257351e+000	-9.397307e+000	-1.674613e+002
991562500	-7.110839e+000	8.901763e+001	1.758232e+001	8.800447e+001	-6.528611e+001	1.613470e+002	-9.173588e+000	-1.660690e+002
995000000	-7.374042e+000	8.920737e+001	1.780592e+001	8.587324e+001	-5.599593e+001	5.218792e+001	-9.111323e+000	-1.657570e+002
998437500	-7.429870e+000	8.792541e+001	1.800851e+001	8.367212e+001	-5.665626e+001	1.433929e+002	-9.458278e+000	-1.664326e+002
1001875000	-7.424006e+000	8.869983e+001	1.826109e+001	8.179151e+001	-5.836993e+001	-1.224870e+002	-9.266783e+000	-1.672055e+002
1005312500	-7.685815e+000	8.817926e+001	1.845204e+001	7.940563e+001	-5.989049e+001	-1.328272e+000	-9.147360e+000	-1.644404e+002
1008750000	-7.758055e+000	8.684086e+001	1.864702e+001	7.727236e+001	-4.976246e+001	6.624712e+001	-8.801810e+000	-1.658958e+002
1012187500	-7.901586e+000	8.736878e+001	1.886703e+001	7.520471e+001	-4.941954e+001	-1.841647e+000	-9.009867e+000	-1.657380e+002
1015625000	-7.913155e+000	8.752448e+001	1.909233e+001	7.279126e+001	-5.075825e+001	-1.069358e+001	-8.796927e+000	-1.645762e+002
1019062500	-8.249015e+000	8.686633e+001	1.923811e+001	7.062119e+001	-5.399524e+001	3.711120e+001	-8.845462e+000	-1.639871e+002
1022500000	-8.266938e+000	8.513901e+001	1.943532e+001	6.834642e+001	-5.088305e+001	-1.072961e+000	-8.809367e+000	-1.650301e+002
