! SKY66292-11
!
! S-PARAMETERS_DE-EMBEDDED
!
! VCC1 = VCC2 = VCC3 = VBIAS = 5.00VDC
! PA_ENABLE = 2.00VDC
!
! START FREQUENCY = 500MHZ
! STOP FREQUENCY = 6.0GHZ
!
! DATA POINTS = 1601
!
! CHARACTERISTIC IMPEDANCE = 50 OHMS
!
! AMBIENT TEMPERATURE = +25C
!
!Agilent Technologies,E5071C,MY46108160,A.09.30
!Date: Tue Nov 07 08:09:18 2017
!Data & Calibration Information:
!Freq	S11:SOLT2(ON)	S21:SOLT2(ON)	S12:SOLT2(ON)	S22:SOLT2(ON)
# Hz S dB R 50
500000000	-1.245272e-001	-3.164629e+001	-4.991747e+001	7.031281e+001	-5.684056e+001	-9.445040e+001	-4.770926e-001	-3.150442e+001
503437500	-1.574762e-001	-3.129120e+001	-5.008260e+001	-3.358266e+001	-5.419885e+001	2.503188e+001	-4.631874e-001	-3.165301e+001
506875000	-9.856020e-002	-3.167383e+001	-5.145681e+001	1.110178e+002	-5.992433e+001	-2.629210e+001	-5.024888e-001	-3.181790e+001
510312500	-1.386545e-001	-3.230691e+001	-5.237329e+001	-1.144186e+002	-5.370064e+001	8.070756e+001	-4.839815e-001	-3.197197e+001
513750000	-7.577634e-002	-3.244265e+001	-5.284725e+001	-2.606870e+001	-5.222051e+001	-6.918743e+001	-5.304151e-001	-3.235010e+001
517187500	-1.484558e-001	-3.231187e+001	-5.666305e+001	8.972357e+001	-5.286292e+001	1.015023e+002	-4.499996e-001	-3.277075e+001
520625000	-1.015920e-001	-3.230714e+001	-4.950957e+001	-4.430618e+001	-6.069197e+001	1.117019e+002	-5.470700e-001	-3.230023e+001
524062500	-9.405069e-002	-3.270052e+001	-4.742752e+001	-5.094604e+001	-6.038466e+001	-5.049273e+001	-4.973549e-001	-3.305069e+001
527500000	-1.539254e-001	-3.299944e+001	-5.402950e+001	-6.761345e+001	-5.390669e+001	6.707728e+001	-4.692421e-001	-3.320260e+001
530937500	-1.115528e-001	-3.322090e+001	-5.431971e+001	1.670381e+002	-5.724890e+001	4.244019e+001	-4.732284e-001	-3.295841e+001
534375000	-1.457053e-001	-3.360012e+001	-5.264554e+001	-1.231055e+002	-6.398236e+001	6.265849e+001	-5.022466e-001	-3.383967e+001
537812500	-1.243234e-001	-3.404353e+001	-5.864230e+001	-9.172503e+001	-4.957812e+001	5.758813e+001	-5.504394e-001	-3.410298e+001
541250000	-9.754090e-002	-3.412911e+001	-5.234240e+001	1.390367e+002	-5.290553e+001	-4.118972e+001	-5.631306e-001	-3.443671e+001
544687500	-1.220116e-001	-3.398904e+001	-5.967864e+001	-1.388907e+002	-5.686254e+001	1.336636e+002	-5.939227e-001	-3.460905e+001
548125000	-1.083268e-001	-3.438772e+001	-5.021743e+001	-1.217930e+002	-5.455702e+001	8.306954e+000	-4.561008e-001	-3.422759e+001
551562500	-1.086810e-001	-3.460073e+001	-5.640265e+001	-1.012500e+002	-5.641369e+001	2.909075e+001	-5.929337e-001	-3.464988e+001
555000000	-1.383709e-001	-3.492111e+001	-4.959501e+001	-2.875465e+000	-5.797210e+001	7.012486e+001	-4.233908e-001	-3.469016e+001
558437500	-1.321072e-001	-3.510064e+001	-5.320937e+001	-1.564507e+002	-6.264591e+001	5.050059e+000	-4.659985e-001	-3.514663e+001
561875000	-1.334966e-001	-3.542193e+001	-5.862029e+001	3.197183e+001	-5.376421e+001	1.400293e+002	-5.697735e-001	-3.554808e+001
565312500	-1.164983e-001	-3.569854e+001	-7.088860e+001	1.202467e+002	-6.580747e+001	7.485968e+001	-5.737479e-001	-3.562783e+001
568750000	-1.343423e-001	-3.596723e+001	-5.811234e+001	7.494206e+001	-5.865063e+001	-1.605509e+002	-5.284687e-001	-3.536957e+001
572187500	-2.370528e-001	-3.567776e+001	-5.871000e+001	-7.070913e+001	-5.275590e+001	-1.782251e+002	-5.268327e-001	-3.666652e+001
575625000	-2.154210e-001	-3.611764e+001	-5.202311e+001	-1.382870e+002	-5.217936e+001	1.013295e+002	-4.275475e-001	-3.584044e+001
579062500	-1.987006e-001	-3.666105e+001	-7.141591e+001	1.233648e+002	-5.759813e+001	5.000220e+001	-4.793154e-001	-3.650509e+001
582500000	-1.320110e-001	-3.667781e+001	-6.031957e+001	-1.006931e+002	-5.962903e+001	1.143858e+002	-5.661257e-001	-3.678824e+001
585937500	-1.887882e-001	-3.664775e+001	-6.039661e+001	-1.782467e+002	-5.799698e+001	-6.073436e+000	-5.106032e-001	-3.726700e+001
589375000	-1.217342e-001	-3.697532e+001	-5.715653e+001	-1.067422e+002	-5.749183e+001	-1.637712e+002	-4.917903e-001	-3.702540e+001
592812500	-1.648310e-001	-3.723788e+001	-5.379866e+001	7.736297e+000	-5.049851e+001	2.535166e+001	-5.695349e-001	-3.798957e+001
596250000	-1.634360e-001	-3.809773e+001	-6.765222e+001	-1.031650e+002	-5.334572e+001	7.703270e+001	-5.826617e-001	-3.902363e+001
599687500	-1.375506e-001	-3.804057e+001	-5.521737e+001	8.792971e+001	-6.246851e+001	1.643037e+002	-5.822533e-001	-3.843881e+001
603125000	-1.427604e-001	-3.859986e+001	-5.678681e+001	1.306849e+002	-6.069431e+001	-1.734412e+002	-4.727468e-001	-3.918843e+001
606562500	-1.305150e-001	-3.818789e+001	-6.509614e+001	-8.227977e+001	-6.437473e+001	1.420549e+002	-5.463764e-001	-3.884719e+001
610000000	-1.758457e-001	-3.786398e+001	-5.489428e+001	5.565150e+001	-5.353118e+001	1.279972e+002	-5.686935e-001	-3.907891e+001
613437500	-1.685055e-001	-3.926129e+001	-4.870184e+001	-1.717511e+002	-5.452430e+001	1.069956e+002	-5.912783e-001	-3.943852e+001
616875000	-8.915413e-002	-3.908069e+001	-5.463103e+001	1.582475e+002	-5.438556e+001	-9.032861e+001	-6.238426e-001	-3.981988e+001
620312500	-9.744134e-002	-3.937501e+001	-6.507845e+001	1.471947e+002	-5.680588e+001	-1.086584e+002	-6.401559e-001	-4.001113e+001
623750000	-1.318450e-001	-3.967591e+001	-4.909234e+001	-5.009999e+001	-5.285721e+001	-8.040952e+001	-6.323968e-001	-4.010903e+001
627187500	-2.858498e-001	-3.983157e+001	-4.961570e+001	1.135924e+002	-5.801979e+001	2.363853e+001	-6.610391e-001	-4.043733e+001
630625000	-1.606941e-001	-4.059743e+001	-7.370624e+001	1.473904e+002	-5.487808e+001	-1.696125e+002	-6.898448e-001	-4.058447e+001
634062500	-1.944925e-001	-4.046518e+001	-5.275273e+001	5.621861e+001	-5.880639e+001	-9.625387e+001	-6.699200e-001	-4.069469e+001
637500000	-1.860557e-001	-4.059544e+001	-4.900931e+001	-9.844511e+001	-5.466262e+001	1.524875e+002	-7.302015e-001	-4.110374e+001
640937500	-1.439629e-001	-4.080973e+001	-4.863764e+001	1.437436e+002	-4.908225e+001	-1.097375e+002	-7.048249e-001	-4.109734e+001
644375000	-7.521229e-002	-4.076558e+001	-5.423275e+001	1.787650e+002	-7.367693e+001	-5.480935e+001	-7.205112e-001	-4.134901e+001
647812500	-1.625297e-001	-4.052657e+001	-4.904062e+001	1.757414e+001	-5.474166e+001	9.367742e+001	-8.614832e-001	-4.177711e+001
651250000	-1.048049e-001	-4.093725e+001	-5.415070e+001	-1.085114e+001	-5.655094e+001	-9.661515e+001	-7.712640e-001	-4.162314e+001
654687500	-1.190795e-001	-4.173299e+001	-5.697000e+001	-6.082120e+001	-6.045926e+001	-2.559268e+001	-7.791572e-001	-4.207196e+001
658125000	-2.449927e-001	-4.157773e+001	-5.296816e+001	1.097834e+001	-5.642054e+001	1.160422e+002	-8.435851e-001	-4.243856e+001
661562500	-2.000754e-001	-4.212476e+001	-5.151310e+001	1.757064e+002	-5.204007e+001	-1.612289e+002	-7.242658e-001	-4.247365e+001
665000000	-1.678918e-001	-4.194585e+001	-4.742307e+001	-7.626038e+001	-4.890308e+001	6.556440e+001	-8.200872e-001	-4.276932e+001
668437500	-2.054004e-001	-4.266690e+001	-5.041992e+001	2.213682e+001	-5.488122e+001	2.766718e+001	-7.831011e-001	-4.220522e+001
671875000	-1.917203e-001	-4.259755e+001	-6.125642e+001	-1.285770e+002	-5.216112e+001	-6.820331e+001	-6.696193e-001	-4.285115e+001
675312500	-1.052319e-001	-4.267578e+001	-6.132490e+001	1.463367e+002	-5.599839e+001	-1.094301e+002	-7.663133e-001	-4.273870e+001
678750000	-1.670798e-001	-4.321072e+001	-5.356454e+001	1.608218e+002	-4.603509e+001	1.535287e+001	-7.706757e-001	-4.334879e+001
682187500	-1.763305e-001	-4.369359e+001	-4.773748e+001	1.133785e+002	-5.681150e+001	3.812142e+001	-9.333138e-001	-4.290260e+001
685625000	-2.324564e-001	-4.363581e+001	-4.936708e+001	1.094715e+002	-6.076591e+001	-5.948807e+001	-9.036689e-001	-4.473833e+001
689062500	-1.568530e-001	-4.412774e+001	-4.771335e+001	-2.738669e+001	-5.403285e+001	-1.367522e+002	-7.634383e-001	-4.387685e+001
692500000	-1.983421e-001	-4.393313e+001	-4.646950e+001	-3.267400e+001	-6.247671e+001	-1.700503e+002	-7.986326e-001	-4.487438e+001
695937500	-2.414374e-001	-4.423790e+001	-5.204165e+001	-2.886234e+001	-5.378019e+001	-1.776394e+002	-8.520998e-001	-4.423741e+001
699375000	-2.040019e-001	-4.423791e+001	-4.385124e+001	6.088205e+001	-5.732310e+001	2.815213e+000	-7.376756e-001	-4.464850e+001
702812500	-1.965229e-001	-4.490484e+001	-5.207941e+001	-7.981871e+001	-5.897755e+001	1.205910e+001	-8.749731e-001	-4.475450e+001
706250000	-2.194395e-001	-4.490856e+001	-4.491967e+001	7.135393e+000	-6.393458e+001	6.494854e+001	-8.241895e-001	-4.528588e+001
709687500	-2.100236e-001	-4.513629e+001	-4.796673e+001	1.348920e+002	-5.438486e+001	-9.697017e+000	-8.634212e-001	-4.513856e+001
713125000	-1.588078e-001	-4.584669e+001	-6.645986e+001	-3.209676e+001	-4.785695e+001	2.641329e+001	-9.008942e-001	-4.572104e+001
716562500	-2.355596e-001	-4.582071e+001	-4.516736e+001	-6.297736e+001	-6.033489e+001	-1.637815e+002	-8.092484e-001	-4.540037e+001
720000000	-2.072215e-001	-4.580270e+001	-4.872522e+001	3.844075e+001	-5.604133e+001	6.473768e+001	-9.209254e-001	-4.587524e+001
723437500	-2.274889e-001	-4.647214e+001	-5.175662e+001	1.127187e+002	-5.348613e+001	-1.409337e+002	-8.120057e-001	-4.620484e+001
726875000	-2.005054e-001	-4.630080e+001	-4.606351e+001	1.655685e+001	-5.186808e+001	1.248297e+001	-9.116894e-001	-4.622119e+001
730312500	-2.715577e-001	-4.649378e+001	-4.429158e+001	1.652897e+002	-6.394885e+001	1.467528e+002	-8.864134e-001	-4.678554e+001
733750000	-2.129191e-001	-4.672823e+001	-4.254362e+001	-3.402634e+001	-5.251144e+001	5.277575e+000	-8.820958e-001	-4.682394e+001
737187500	-2.359816e-001	-4.708830e+001	-3.881280e+001	1.690557e+002	-5.725480e+001	-7.714383e+001	-8.542471e-001	-4.703200e+001
740625000	-2.224791e-001	-4.722974e+001	-4.750465e+001	1.719358e+002	-5.304041e+001	-2.586536e+000	-8.718875e-001	-4.695503e+001
744062500	-2.039372e-001	-4.729931e+001	-4.546509e+001	2.591264e+001	-5.843645e+001	-3.743224e+001	-8.305367e-001	-4.760991e+001
747500000	-2.982510e-001	-4.739411e+001	-4.260752e+001	-1.671757e+002	-5.159866e+001	-3.027904e+001	-9.590019e-001	-4.762662e+001
750937500	-2.177740e-001	-4.786675e+001	-4.306145e+001	-1.782739e+002	-5.167719e+001	1.727377e+000	-8.580943e-001	-4.788485e+001
754375000	-2.082549e-001	-4.790663e+001	-4.242208e+001	-8.757904e+001	-5.799731e+001	1.651184e+002	-8.257454e-001	-4.831174e+001
757812500	-2.523308e-001	-4.893633e+001	-5.139047e+001	9.652651e+001	-5.510377e+001	-1.204017e+002	-9.410987e-001	-4.821703e+001
761250000	-2.640444e-001	-4.906216e+001	-5.172058e+001	-3.794978e+000	-5.625033e+001	-6.768637e+001	-8.693142e-001	-4.825045e+001
764687500	-2.034462e-001	-4.890631e+001	-5.307178e+001	-1.264758e+002	-7.683975e+001	-4.707611e+001	-9.714138e-001	-4.781037e+001
768125000	-2.135405e-001	-4.888519e+001	-4.714849e+001	-1.374384e+002	-5.584343e+001	-5.303274e+001	-8.870188e-001	-4.908374e+001
771562500	-2.664682e-001	-4.937559e+001	-4.859731e+001	-5.561139e+001	-5.265460e+001	-1.700872e+002	-8.131192e-001	-4.944266e+001
775000000	-1.701247e-001	-4.987506e+001	-3.960580e+001	2.500670e+001	-5.487682e+001	-8.544725e+001	-8.899280e-001	-4.937785e+001
778437500	-2.520418e-001	-4.990250e+001	-5.077434e+001	4.930482e+001	-5.983325e+001	-1.563514e+002	-8.411192e-001	-4.982224e+001
781875000	-3.083356e-001	-5.069802e+001	-4.098732e+001	-8.275791e+001	-5.429875e+001	-4.922275e+001	-6.975875e-001	-5.012867e+001
785312500	-2.677352e-001	-5.022959e+001	-4.617213e+001	5.770051e+001	-5.616366e+001	-1.469260e+002	-7.975289e-001	-4.984231e+001
788750000	-2.408007e-001	-5.051050e+001	-6.033291e+001	-9.291174e+001	-6.844344e+001	1.430795e+002	-9.164538e-001	-5.093474e+001
792187500	-2.843172e-001	-5.140270e+001	-5.486267e+001	-8.907346e+001	-5.386538e+001	-7.511741e+001	-7.291730e-001	-5.098990e+001
795625000	-2.897062e-001	-5.145851e+001	-4.550743e+001	1.202595e+002	-5.645329e+001	-7.788838e+001	-7.634145e-001	-5.195487e+001
799062500	-2.416898e-001	-5.127933e+001	-4.831322e+001	-8.187881e+001	-5.315554e+001	-1.084962e+001	-7.174503e-001	-5.123016e+001
802500000	-2.864378e-001	-5.202874e+001	-4.833456e+001	1.227436e+002	-6.083004e+001	-7.423404e-001	-7.782961e-001	-5.190072e+001
805937500	-3.331561e-001	-5.171214e+001	-5.047563e+001	1.499202e+002	-6.708204e+001	-1.099111e+002	-6.974607e-001	-5.274179e+001
809375000	-3.029603e-001	-5.228291e+001	-4.035420e+001	-6.826767e+001	-5.172905e+001	-1.508412e+002	-8.164588e-001	-5.316562e+001
812812500	-3.220273e-001	-5.203817e+001	-5.268250e+001	1.608634e+002	-6.124343e+001	4.943270e+001	-7.276708e-001	-5.314702e+001
816250000	-3.133083e-001	-5.244776e+001	-4.678355e+001	-1.472023e+002	-6.211588e+001	-1.049539e+002	-7.145737e-001	-5.364455e+001
819687500	-3.071236e-001	-5.331859e+001	-4.640294e+001	-6.084601e+001	-5.112141e+001	1.648323e+002	-7.459454e-001	-5.415956e+001
823125000	-3.039885e-001	-5.344153e+001	-5.745870e+001	8.201198e+001	-5.808340e+001	8.301962e+001	-6.394940e-001	-5.489129e+001
826562500	-2.688329e-001	-5.337943e+001	-4.815992e+001	2.943200e-001	-5.504612e+001	1.120257e+002	-7.407907e-001	-5.512310e+001
830000000	-2.726415e-001	-5.367043e+001	-6.036430e+001	-5.486178e-001	-7.649418e+001	3.214102e+000	-7.346478e-001	-5.600723e+001
833437500	-2.582013e-001	-5.393454e+001	-6.642564e+001	-1.684589e+002	-4.752002e+001	1.382214e+002	-7.764022e-001	-5.663442e+001
836875000	-2.733485e-001	-5.397649e+001	-4.356648e+001	1.220929e+002	-5.841473e+001	5.713698e+001	-8.275619e-001	-5.708833e+001
840312500	-3.056582e-001	-5.447934e+001	-4.264184e+001	1.003171e+001	-5.651464e+001	-1.041606e+002	-8.463431e-001	-5.748637e+001
843750000	-2.956935e-001	-5.474116e+001	-5.039585e+001	-3.928117e+000	-5.936481e+001	1.747609e+002	-8.960544e-001	-5.798033e+001
847187500	-3.137060e-001	-5.491230e+001	-4.755273e+001	-7.958315e+000	-5.079937e+001	4.692984e+001	-9.327430e-001	-5.842582e+001
850625000	-2.560986e-001	-5.522651e+001	-4.760046e+001	1.018116e+002	-5.030514e+001	-1.619222e+002	-1.032740e+000	-5.949173e+001
854062500	-3.265449e-001	-5.541360e+001	-4.545476e+001	-9.535306e+001	-5.419119e+001	1.992456e+001	-1.003059e+000	-5.937420e+001
857500000	-2.881382e-001	-5.518667e+001	-4.968665e+001	-2.927817e+001	-6.248155e+001	-8.174831e+001	-1.146734e+000	-5.943978e+001
860937500	-2.916972e-001	-5.603156e+001	-4.388797e+001	-4.207813e+001	-5.575174e+001	-6.807618e-001	-1.159168e+000	-6.028855e+001
864375000	-2.928237e-001	-5.654847e+001	-4.804953e+001	-8.652893e+001	-5.119806e+001	9.088118e+001	-1.224587e+000	-6.008610e+001
867812500	-3.054299e-001	-5.614698e+001	-5.111729e+001	-8.534040e+001	-5.731219e+001	-7.265144e+001	-1.264690e+000	-6.086482e+001
871250000	-2.820995e-001	-5.664258e+001	-5.240530e+001	-8.247392e+001	-6.030289e+001	1.644124e+002	-1.278200e+000	-6.111606e+001
874687500	-3.464960e-001	-5.637385e+001	-4.298463e+001	-5.360248e+001	-5.666293e+001	1.608614e+002	-1.238957e+000	-6.169529e+001
878125000	-2.746209e-001	-5.686888e+001	-4.728189e+001	-9.718528e+001	-6.216860e+001	-2.206335e+001	-1.417038e+000	-6.139964e+001
881562500	-3.404168e-001	-5.699886e+001	-3.952690e+001	-7.652760e+001	-5.325434e+001	6.608341e+001	-1.558663e+000	-6.184099e+001
885000000	-2.131683e-001	-5.734964e+001	-3.750362e+001	-6.414870e+001	-5.532260e+001	-1.186859e+002	-1.576973e+000	-6.170297e+001
888437500	-2.833748e-001	-5.818745e+001	-4.002489e+001	-8.701679e+001	-5.147144e+001	-1.604140e+002	-1.489750e+000	-6.248501e+001
891875000	-3.348833e-001	-5.795530e+001	-3.579872e+001	-6.206611e+001	-5.284202e+001	1.089472e+002	-1.688540e+000	-6.262318e+001
895312500	-3.555649e-001	-5.801342e+001	-3.815460e+001	-5.934196e+001	-5.688596e+001	6.748432e+001	-1.531195e+000	-6.162544e+001
898750000	-2.826509e-001	-5.827086e+001	-3.894985e+001	-6.786514e+001	-7.253645e+001	-1.005917e+002	-1.700608e+000	-6.108571e+001
902187500	-4.208473e-001	-5.872889e+001	-3.652802e+001	-8.157910e+001	-6.451439e+001	-1.728256e+001	-1.727342e+000	-6.233846e+001
905625000	-3.805355e-001	-5.917005e+001	-3.793230e+001	-8.025130e+001	-5.012110e+001	1.779718e+002	-1.831317e+000	-6.297113e+001
909062500	-3.936579e-001	-5.916311e+001	-3.603848e+001	-8.098616e+001	-5.539760e+001	2.273108e+001	-1.719831e+000	-6.235743e+001
912500000	-3.480588e-001	-5.921336e+001	-3.878409e+001	-8.903034e+001	-5.610822e+001	1.074106e+002	-1.771378e+000	-6.301153e+001
915937500	-3.693173e-001	-5.972720e+001	-3.710245e+001	-1.064214e+002	-5.430995e+001	-7.340278e+001	-1.895034e+000	-6.355594e+001
919375000	-3.190353e-001	-6.018849e+001	-3.602930e+001	-9.756285e+001	-5.686603e+001	1.661518e+001	-1.882531e+000	-6.344892e+001
922812500	-3.070784e-001	-6.051217e+001	-3.735397e+001	-9.863509e+001	-5.813665e+001	-1.892788e+001	-1.883439e+000	-6.313902e+001
926250000	-3.281221e-001	-6.067406e+001	-3.406656e+001	-1.012870e+002	-5.381918e+001	-1.561075e+002	-1.897075e+000	-6.328739e+001
929687500	-4.199049e-001	-6.137774e+001	-3.494602e+001	-1.078449e+002	-5.551884e+001	-6.806134e+001	-1.915479e+000	-6.291127e+001
933125000	-3.957396e-001	-6.089073e+001	-3.466360e+001	-1.079920e+002	-4.865545e+001	-9.162740e+001	-1.939855e+000	-6.302322e+001
936562500	-3.313441e-001	-6.098105e+001	-3.371790e+001	-1.059921e+002	-5.015821e+001	-9.488671e+001	-1.966377e+000	-6.401868e+001
940000000	-4.017107e-001	-6.123538e+001	-3.318253e+001	-1.070445e+002	-6.308745e+001	-5.635939e+001	-1.976983e+000	-6.343119e+001
943437500	-3.292363e-001	-6.223064e+001	-3.367567e+001	-1.096092e+002	-5.604984e+001	1.405407e+002	-1.961238e+000	-6.423243e+001
946875000	-4.352802e-001	-6.171807e+001	-3.365349e+001	-1.121781e+002	-5.138055e+001	8.430937e+001	-1.971294e+000	-6.381577e+001
950312500	-3.165754e-001	-6.263310e+001	-3.224738e+001	-1.220466e+002	-5.371261e+001	3.333299e+001	-2.023734e+000	-6.416783e+001
953750000	-3.501444e-001	-6.251357e+001	-3.242465e+001	-1.199585e+002	-5.732871e+001	4.342294e+001	-2.067745e+000	-6.442338e+001
957187500	-4.457157e-001	-6.247427e+001	-3.215593e+001	-1.284108e+002	-7.917043e+001	-4.861477e+001	-2.038599e+000	-6.436620e+001
960625000	-3.928809e-001	-6.248894e+001	-3.124997e+001	-1.235851e+002	-5.039887e+001	1.148224e+002	-2.108858e+000	-6.462762e+001
964062500	-3.737260e-001	-6.349046e+001	-3.119855e+001	-1.372821e+002	-5.432841e+001	-1.386389e+002	-2.093511e+000	-6.477721e+001
967500000	-3.291853e-001	-6.337032e+001	-3.095416e+001	-1.304409e+002	-5.244865e+001	1.504919e+002	-2.175923e+000	-6.482778e+001
970937500	-3.012063e-001	-6.332606e+001	-3.038491e+001	-1.319996e+002	-5.569147e+001	-1.773820e+002	-2.063677e+000	-6.547607e+001
974375000	-3.808020e-001	-6.367558e+001	-3.006830e+001	-1.344413e+002	-5.034017e+001	-4.073042e+000	-2.095992e+000	-6.526312e+001
977812500	-3.933254e-001	-6.401086e+001	-2.961197e+001	-1.391816e+002	-4.916412e+001	-1.377393e+002	-2.226627e+000	-6.576131e+001
981250000	-4.675535e-001	-6.400266e+001	-2.923968e+001	-1.435691e+002	-6.204925e+001	-1.617071e+002	-2.221561e+000	-6.566099e+001
984687500	-4.005919e-001	-6.480676e+001	-2.899075e+001	-1.450794e+002	-6.113024e+001	-1.264882e+002	-2.170164e+000	-6.596416e+001
988125000	-4.746681e-001	-6.521820e+001	-2.854430e+001	-1.477657e+002	-5.900498e+001	8.667546e+001	-2.216639e+000	-6.638143e+001
991562500	-4.348233e-001	-6.528370e+001	-2.873922e+001	-1.463149e+002	-5.128359e+001	-9.387703e+001	-2.156325e+000	-6.654960e+001
995000000	-4.235926e-001	-6.522179e+001	-2.811404e+001	-1.526123e+002	-5.564730e+001	-1.059408e+002	-2.172819e+000	-6.652194e+001
998437500	-3.871735e-001	-6.565301e+001	-2.767525e+001	-1.556526e+002	-6.067590e+001	2.398312e+001	-2.267105e+000	-6.670711e+001
1001875000	-4.061886e-001	-6.590009e+001	-2.710354e+001	-1.557135e+002	-5.640795e+001	-5.396197e+001	-2.318627e+000	-6.702462e+001
1005312500	-3.547810e-001	-6.547233e+001	-2.670598e+001	-1.587217e+002	-5.458951e+001	-8.383341e+001	-2.266763e+000	-6.721446e+001
1008750000	-3.873417e-001	-6.671539e+001	-2.690364e+001	-1.617594e+002	-5.367088e+001	4.377292e+001	-2.430930e+000	-6.714425e+001
1012187500	-4.320551e-001	-6.651156e+001	-2.663063e+001	-1.649341e+002	-5.692910e+001	-7.278067e+001	-2.323047e+000	-6.739764e+001
1015625000	-3.693707e-001	-6.683173e+001	-2.620927e+001	-1.667111e+002	-6.458459e+001	1.723087e+002	-2.271977e+000	-6.736890e+001
